# point,freq,zreal,reflected_zimag,zimag,zmod,zphz,zsig,Idc,Vdc,ie_range,gain,vmod,vphz,vsig,vthd,imod,iphz,isig,ithd,zreal_drift,zimag_drift,zmod_drift,zphz_drift
0.0,100019.53125,3533.86865234375,159.8725128173828,-159.8725128173828,3537.483154296875,-2.590299844741821,1.0,8.866171441468396e-08,0.20070186257362363,8.0,0.23548676073551175,0.00833030417561531,-52.85053634643555,0.0004452638968359679,0.04905498027801514,2.3548675471829483e-06,-50.26023864746094,9.999999747378752e-06,0.03918452560901642,3533.86865234375,-159.8725128173828,3537.483154296875,-2.590299844741821
1.0,79511.71875,3578.579345703125,230.86163330078125,-230.86163330078125,3586.018310546875,-3.6911554336547847,1.0,1.2941451643655455e-07,0.2524964213371277,8.0,0.23420231044292447,0.03566458821296692,-151.9553985595703,0.0014709244715049863,0.0373285748064518,9.945455531124024e-06,-148.2642364501953,9.999999747378752e-06,0.03196297213435173,3578.579345703125,-230.86163330078125,3586.018310546875,-3.6911554336547847
2.0,63105.46875,3626.525146484375,299.1549072265625,-299.1549072265625,3638.843017578125,-4.7156968116760245,1.0,1.233736668382335e-07,0.28616976737976074,8.0,0.2883076071739197,0.04479486867785454,-52.3337516784668,0.0016741444123908875,0.0348036102950573,1.231019450642634e-05,-47.61805725097656,9.999999747378752e-06,0.03665754944086074,3626.525146484375,-299.1549072265625,3638.843017578125,-4.7156968116760245
3.0,50214.84375,3682.7729492187505,365.5747985839844,-365.5747985839844,3700.873046875,-5.668961524963378,1.0,9.912511700349568e-08,0.30336296558380127,8.0,0.38914555311203,0.049952838569879525,-124.21947479248045,0.0011241344036534429,0.018965207040309903,1.3497582585841881e-05,-118.5505142211914,9.999999747378752e-06,0.02029800601303577,3682.7729492187505,-365.5747985839844,3700.873046875,-5.668961524963378
4.0,39902.34375,3709.395751953125,456.0289916992188,-456.0289916992188,3737.322509765625,-7.008710861206056,1.0,8.532703077435144e-08,0.3051772117614746,8.0,0.4947024285793304,0.04751082137227058,-144.56057739257812,0.0004735950496979058,0.002647554501891136,1.2712529496639036e-05,-137.55184936523435,9.999999747378752e-06,0.003543690545484424,3709.395751953125,-456.0289916992188,3737.322509765625,-7.008710861206056
5.0,31699.21875,3797.730712890625,501.3570251464844,-501.3570251464844,3830.6811523437505,-7.520409107208253,1.0,8.014937691314115e-08,0.31214120984077454,8.0,0.5724647641181946,0.04432826489210129,135.8685302734375,0.0005445211427286267,0.003563453443348408,1.1571901268325746e-05,143.38894653320312,9.999999747378752e-06,0.008605024777352812,3797.730712890625,-501.3570251464844,3830.6811523437505,-7.520409107208253
6.0,25136.71875,3870.348388671875,580.8751220703125,-580.8751220703125,3913.695556640625,-8.53543949127197,1.0,7.202237384262844e-08,0.3146272599697113,8.0,0.6473159193992615,0.04425420612096786,-120.25391387939452,0.0005419151857495308,0.0025107979308813806,1.130752389144618e-05,-111.7184600830078,9.999999747378752e-06,0.007605779916048051,3870.348388671875,-580.8751220703125,3913.695556640625,-8.53543949127197
7.0,19980.46875,3945.234375,665.3649291992188,-665.3649291992188,4000.947998046875,-9.572868347167969,1.0,7.74184911733755e-08,0.31906023621559143,8.0,0.7153613567352295,0.04421525448560715,-46.56119537353516,0.0005920095718465745,0.013073531910777092,1.1051193723687902e-05,-36.988327026367195,9.999999747378752e-06,0.010711530223488808,3945.234375,-665.3649291992188,4000.947998046875,-9.572868347167969
8.0,15878.90625,4025.6635742187505,754.6655883789062,-754.6655883789062,4095.788818359375,-10.617643356323242,1.0,7.709564897595556e-08,0.32436850666999817,8.0,0.7744469046592712,0.0443408228456974,75.45062255859375,0.0006045624031685293,0.0014437848003581166,1.0825953722815028e-05,86.06826782226561,9.999999747378752e-06,0.002495486056432128,4025.6635742187505,-754.6655883789062,4095.788818359375,-10.617643356323242
9.0,12597.65625,4167.0263671875,854.998779296875,-854.998779296875,4253.8369140625,-11.595133781433104,1.0,8.359046432815374e-08,0.3291375935077667,8.0,0.8140434622764587,0.04471331089735031,-13.14423942565918,0.0006123989005573094,0.001984253525733948,1.0511288564885035e-05,-1.5491050481796265,9.999999747378752e-06,0.0041811284609138966,4167.0263671875,-854.998779296875,4253.8369140625,-11.595133781433104
10.0,10019.53125,4214.04736328125,979.9921264648435,-979.9921264648435,4326.49755859375,-13.091650009155272,1.0,8.133424245215792e-08,0.33133673667907715,8.0,0.8605014681816101,0.04573412984609604,-160.70443725585935,0.0005762960063293576,0.01249512191861868,1.0570706763246562e-05,-147.6127777099609,9.999999747378752e-06,0.011092539876699448,4214.04736328125,-979.9921264648435,4326.49755859375,-13.091650009155272
11.0,7928.24072265625,4326.306640625,1116.0501708984375,-1116.0501708984375,4467.94091796875,-14.465128898620604,1.0,1.0141518913542313e-07,0.3417332172393799,8.0,0.8917430639266967,0.04630155116319656,151.78102111816406,0.0006303368718363345,0.006319202948361635,1.036306275636889e-05,166.2461700439453,9.999999747378752e-06,0.021613186225295063,4326.306640625,-1116.0501708984375,4467.94091796875,-14.465128898620604
12.0,6307.87060546875,4452.58251953125,1267.4326171875,-1267.4326171875,4629.45751953125,-15.889062881469727,1.0,9.131768052839105e-08,0.34852486848831177,8.0,0.9141519069671632,0.047457918524742126,47.03953170776367,0.0006502120522782208,0.0013155500637367368,1.0251292223983908e-05,62.92859649658203,9.999999747378752e-06,0.00210135173983872,4452.58251953125,-1267.4326171875,4629.45751953125,-15.889062881469727
13.0,5034.72216796875,4592.34716796875,1441.748779296875,-1441.748779296875,4813.34521484375,-17.42947006225586,1.0,9.382320342865569e-08,0.3579375743865967,8.0,0.9002088308334351,0.04739929735660553,53.10110855102539,0.00041496724588796496,0.0007191852200776339,9.847475666902028e-06,70.53057861328125,9.999999747378752e-06,0.0005320426425896585,4592.34716796875,-1441.748779296875,4813.34521484375,-17.42947006225586
14.0,3993.0556640625,4745.09619140625,1636.38623046875,-1636.38623046875,5019.33251953125,-19.027183532714844,1.0,9.684563195833107e-08,0.3703978061676025,8.0,0.9320827126502991,0.051970526576042175,58.43297958374024,0.00046502219629473984,0.0005507932510226965,1.0354071491747163e-05,77.46016693115233,9.999999747378752e-06,0.0007080938667058945,4745.09619140625,-1636.38623046875,5019.33251953125,-19.027183532714844
15.0,3144.054931640625,4926.275390625,1871.1146240234373,-1871.1146240234373,5269.65478515625,-20.797948837280277,1.0,1.0510765946492029e-07,0.37811940908432007,8.0,0.9480613470077514,0.05359991639852524,97.53016662597656,0.00033044774318113923,0.004979675170034169,1.0171429494221227e-05,118.32810974121092,9.999999747378752e-06,0.0007691242499276996,4926.275390625,-1871.1146240234373,5269.65478515625,-20.797948837280277
16.0,2519.53125,5114.92041015625,2123.8056640625,-2123.8056640625,5538.3173828125,-22.549091339111328,1.0,1.0793776539230748e-07,0.38671925663948054,8.0,0.9597066044807434,0.056063462048769,26.502447128295895,0.0006832448998466134,0.011580435559153557,1.0122832463821396e-05,49.051536560058594,9.999999747378752e-06,0.0008918145904317497,5114.92041015625,-2123.8056640625,5538.3173828125,-22.549091339111328
17.0,2000.76220703125,5335.00244140625,2422.3720703125,-2422.3720703125,5859.19287109375,-24.420551300048828,1.0,1.170147783113862e-07,0.39879870414733887,8.0,0.9676472544670106,0.059076715260744095,58.12465667724609,0.00031906855292618275,0.0016983745153993368,1.0082740118377842e-05,82.54520416259764,9.999999747378752e-06,0.0011424992699176073,5335.00244140625,-2422.3720703125,5859.19287109375,-24.420551300048828
18.0,1580.6685791015625,5588.0791015625,2771.112548828125,-2771.112548828125,6237.44287109375,-26.37668228149414,1.0,1.2026231388517772e-07,0.4113507270812988,8.0,0.9740596413612365,0.06278777122497559,101.69190979003906,0.0002209438971476629,0.002164754318073392,1.0066268259834033e-05,128.0685882568359,9.999999747378752e-06,0.0009027859196066856,5588.0791015625,-2771.112548828125,6237.44287109375,-26.37668228149414
19.0,1253.6336669921875,5875.68115234375,3175.5322265625,-3175.5322265625,6678.89453125,-28.389158248901367,1.0,1.2364669998987665e-07,0.42073455452919006,8.0,0.9769749641418456,0.06698884069919586,138.61947631835935,0.0003854020906146616,0.0028953249566257,1.0029929399024695e-05,167.00863647460935,9.999999747378752e-06,0.0014041854301467536,5875.68115234375,-3175.5322265625,6678.89453125,-28.389158248901367
20.0,1000.7022705078124,6197.318359375,3657.1254882812495,-3657.1254882812495,7195.92431640625,-30.545455932617188,1.0,1.0557715768300113e-07,0.41985359787940973,8.0,0.9815207123756408,0.07229404896497726,14.170884132385252,0.00042902113636955613,0.004039832390844822,1.0046528586826751e-05,44.716339111328125,9.999999747378752e-06,0.0019105469109490516,6197.318359375,-3657.1254882812495,7195.92431640625,-30.545455932617188
21.0,790.028076171875,6577.5390625,4221.658203125,-4221.658203125,7815.77978515625,-32.69354248046875,1.0,1.196624452859396e-07,0.42511385679245,8.0,0.9850739240646361,0.07844074070453644,-144.2328338623047,0.0005999603890813887,0.00540953828021884,1.003620127448812e-05,-111.53929138183592,9.999999747378752e-06,0.0015180488117039204,6577.5390625,-4221.658203125,7815.77978515625,-32.69354248046875
22.0,628.8109741210938,6999.04833984375,4860.3525390625,-4860.3525390625,8521.1328125,-34.77729034423828,1.0,1.1945364519760915e-07,0.428597629070282,8.0,0.9872738122940063,0.08540162444114685,66.19416809082031,0.0009523988119326531,0.007083675358444452,1.0022332389780784e-05,100.9714584350586,9.999999747378752e-06,0.001265416736714542,6999.04833984375,-4860.3525390625,8521.1328125,-34.77729034423828
23.0,502.2321472167969,7051.14013671875,5750.212890625,-5750.212890625,9098.544921875,-39.19728469848633,1.0,1.2115873460061266e-07,0.4422444701194763,8.0,0.9592778682708739,0.08840539306402206,140.11920166015625,0.0007355078123509885,0.006158696487545967,9.716432032291776e-06,179.3164825439453,9.999999747378752e-06,0.0004996279603801668,7051.14013671875,-5750.212890625,9098.544921875,-39.19728469848633
24.0,400.1524353027344,7639.09765625,6550.36279296875,-6550.36279296875,10062.955078125,-40.61238479614258,1.0,1.1810031708137104e-07,0.4547692537307739,8.0,0.9815227389335632,0.10296306759119032,93.97168731689453,0.0011451470199972391,0.01007018517702818,1.0231891792500392e-05,134.58407592773435,9.999999747378752e-06,0.0008157035917975008,7639.09765625,-6550.36279296875,10062.955078125,-40.61238479614258
25.0,315.5048217773437,8341.203125,7573.943359375,-7573.943359375,11266.7783203125,-42.239944458007805,1.0,1.2085250489235477e-07,0.45900893211364746,8.0,0.9909919500350952,0.11375472694635393,-176.69613647460935,0.0017150596249848604,0.014619473367929459,1.0096474397869317e-05,-134.45619201660156,9.999999747378752e-06,0.001022663549520075,8341.203125,-7573.943359375,11266.7783203125,-42.239944458007805
26.0,252.01612854003903,9085.55078125,8700.7041015625,-8700.7041015625,12579.724609375,-43.76046752929688,1.0,1.2214984224101502e-07,0.4630613923072815,8.0,0.993541955947876,0.12612095475196838,66.61538696289062,0.002504292642697692,0.01946972124278545,1.0025732080976011e-05,110.3758544921875,9.999999747378752e-06,0.0012711695162579415,9085.55078125,-8700.7041015625,12579.724609375,-43.76046752929688
27.0,200.3205108642578,9983.7685546875,10108.240234375,-10108.240234375,14207.46875,-45.35494995117188,1.0,1.2421045880728346e-07,0.4601760506629944,8.0,0.9939790964126587,0.14213718473911283,43.43642807006836,0.003630371997132897,0.0251619890332222,1.0004399882745927e-05,88.79137420654298,9.999999747378752e-06,0.0013604131527245045,9983.7685546875,-10108.240234375,14207.46875,-45.35494995117188
28.0,158.005615234375,11127.318359375,11977.701171875,-11977.701171875,16348.7783203125,-47.10782623291016,1.0,1.2583731745507978e-07,0.4428810179233551,8.0,0.9918650388717651,0.16314005851745603,87.02249145507811,0.005258720368146896,0.031776655465364456,9.978731213777792e-06,134.13031005859375,9.999999747378752e-06,0.0016041876515373588,11127.318359375,-11977.701171875,16348.7783203125,-47.10782623291016
29.0,125.5580368041992,12261.236328125,13708.5322265625,-13708.5322265625,18391.89453125,-48.18979644775391,1.0,1.2879101518592506e-07,0.45771461725234985,8.0,0.984125018119812,0.18248373270034793,-149.05557250976562,0.007250181399285793,0.039280269294977195,9.921965101966634e-06,-100.86577606201172,9.999999747378752e-06,0.0018209796398878095,12261.236328125,-13708.5322265625,18391.89453125,-48.18979644775391
30.0,99.73403930664062,13540.94921875,15602.361328125,-15602.361328125,20658.919921875,-49.046001434326165,1.0,1.2092735346413974e-07,0.4813854396343231,8.0,0.9635129570960999,0.20226228237152097,27.127269744873047,0.009686040692031384,0.04728125780820847,9.790554031496868e-06,76.17327117919923,9.999999747378752e-06,0.001943657989613712,13540.94921875,-15602.361328125,20658.919921875,-49.046001434326165
31.0,79.44915008544922,14955.7509765625,17031.982421875,-17031.982421875,22666.337890625,-48.71369552612305,1.0,1.1435123781211587e-07,0.527855396270752,8.0,0.9883657693862915,0.23250992596149445,-143.81849670410156,0.014630078338086603,0.06135324761271477,1.0257939720759168e-05,-95.10480499267578,9.999999747378752e-06,0.001940788468346,14955.7509765625,-17031.982421875,22666.337890625,-48.71369552612305
32.0,62.919464111328125,16869.080078125,19883.34375,-19883.34375,26075.146484375,-49.688640594482415,1.0,1.1362070040377149e-07,0.5203415751457214,8.0,0.9893094301223754,0.2610004246234894,-143.1747894287109,0.019162623211741447,0.07159828394651413,1.0009547622757964e-05,-93.48615264892578,9.999999747378752e-06,0.0018549594096839428,16869.080078125,-19883.34375,26075.146484375,-49.688640594482415
33.0,49.86701965332031,19137.927734375,23040.474609375,-23040.474609375,29952.0234375,-50.286231994628906,1.0,1.072674038482546e-07,0.5101010203361511,8.0,0.9904869198799133,0.29987674951553345,-143.94322204589844,0.02538013644516468,0.08357457816600798,1.0011902304540852e-05,-93.65699005126952,9.999999747378752e-06,0.002245116513222456,19137.927734375,-23040.474609375,29952.0234375,-50.286231994628906
34.0,39.72457504272461,21750.30078125,26761.837890625,-26761.837890625,34485.81640625,-50.89800643920898,1.0,1.0966828511982385e-07,0.49330073595047,8.0,0.9911579489707946,0.3450917899608612,-143.5800323486328,0.033322162926197045,0.09536629170179368,1.0006774573412258e-05,-92.68202209472656,9.999999747378752e-06,0.0020601635333150625,21750.30078125,-26761.837890625,34485.81640625,-50.89800643920898
35.0,31.672296524047848,24773.177734375,31017.697265625,-31017.697265625,39696.4453125,-51.38637924194336,1.0,1.0564804853174793e-07,0.47172009944915766,8.0,0.9919252395629882,0.3972717821598053,-143.28955078125,0.04298127815127373,0.1068650409579277,1.0007741366280243e-05,-91.90318298339844,9.999999747378752e-06,0.002373903291299939,24773.177734375,-31017.697265625,39696.4453125,-51.38637924194336
36.0,25.201612472534176,28298.333984375,35700.95703125,-35700.95703125,45556.0546875,-51.59792709350586,1.0,9.402418044146545e-08,0.44784060120582575,8.0,0.9926255345344543,0.4558821618556976,-142.87838745117188,0.05447489395737648,0.11801741272211073,1.0007060154748613e-05,-91.28046417236328,9.999999747378752e-06,0.002486916957423091,28298.333984375,-35700.95703125,45556.0546875,-51.59792709350586
37.0,20.03205108642578,32366.52734375,41308.51171875,-41308.51171875,52478.42578125,-51.92017364501953,1.0,9.489861696465597e-08,0.40743157267570496,8.0,0.9932614564895629,0.5251204371452332,-142.68603515625,0.06623271107673645,0.12459033727645874,1.000640622805804e-05,-90.76586151123047,9.999999747378752e-06,0.002156878588721156,32366.52734375,-41308.51171875,52478.42578125,-51.92017364501953
38.0,15.782828330993652,37091.18359375,47401.60546875,-47401.60546875,60188.60546875,-51.95724868774414,1.0,9.462495853540531e-08,0.3590899705886841,8.0,0.9940030574798585,0.6023353934288025,-142.30299377441406,0.07694743573665619,0.1262054294347763,1.0007466698880307e-05,-90.34573364257811,9.999999747378752e-06,0.0020905020646750927,37091.18359375,-47401.60546875,60188.60546875,-51.95724868774414
39.0,12.600806236267088,41872.96484375,52860.92578125,-52860.92578125,67436.0625,-51.61603927612305,1.0,9.335987982694863e-08,0.3095194399356842,8.0,0.9946489930152893,0.674798846244812,-141.64208984375,0.08200531452894211,0.1200721189379692,1.000649808702292e-05,-90.02605438232422,9.999999747378752e-06,0.0018080726731568573,41872.96484375,-52860.92578125,67436.0625,-51.61603927612305
40.0,9.973403930664062,46771.91015625,57474.11328125,-57474.11328125,74100.5078125,-50.86161804199219,1.0,9.640602627314365e-08,0.2665477693080902,8.0,0.9954791665077208,0.7416235208511353,-140.6187744140625,0.08389116078615187,0.1117723062634468,1.000834618025692e-05,-89.75716400146483,9.999999747378752e-06,0.0016147823771461844,46771.91015625,-57474.11328125,74100.5078125,-50.86161804199219
41.0,7.971938610076904,51413.8203125,61155.74609375,-61155.74609375,79896.21875,-49.9461326599121,1.0,9.049820448581158e-08,0.22850643098354337,8.0,0.9962815642356871,0.7996062636375427,-139.4909210205078,0.08448911458253859,0.10441024601459505,1.0008060598920563e-05,-89.54478454589844,9.999999747378752e-06,0.0014028656296432018,51413.8203125,-61155.74609375,79896.21875,-49.9461326599121
42.0,6.275100231170654,56236.953125,64519.26953125,-64519.26953125,85588.1484375,-48.923606872558594,1.0,8.348896329835041e-08,0.1943169981241226,8.0,0.9970105886459351,0.8565077781677246,-138.28610229492188,0.087531678378582,0.10098624229431152,1.0007317541749217e-05,-89.36249542236328,9.999999747378752e-06,0.0012826460879296064,56236.953125,-64519.26953125,85588.1484375,-48.923606872558594
43.0,5.013369083404541,60481.80859375,67477.0625,-67477.0625,90615.6875,-48.12913131713867,1.0,8.425884345797385e-08,0.1680052280426025,8.0,0.9976199269294738,0.9067108035087584,-137.34996032714844,0.0926033928990364,0.10091906040906906,1.0006111551774664e-05,-89.2208251953125,9.999999747378752e-06,0.0011409075232222676,60481.80859375,-67477.0625,90615.6875,-48.12913131713867
44.0,3.985969305038452,64571.21875,70441.796875,-70441.796875,95558.828125,-47.489742279052734,1.0,9.995805783091782e-08,0.15125977993011475,8.0,0.9978474378585817,0.9558061957359314,-136.59767150878906,0.1004769206047058,0.10388027876615524,1.0002280760090798e-05,-89.10791015625,9.999999747378752e-06,0.0010134283220395444,64571.21875,-70441.796875,95558.828125,-47.489742279052734
45.0,3.1758129596710205,68313.84375,73261.796875,-73261.796875,100170.2109375,-47.00162506103516,1.0,1.241730274159636e-07,0.14698998630046844,8.0,0.9984986782073975,1.002355933189392,-136.0200958251953,0.10970454663038252,0.10815298557281494,1.0006526281358674e-05,-89.01846313476561,9.999999747378752e-06,0.0009106528013944624,68313.84375,-73261.796875,100170.2109375,-47.00162506103516
46.0,2.516103029251098,71110.546875,76653.984375,-76653.984375,104558.8046875,-47.14846420288086,1.0,1.313303243932751e-07,0.14546883106231687,8.0,0.9676257371902464,1.0132591724395752,179.9788055419922,0.04845155403017998,0.04725836962461472,9.690806109574623e-06,-132.8727264404297,9.999999747378752e-06,0.00030236630118452007,71110.546875,-76653.984375,104558.8046875,-47.14846420288086
47.0,1.9955300092697144,73604.671875,77741.5,-77741.5,107057.875,-46.56570816040039,1.0,9.848731963302271e-08,0.13554835319519043,8.0,0.9865919947624207,1.0915629863739011,-169.52645874023435,0.07393822818994522,0.06693417578935623,1.0196008588536642e-05,-122.96073913574217,9.999999747378752e-06,0.0005153983947820961,73604.671875,-77741.5,107057.875,-46.56570816040039
