# point,freq,zreal,reflected_zimag,zimag,zmod,zphz,zsig,Idc,Vdc,ie_range,gain,vmod,vphz,vsig,vthd,imod,iphz,isig,ithd,zreal_drift,zimag_drift,zmod_drift,zphz_drift
0.0,100019.53125,3533.712158203125,138.50363159179688,-138.50363159179688,3536.425537109375,-2.2445554733276367,1.0,9.61294190915396e-08,0.21448132395744324,8.0,0.23575180768966675,0.008337187580764292,20.689884185791012,0.00032629555789753795,0.03190382942557335,2.35751804211759e-06,22.9344425201416,9.999999747378752e-06,0.04512223228812218,3533.712158203125,-138.50363159179688,3536.425537109375,-2.2445554733276367
1.0,79511.71875,3579.399658203125,211.59381103515625,-211.59381103515625,3585.6484375,-3.383064746856689,1.0,1.2846906827235216e-07,0.264618843793869,8.0,0.23474876582622528,0.03570392727851868,122.26616668701172,0.0013980648946017027,0.03547143191099167,9.957453585229814e-06,125.64922332763672,9.999999747378752e-06,0.03181706741452217,3579.399658203125,-211.59381103515625,3585.6484375,-3.383064746856689
2.0,63105.46875,3628.7348632812495,277.61553955078125,-277.61553955078125,3639.3388671875,-4.374878883361816,1.0,1.071575539413061e-07,0.2963179349899292,8.0,0.28930094838142395,0.044850680977106094,153.49124145507812,0.0016603177646175027,0.03472493961453438,1.2323854207352268e-05,157.86610412597656,9.999999747378752e-06,0.036770299077034,3628.7348632812495,-277.61553955078125,3639.3388671875,-4.374878883361816
3.0,50214.84375,3681.28125,344.1342468261719,-344.1342468261719,3697.3315429687505,-5.340614318847656,1.0,1.03856756084042e-07,0.2972298562526703,8.0,0.3909028470516205,0.04995826631784439,171.1601104736328,0.001212287927046418,0.018854932859539986,1.3511978977476247e-05,176.5007171630859,9.999999747378752e-06,0.01965660974383354,3681.28125,-344.1342468261719,3697.3315429687505,-5.340614318847656
4.0,39902.34375,3725.626953125,456.4542236328125,-456.4542236328125,3753.484619140625,-6.9849209785461435,1.0,1.0657452520490553e-07,0.2907530665397644,8.0,0.49375054240226746,0.04741037264466286,-172.0192108154297,0.0005276206065900624,0.0018793323542922733,1.2631029676413164e-05,-165.03428649902344,9.999999747378752e-06,0.004558251239359379,3725.626953125,-456.4542236328125,3753.484619140625,-6.9849209785461435
5.0,31699.21875,3796.2846679687505,476.3599243164063,-476.3599243164063,3826.054931640625,-7.152124881744385,1.0,1.1761569140844585e-07,0.2894263863563537,8.0,0.574157178401947,0.0444912314414978,-161.63372802734375,0.0006616165628656745,0.004459473304450512,1.1628487300185952e-05,-154.48159790039062,9.999999747378752e-06,0.012871242128312588,3796.2846679687505,-476.3599243164063,3826.054931640625,-7.152124881744385
6.0,25136.71875,3861.1342773437505,554.4511108398438,-554.4511108398438,3900.740234375,-8.171696662902832,1.0,1.0833717567493296e-07,0.29180416464805603,8.0,0.6502941846847534,0.044180043041706085,-65.69930267333984,0.000711869855877012,0.0025910583790391684,1.1326065759931224e-05,-57.52760314941406,9.999999747378752e-06,0.006515170447528361,3861.1342773437505,-554.4511108398438,3900.740234375,-8.171696662902832
7.0,19980.46875,3940.451416015625,631.2200927734375,-631.2200927734375,3990.688720703125,-9.100879669189453,1.0,9.799179423453096e-08,0.2975424826145172,8.0,0.7178751826286316,0.04405415803194047,8.334001541137694,0.0005573950475081801,0.012620030902326109,1.1039236596843692e-05,17.43488121032715,9.999999747378752e-06,0.015364566817879677,3940.451416015625,-631.2200927734375,3990.688720703125,-9.100879669189453
8.0,15878.90625,4009.87890625,723.2183227539062,-723.2183227539062,4074.5766601562495,-10.223904609680176,1.0,9.029715641872826e-08,0.29959502816200256,8.0,0.777601659297943,0.04413576796650887,75.12062835693358,0.0005597958806902169,0.0017842650413513184,1.0831990039150696e-05,85.3445358276367,9.999999747378752e-06,0.002354093361645937,4009.87890625,-723.2183227539062,4074.5766601562495,-10.223904609680176
9.0,12597.65625,4158.20556640625,840.2437744140626,-840.2437744140626,4242.25,-11.423863410949709,1.0,8.437939413852291e-08,0.30355411767959595,8.0,0.8163756728172302,0.04453783109784126,-11.03038215637207,0.000612179865129292,0.0023187615443021055,1.049863567459397e-05,0.39348143339157104,9.999999747378752e-06,0.005102544091641903,4158.20556640625,-840.2437744140626,4242.25,-11.423863410949709
10.0,10019.53125,4194.48583984375,940.2149658203123,-940.2149658203123,4298.5712890625,-12.634292602539062,1.0,7.267436785696191e-08,0.3043934106826782,8.0,0.8639818429946899,0.04549238085746765,-179.3119964599609,0.0006372958887368441,0.013667037710547447,1.05831404653145e-05,-166.67770385742188,9.999999747378752e-06,0.014631646685302256,4194.48583984375,-940.2149658203123,4298.5712890625,-12.634292602539062
11.0,7928.24072265625,4295.31005859375,1072.905517578125,-1072.905517578125,4427.28076171875,-14.024667739868164,1.0,6.873577262922481e-08,0.3139662444591522,8.0,0.8951897025108337,0.04587198421359062,133.75338745117188,0.0005332391010597348,0.006232608575373888,1.0361210115661377e-05,147.77804565429688,9.999999747378752e-06,0.021333802491426468,4295.31005859375,-1072.905517578125,4427.28076171875,-14.024667739868164
12.0,6307.87060546875,4418.357421875,1221.6082763671875,-1221.6082763671875,4584.12548828125,-15.455307960510252,1.0,5.942718672713454e-08,0.31695249676704407,8.0,0.9148359298706055,0.04684731364250183,55.67654037475586,0.00045353680616244674,0.0015638081822544336,1.0219464456895366e-05,71.13184356689453,9.999999747378752e-06,0.0019337666453793645,4418.357421875,-1221.6082763671875,4584.12548828125,-15.455307960510252
13.0,5034.72216796875,4545.02978515625,1390.173828125,-1390.173828125,4752.88134765625,-17.00713348388672,1.0,7.549294878117507e-08,0.3301452696323395,8.0,0.9036340117454528,0.04694683849811553,55.416748046875,0.0004001225752290338,0.0011412251042202115,9.877552656689657e-06,72.42387390136719,9.999999747378752e-06,0.0006755325011909008,4545.02978515625,-1390.173828125,4752.88134765625,-17.00713348388672
14.0,3993.0556640625,4694.62255859375,1582.2830810546875,-1582.2830810546875,4954.09912109375,-18.625957489013672,1.0,7.115644962141232e-08,0.33999601006507874,8.0,0.932433009147644,0.05111987516283989,71.07646942138672,0.0004551111196633428,0.000856913859024644,1.0318702152289916e-05,89.7024154663086,9.999999747378752e-06,0.0007972208550199865,4694.62255859375,-1582.2830810546875,4954.09912109375,-18.625957489013672
15.0,3144.054931640625,4869.71484375,1813.3831787109373,-1813.3831787109373,5196.39111328125,-20.4243106842041,1.0,7.285508729637513e-08,0.34815892577171326,8.0,0.9501023888587952,0.052948612719774246,105.06208801269533,0.0003283668775111437,0.007043698336929082,1.018949751596665e-05,125.48639678955078,9.999999747378752e-06,0.0008194556576199828,4869.71484375,-1813.3831787109373,5196.39111328125,-20.4243106842041
16.0,2519.53125,5049.45556640625,2060.18115234375,-2060.18115234375,5453.56298828125,-22.195491790771484,1.0,6.88904719936545e-08,0.3555723428726196,8.0,0.9616276025772095,0.055197175592184074,26.735523223876957,0.00047100795200094575,0.008203812874853611,1.0121304512722416e-05,48.931011199951165,9.999999747378752e-06,0.0008704951032996178,5049.45556640625,-2060.18115234375,5453.56298828125,-22.195491790771484
17.0,2000.76220703125,5267.2646484375,2362.58740234375,-2362.58740234375,5772.8583984375,-24.15822029113769,1.0,6.47659419428237e-08,0.3615931272506714,8.0,0.9688380956649779,0.05816144868731499,52.7942008972168,0.0003110278630629182,0.0017231495585292576,1.0074982128571717e-05,76.95242309570312,9.999999747378752e-06,0.0012263497337698936,5267.2646484375,-2362.58740234375,5772.8583984375,-24.15822029113769
18.0,1580.6685791015625,5515.92236328125,2714.14306640625,-2714.14306640625,6147.517578125,-26.199771881103516,1.0,7.022399017841963e-08,0.3715393543243408,8.0,0.9741144180297853,0.0618099682033062,102.78499603271484,0.00015594452270306647,0.002098693512380123,1.0054460290120915e-05,128.98475646972656,9.999999747378752e-06,0.0010941579239442945,5515.92236328125,-2714.14306640625,6147.517578125,-26.199771881103516
19.0,1253.6336669921875,5798.97216796875,3126.047607421875,-3126.047607421875,6587.88720703125,-28.327741622924805,1.0,7.124778989009428e-08,0.3750122487545013,8.0,0.9777964949607848,0.06612788140773773,138.7046356201172,0.0003003028978127986,0.0027474735397845502,1.0037799256679136e-05,167.03237915039062,9.999999747378752e-06,0.0011053119087591767,5798.97216796875,-3126.047607421875,6587.88720703125,-28.327741622924805
20.0,1000.7022705078124,6111.7578125,3581.279296875,-3581.279296875,7083.72412109375,-30.368831634521484,1.0,6.977078470526976e-08,0.37987360358238226,8.0,0.9828526377677916,0.07120353728532791,14.796167373657227,0.000487487151985988,0.004123885650187731,1.0051709978142752e-05,45.16499710083008,9.999999747378752e-06,0.002897352678701281,6111.7578125,-3581.279296875,7083.72412109375,-30.368831634521484
21.0,790.028076171875,6488.55810546875,4153.4267578125,-4153.4267578125,7704.04736328125,-32.62393951416016,1.0,7.525482459413979e-08,0.38062381744384766,8.0,0.985012114048004,0.07720973342657089,-143.7078399658203,0.0006051536765880883,0.005113362334668636,1.0021971320384182e-05,-111.08389282226562,9.999999747378752e-06,0.001409344607964158,6488.55810546875,-4153.4267578125,7704.04736328125,-32.62393951416016
22.0,628.8109741210938,6905.9443359375,4804.84912109375,-4804.84912109375,8413.00390625,-34.8284797668457,1.0,7.209876429215002e-08,0.37869155406951904,8.0,0.9875950217247008,0.08435065299272537,66.93859100341797,0.0008282450726255774,0.006777801085263491,1.0026222298620269e-05,101.76707458496092,9.999999747378752e-06,0.0011157516855746508,6905.9443359375,-4804.84912109375,8413.00390625,-34.8284797668457
23.0,502.2321472167969,6961.53271484375,5709.06787109375,-5709.06787109375,9003.1328125,-39.35476303100586,1.0,6.983903944046688e-08,0.38759094476699835,8.0,0.9599973559379577,0.0875154510140419,139.83204650878906,0.0006208568811416626,0.005752694793045521,9.720556590764316e-06,179.18679809570312,9.999999747378752e-06,0.0006124406354501843,6961.53271484375,-5709.06787109375,9003.1328125,-39.35476303100586
24.0,400.1524353027344,7562.73486328125,6563.1044921875,-6563.1044921875,10013.4560546875,-40.95215225219727,1.0,6.34876045069177e-08,0.39033088088035583,8.0,0.9821211099624632,0.10244223475456236,94.11149597167967,0.0010630354518070817,0.009416395798325537,1.0230456609860992e-05,135.0636444091797,9.999999747378752e-06,0.0007287103217095136,7562.73486328125,-6563.1044921875,10013.4560546875,-40.95215225219727
25.0,315.5048217773437,8300.3623046875,7705.93017578125,-7705.93017578125,11325.9599609375,-42.87316131591797,1.0,6.782410366668046e-08,0.3752895891666412,8.0,0.9893915057182312,0.11409802734851836,-177.25355529785156,0.0016030671540647743,0.013747556135058405,1.0074027159134856e-05,-134.38040161132812,9.999999747378752e-06,0.000850257754791528,8300.3623046875,-7705.93017578125,11325.9599609375,-42.87316131591797
26.0,252.01612854003903,9052.8408203125,8859.75,-8859.75,12666.849609375,-44.38240051269531,1.0,6.890002879345049e-08,0.3772440254688263,8.0,0.9936537742614746,0.127214178442955,66.37857818603516,0.002407714258879423,0.01856020838022232,1.0043079782917628e-05,110.76097869873045,9.999999747378752e-06,0.001208499656058848,9052.8408203125,-8859.75,12666.849609375,-44.38240051269531
27.0,200.3205108642578,9987.7890625,10392.8779296875,-10392.8779296875,14414.154296875,-46.138668060302734,1.0,6.565907995081943e-08,0.36181405186653137,8.0,0.994047462940216,0.14419865608215332,42.86318206787109,0.003501373576000333,0.023959450423717495,1.0003962415794376e-05,89.0018539428711,9.999999747378752e-06,0.0014304131036624312,9987.7890625,-10392.8779296875,14414.154296875,-46.138668060302734
28.0,158.005615234375,11192.7890625,12410.474609375,-12410.474609375,16712.224609375,-47.95325469970703,1.0,6.742648395174912e-08,0.33374685049057007,8.0,0.9913463592529296,0.166668102145195,86.77379608154298,0.00500689959153533,0.029505396261811256,9.972826774173882e-06,134.72705078125,9.999999747378752e-06,0.0016038931207731366,11192.7890625,-12410.474609375,16712.224609375,-47.95325469970703
29.0,125.5580368041992,12368.2958984375,14259.8330078125,-14259.8330078125,18876.375,-49.06319808959961,1.0,7.346503849703366e-08,0.34163305163383484,8.0,0.9831268191337584,0.187198668718338,-149.8781280517578,0.006986397318542004,0.036891859024763114,9.917087481881026e-06,-100.8149185180664,9.999999747378752e-06,0.0017298778984695673,12368.2958984375,-14259.8330078125,18876.375,-49.06319808959961
30.0,99.73403930664062,13729.4462890625,16338.2451171875,-16338.2451171875,21340.9453125,-49.95880508422852,1.0,7.731587459147704e-08,0.3541514277458191,8.0,0.963999569416046,0.20925746858119965,26.465822219848633,0.009467986412346365,0.0446777157485485,9.805444278754292e-06,76.42462921142578,9.999999747378752e-06,0.0018571898108348248,13729.4462890625,-16338.2451171875,21340.9453125,-49.95880508422852
31.0,79.44915008544922,15119.5986328125,17750.470703125,-17750.470703125,23316.978515625,-49.576114654541016,1.0,8.494109238199599e-08,0.41006878018379206,8.0,0.9879990220069885,0.23897472023963928,-144.6966094970703,0.014370678924024103,0.058636225759983056,1.0248957551084459e-05,-95.12049865722656,9.999999747378752e-06,0.0017318581230938435,15119.5986328125,-17750.470703125,23316.978515625,-49.576114654541016
32.0,62.919464111328125,17034.87890625,20694.71875,-20694.71875,26804.076171875,-50.54046249389648,1.0,7.878586671949962e-08,0.4035720229148865,8.0,0.9890885353088379,0.2683363258838653,-144.05215454101562,0.018546082079410553,0.06741759181022644,1.0011027370637748e-05,-93.5116958618164,9.999999747378752e-06,0.0021207416430115695,17034.87890625,-20694.71875,26804.076171875,-50.54046249389648
33.0,49.86701965332031,19248.203125,23830.7109375,-23830.7109375,30633.251953125,-51.07198715209961,1.0,8.797960049378162e-08,0.39941334724426264,8.0,0.9902412295341492,0.3066895008087158,-144.7483673095703,0.02429293282330036,0.07821545749902725,1.0011654012487268e-05,-93.67637634277344,9.999999747378752e-06,0.002142469165846705,19248.203125,-23830.7109375,30633.251953125,-51.07198715209961
34.0,39.72457504272461,21786.3125,27509.666015625,-27509.666015625,35091.66796875,-51.62249374389648,1.0,1.0104195524718307e-07,0.3887465596199036,8.0,0.9907742142677309,0.3511055111885071,-144.310302734375,0.0315341092646122,0.08870036900043486,1.0005382137023844e-05,-92.68780517578125,9.999999747378752e-06,0.0022246255539357662,21786.3125,-27509.666015625,35091.66796875,-51.62249374389648
35.0,31.672296524047848,24729.92578125,31749.96484375,-31749.96484375,40244.62109375,-52.08511352539063,1.0,1.0619056212135547e-07,0.3712410926818848,8.0,0.9916194081306456,0.4027895331382752,-143.9832763671875,0.04012386128306389,0.09839296340942384,1.000853080768138e-05,-91.89816284179688,9.999999747378752e-06,0.002071418333798647,24729.92578125,-31749.96484375,40244.62109375,-52.08511352539063
36.0,25.201612472534176,28099.884765625,36280.58203125,-36280.58203125,45889.9140625,-52.241653442382805,1.0,1.0389281612788182e-07,0.3564683794975281,8.0,0.9924662113189696,0.4592910408973694,-143.52084350585935,0.05084294080734253,0.1093350127339363,1.00085399026284e-05,-91.27919006347656,9.999999747378752e-06,0.002280986402183771,28099.884765625,-36280.58203125,45889.9140625,-52.241653442382805
37.0,20.03205108642578,31942.416015625,41459.04296875,-41459.04296875,52337.08203125,-52.38728713989258,1.0,1.1147621847840129e-07,0.33054354786872864,8.0,0.9932008981704714,0.5237582921981812,-143.1625823974609,0.06181253865361214,0.1165780872106552,1.000740212475648e-05,-90.77529144287107,9.999999747378752e-06,0.002055886900052428,31942.416015625,-41459.04296875,52337.08203125,-52.38728713989258
38.0,15.782828330993652,36459.3671875,47198.07421875,-47198.07421875,59640.12109375,-52.3147850036621,1.0,1.1547835754299741e-07,0.2938595414161682,8.0,0.9939940571784973,0.5968775153160095,-142.6533050537109,0.07181459665298462,0.11886487156152724,1.000798602035502e-05,-90.33853149414062,9.999999747378752e-06,0.0019615928176790476,36459.3671875,-47198.07421875,59640.12109375,-52.3147850036621
39.0,12.600806236267088,41036.4609375,52250.1640625,-52250.1640625,66438.4765625,-51.85446548461913,1.0,1.0902989799888019e-07,0.2578733265399933,8.0,0.9947789907455443,0.6649093627929688,-141.88119506835935,0.07725475728511809,0.1147974506020546,1.0007896889874244e-05,-90.0267333984375,9.999999747378752e-06,0.00187484675552696,41036.4609375,-52250.1640625,66438.4765625,-51.85446548461913
40.0,9.973403930664062,45858.9921875,56735.421875,-56735.421875,72951.734375,-51.051544189453125,1.0,1.1299024293975891e-07,0.2222427874803543,8.0,0.995465576648712,0.7300208210945129,-140.80511474609375,0.07935724407434462,0.1074121668934822,1.0006901902670506e-05,-89.75357055664062,9.999999747378752e-06,0.0015161369228735566,45858.9921875,-56735.421875,72951.734375,-51.051544189453125
41.0,7.971938610076904,50417.04296875,60355.50390625,-60355.50390625,78642.640625,-50.12682342529297,1.0,1.0050091248103855e-07,0.19154626131057736,8.0,0.9963471293449402,0.7871227860450744,-139.6717071533203,0.0803503766655922,0.10086996108293532,1.0008855497289915e-05,-89.54488372802734,9.999999747378752e-06,0.0013802830362692475,50417.04296875,-60355.50390625,78642.640625,-50.12682342529297
42.0,6.275100231170654,55170.58984375,63783.8828125,-63783.8828125,84333.7265625,-49.14146423339844,1.0,8.638290438511831e-08,0.16417133808135986,8.0,0.9971612095832824,0.8440263271331787,-138.50230407714844,0.08335885405540465,0.09759343415498732,1.000817064777948e-05,-89.36083984375,9.999999747378752e-06,0.001212054630741477,55170.58984375,-63783.8828125,84333.7265625,-49.14146423339844
43.0,5.013369083404541,59491.33203125,66963.46875,-66963.46875,89573.015625,-48.381641387939446,1.0,8.684509822387555e-08,0.13650186359882355,8.0,0.99754136800766,0.8960716128349304,-137.6096954345703,0.08755428344011305,0.09655202925205231,1.0003812349168584e-05,-89.22806549072266,9.999999747378752e-06,0.001116598374210298,59491.33203125,-66963.46875,89573.015625,-48.381641387939446
44.0,3.985969305038452,63621.1796875,70243.5859375,-70243.5859375,94772.4375,-47.8321647644043,1.0,9.279494150860046e-08,0.11404453217983244,8.0,0.9980286359786988,0.9481872916221618,-136.93560791015625,0.09468179196119308,0.09867392480373383,1.0004884643421974e-05,-89.10345458984375,9.999999747378752e-06,0.000999165349639952,63621.1796875,-70243.5859375,94772.4375,-47.8321647644043
45.0,3.1758129596710205,67337.8046875,73514.734375,-73514.734375,99693.515625,-47.51103210449219,1.0,1.1044684811167826e-07,0.1071837693452835,8.0,0.9985434412956237,0.9974493384361267,-136.51870727539062,0.10396585613489152,0.10299910604953764,1.0005158401327208e-05,-89.00767517089844,9.999999747378752e-06,0.0008585364557802677,67337.8046875,-73514.734375,99693.515625,-47.51103210449219
46.0,2.516103029251098,70051.0546875,77314.671875,-77314.671875,104329.8046875,-47.821807861328125,1.0,9.649955501345177e-08,0.10812844336032867,8.0,0.9677212834358216,1.0110944509506223,179.30982971191406,0.044584956020116806,0.043576352298259735,9.691329069028145e-06,-132.8683624267578,9.999999747378752e-06,0.0003042611642740667,70051.0546875,-77314.671875,104329.8046875,-47.821807861328125
47.0,1.9955300092697144,72432.4140625,78885.8984375,-78885.8984375,107095.46875,-47.44209671020508,1.0,8.755384328651417e-08,0.10107521712779997,8.0,0.986634373664856,1.0918853282928467,-170.40762329101562,0.0706256628036499,0.0639244019985199,1.0195439244853333e-05,-122.96552276611328,9.999999747378752e-06,0.0003886612539645285,72432.4140625,-78885.8984375,107095.46875,-47.44209671020508
