# point,freq,zreal,reflected_zimag,zimag,zmod,zphz,zsig,Idc,Vdc,ie_range,gain,vmod,vphz,vsig,vthd,imod,iphz,isig,ithd,zreal_drift,zimag_drift,zmod_drift,zphz_drift
0.0,250019.53125,4341.6591796875,-552.8118286132812,552.8118286132812,4376.71142578125,7.256272792816161,1.0,4.6542407972083316e-07,0.573111057281494,8.0,0.04061935842037201,0.01672331616282463,139.99598693847656,0.004164312034845352,0.24409011006355283,3.820977781288093e-06,132.73971557617188,9.999999747378752e-06,0.1648869812488556,4341.6591796875,552.8118286132812,4376.71142578125,7.256272792816161
1.0,198691.40625,4321.4228515625,-440.5360107421875,440.5360107421875,4343.8193359375,5.82075834274292,1.0,4.91792889079079e-07,0.603180766105652,8.0,0.04856213927268982,0.019843168556690216,39.25263214111328,0.003841527737677097,0.18010686337947843,4.568138592730975e-06,33.43187713623047,9.999999747378752e-06,0.1433691382408142,4321.4228515625,440.5360107421875,4343.8193359375,5.82075834274292
2.0,157792.96875,4310.71875,-339.2110290527344,339.2110290527344,4324.04443359375,4.499341011047363,1.0,4.979934260518348e-07,0.6739621758461,8.0,0.05894695967435837,0.023976897820830345,-34.038230895996094,0.0037735011428594585,0.15165500342845917,5.545016847463557e-06,-38.537574768066406,9.999999747378752e-06,0.1411946564912796,4310.71875,339.2110290527344,4324.04443359375,4.499341011047363
3.0,125332.03125,4314.828125,-216.14558410644528,216.14558410644528,4320.23828125,2.8677589893341064,1.0,4.501529815570393e-07,0.7292510271072388,8.0,0.07244161516427994,0.02943996526300907,92.11988067626952,0.0040368856862187386,0.13362523913383484,6.8144308897899455e-06,89.2521286010742,9.220212291438656e-07,0.1264570504426956,4314.828125,216.14558410644528,4320.23828125,2.8677589893341064
4.0,99550.78125,4294.27001953125,-123.12356567382812,123.12356567382812,4296.03515625,1.642311453819275,1.0,3.68346547929832e-07,0.7777853012084962,8.0,0.0875919833779335,0.03539758548140526,43.38068771362305,0.0017752901185303926,0.04692493751645088,8.239594535552897e-06,41.738372802734375,9.999999747378752e-06,0.04583081975579262,4294.27001953125,123.12356567382812,4296.03515625,1.642311453819275
5.0,79160.15625,4305.39794921875,-56.13661956787109,56.13661956787109,4305.76416015625,0.7470178604125975,1.0,3.61469403742376e-07,0.7958611249923706,8.0,0.11040222644805908,0.04471667483448982,146.7406463623047,0.0029515784699469805,0.06258369982242584,1.038530626829015e-05,145.99362182617188,9.999999747378752e-06,0.05877797678112984,4305.39794921875,56.13661956787109,4305.76416015625,0.7470178604125975
6.0,62871.09375,4315.6318359375,1.77667498588562,-1.77667498588562,4315.63232421875,-0.02358773350715637,1.0,3.493146323307883e-07,0.8410953283309937,8.0,0.14375600218772888,0.05619433894753456,-118.70531463623045,0.0040200999937951565,0.07020393013954163,1.3021113772992976e-05,-118.68172454833984,9.434952517040074e-07,0.07025785744190216,4315.6318359375,-1.77667498588562,4315.63232421875,-0.02358773350715637
7.0,49980.46875,4332.8310546875,58.9444465637207,-58.9444465637207,4333.23193359375,-0.7794118523597717,1.0,2.91401363483601e-07,0.8443970084190368,8.0,0.224103644490242,0.06755148619413376,106.14747619628906,0.005032945889979601,0.07333062589168547,1.5589168469887227e-05,106.9268798828125,1.11169833871827e-06,0.0702652707695961,4332.8310546875,-58.9444465637207,4333.23193359375,-0.7794118523597717
8.0,39667.96875,4350.3857421875,111.72920989990234,-111.72920989990234,4351.8203125,-1.4711811542510986,1.0,2.061656942942136e-07,0.8307955265045166,8.0,0.380523145198822,0.0738929733633995,-110.27338409423828,0.003126678057014942,0.04193706437945366,1.697978404990863e-05,-108.8022003173828,9.999999747378752e-06,0.04352938383817673,4350.3857421875,-111.72920989990234,4351.8203125,-1.4711811542510986
9.0,31582.03125,4370.68212890625,166.7374725341797,-166.7374725341797,4373.861328125,-2.1847214698791504,1.0,1.5840512901377227e-07,0.8241124153137206,8.0,0.5467195510864258,0.06284178793430328,-59.52034378051758,0.0004627092857845128,0.0041072340682148925,1.4367576113727408e-05,-57.33562088012695,9.999999747378752e-06,0.011432647705078123,4370.68212890625,-166.7374725341797,4373.861328125,-2.1847214698791504
10.0,25019.53125,4395.8544921875,221.7987823486328,-221.7987823486328,4401.4462890625,-2.888486623764038,1.0,1.4610618848109882e-07,0.8204468488693237,8.0,0.635490894317627,0.05116113647818565,81.34072875976561,0.0009724032715894282,0.010870211757719517,1.1623708815022836e-05,84.22921752929686,9.999999747378752e-06,0.014386081136763096,4395.8544921875,-221.7987823486328,4401.4462890625,-2.888486623764038
11.0,19863.28125,4423.9638671875,277.41653442382807,-277.41653442382807,4432.6533203125,-3.588187456130981,1.0,1.3858743841410615e-07,0.8177599310874939,8.0,0.7152958512306212,0.04989306628704071,117.41649627685545,0.0006390704656951129,0.000953531707637012,1.1255800927756354e-05,121.00468444824217,9.999999747378752e-06,0.0023799447808414698,4423.9638671875,-277.41653442382807,4432.6533203125,-3.588187456130981
12.0,15682.8701171875,4457.70556640625,334.12359619140625,-334.12359619140625,4470.2099609375,-4.286541938781737,1.0,1.3399358067545108e-07,0.8093747496604918,8.0,0.7849060893058778,0.04905235767364501,49.90550994873047,0.0006059411098249257,0.0010636077495291827,1.09731663542334e-05,54.19205093383789,9.999999747378752e-06,0.002289791824296117,4457.70556640625,-334.12359619140625,4470.2099609375,-4.286541938781737
13.0,12597.65625,4498.90771484375,403.94674682617193,-403.94674682617193,4517.005859375,-5.13070011138916,1.0,1.1933788357509914e-07,0.8086534142494202,8.0,0.8375753164291383,0.04820109158754349,-22.549827575683597,0.0006027851486578584,0.0014158630510792136,1.067102584784152e-05,-17.419126510620117,9.999999747378752e-06,0.0021748263388872142,4498.90771484375,-403.94674682617193,4517.005859375,-5.13070011138916
14.0,9895.8330078125,4542.62939453125,473.3642272949218,-473.3642272949218,4567.22607421875,-5.949029922485352,1.0,1.4426063899009023e-07,0.8143424391746522,8.0,0.8835272192955017,0.04817797988653183,-27.302780151367188,9.999999747378752e-06,0.011600459925830364,1.0548630598350428e-05,-21.353748321533203,9.999999747378752e-06,0.004484822042286396,4542.62939453125,-473.3642272949218,4567.22607421875,-5.949029922485352
15.0,7910.15625,4595.51318359375,546.457275390625,-546.457275390625,4627.88916015625,-6.781258583068848,1.0,1.7320047618341053e-07,0.8163807392120361,8.0,0.9131250977516174,0.04782921820878983,0.7914814352989197,0.00063401396619156,0.0014186257030814886,1.033499665936688e-05,7.572740077972413,9.999999747378752e-06,0.0033026435412466526,4595.51318359375,-546.457275390625,4627.88916015625,-6.781258583068848
16.0,6307.87060546875,4642.5537109375,640.8236694335938,-640.8236694335938,4686.572265625,-7.859023094177246,1.0,1.6525473256479017e-07,0.8221850991249084,8.0,0.937998116016388,0.04814231768250465,59.10408020019531,0.00032130241743288934,0.001464859815314412,1.0272394320054444e-05,66.96309661865233,9.999999747378752e-06,0.003376968903467059,4642.5537109375,-640.8236694335938,4686.572265625,-7.859023094177246
17.0,4973.3232421875,4714.1201171875,755.21484375,-755.21484375,4774.23046875,-9.101601600646973,1.0,1.4485274846265386e-07,0.8246658444404602,8.0,0.9258778691291808,0.04712541401386261,-42.09151077270508,0.00042145207407884294,0.0004517997149378061,9.870786016108466e-06,-32.98991012573242,9.999999747378752e-06,0.0005507513997144997,4714.1201171875,-755.21484375,4774.23046875,-9.101601600646973
18.0,3944.3598632812495,4784.39404296875,866.6839599609374,-866.6839599609374,4862.259765625,-10.267678260803223,1.0,1.6632280619433004e-07,0.8314213752746582,8.0,0.95513778924942,0.05015918612480164,61.93798828125,0.0005272533162496984,0.0008873809711076318,1.0316023690393195e-05,72.20565795898438,9.999999747378752e-06,0.0007678645197302102,4784.39404296875,-866.6839599609374,4862.259765625,-10.267678260803223
19.0,3144.054931640625,4863.1142578125,989.5317993164062,-989.5317993164062,4962.7666015625,-11.501358032226562,1.0,1.8276212188084173e-07,0.8389150500297545,8.0,0.9700745344161987,0.05040375888347626,104.74488830566406,0.0005342162912711501,0.009989768266677856,1.0156382813875096e-05,116.24623870849608,9.999999747378752e-06,0.0009491564705967904,4863.1142578125,-989.5317993164062,4962.7666015625,-11.501358032226562
20.0,2488.426025390625,4951.8359375,1135.3466796875,-1135.3466796875,5080.32421875,-12.913465499877928,1.0,1.7374698302319302e-07,0.8473637104034423,8.0,0.9790844917297363,0.051275089383125305,163.51736450195312,0.0006232045125216246,0.007784013636410237,1.0092879165313207e-05,176.43081665039062,9.999999747378752e-06,0.001128237578086555,4951.8359375,-1135.3466796875,5080.32421875,-12.913465499877928
21.0,1976.6566162109373,5048.54833984375,1298.8507080078125,-1298.8507080078125,5212.95068359375,-14.427719116210936,1.0,1.9567360709515927e-07,0.8555362820625305,8.0,0.9865001440048216,0.05252433940768242,-121.93576049804688,9.999999747378752e-06,0.0016274109948426485,1.0075740647152996e-05,-107.50804901123045,9.999999747378752e-06,0.0011026532156392932,5048.54833984375,-1298.8507080078125,5212.95068359375,-14.427719116210936
22.0,1582.03125,5155.021484375,1475.657958984375,-1475.657958984375,5362.07177734375,-15.974108695983887,1.0,1.8325769701732497e-07,0.8649408221244813,8.0,0.9897164702415465,0.05379553884267807,121.65213012695312,0.0006355163641273975,0.0021142999175935984,1.0032603313447908e-05,137.62625122070312,9.999999747378752e-06,0.0012243071105331182,5155.021484375,-1475.657958984375,5362.07177734375,-15.974108695983887
23.0,1253.6336669921875,5280.22509765625,1705.8839111328125,-1705.8839111328125,5548.947265625,-17.904104232788082,1.0,1.784648162583835e-07,0.8685152530670166,8.0,0.9943604469299315,0.05574984475970268,149.8805999755859,0.0006698535289615393,0.002854553982615471,1.004692239803262e-05,167.78469848632812,9.999999747378752e-06,0.001334269531071186,5280.22509765625,-1705.8839111328125,5548.947265625,-17.904104232788082
24.0,996.09375,5424.87451171875,1983.8829345703125,-1983.8829345703125,5776.24951171875,-20.0875244140625,1.0,1.6952790815594199e-07,0.869881272315979,8.0,0.9947439432144163,0.05778476968407631,-11.615851402282715,0.0008972956566140055,0.003126400290057063,1.000385691440897e-05,8.471673965454102,9.999999747378752e-06,0.001396945328451693,5424.87451171875,-1983.8829345703125,5776.24951171875,-20.0875244140625
25.0,790.028076171875,5583.9384765625,2285.64404296875,-2285.64404296875,6033.6171875,-22.260498046875,1.0,1.6574591654716642e-07,0.8768410086631776,8.0,0.9967806339263917,0.06045970320701599,-133.94679260253906,0.00041114326450042427,0.004890689626336098,1.0020474292105064e-05,-111.68628692626952,9.999999747378752e-06,0.00145759095903486,5583.9384765625,-2285.64404296875,6033.6171875,-22.260498046875
26.0,628.8109741210938,5776.71044921875,2685.3857421875,-2685.3857421875,6370.375,-24.932029724121094,1.0,1.535255336193586e-07,0.8745202422142029,8.0,0.9980741739273072,0.06378642469644547,77.3157730102539,0.0007652163039892912,0.006799221970140934,1.0012977327278348e-05,102.247802734375,9.999999747378752e-06,0.0013711861101910472,5776.71044921875,-2685.3857421875,6370.375,-24.932029724121094
27.0,496.3235168457031,5717.732421875,3295.12451171875,-3295.12451171875,6599.26611328125,-29.95481300354004,1.0,1.7083507941606513e-07,0.8858751654624939,8.0,0.9716638922691344,0.06424641609191895,104.87503051757812,0.0003640888899099082,0.005511828698217869,9.735387720866129e-06,134.829833984375,9.999999747378752e-06,0.0006348078022710978,5717.732421875,-3295.12451171875,6599.26611328125,-29.95481300354004
28.0,395.3313293457031,6002.09130859375,3781.9799804687505,-3781.9799804687505,7094.25634765625,-32.2154541015625,1.0,1.514026877202923e-07,0.8902265429496765,8.0,0.9920700788497924,0.0724324584007263,67.30728149414062,0.0008723715436644851,0.009352072142064573,1.0210012987954542e-05,99.52273559570312,9.999999747378752e-06,0.00047221782733686263,6002.09130859375,-3781.9799804687505,7094.25634765625,-32.2154541015625
29.0,315.5048217773437,6307.587890625,4352.875,-4352.875,7663.7578125,-34.60961151123047,1.0,1.444641100079025e-07,0.8937070369720459,8.0,0.9996892213821411,0.07722616195678712,-168.013671875,0.0011870356975123286,0.013250285759568214,1.0076800208480565e-05,-133.404052734375,9.999999747378752e-06,0.0006968604866415262,6307.587890625,-4352.875,7663.7578125,-34.60961151123047
30.0,249.33511352539065,6706.1748046875,5175.73828125,-5175.73828125,8471.189453125,-37.660491943359375,1.0,1.4046705132386705e-07,0.8848440647125245,8.0,1.0013399124145508,0.08485177159309387,54.109771728515625,0.0013535170583054423,0.018324151635169983,1.001651253318414e-05,91.77027130126952,9.999999747378752e-06,0.0008560835267417133,6706.1748046875,-5175.73828125,8471.189453125,-37.660491943359375
31.0,198.6228790283203,7163.86572265625,6145.09619140625,-6145.09619140625,9438.388671875,-40.62268066406249,1.0,1.4148437799121893e-07,0.8751586079597473,8.0,0.9998012781143187,0.09423885494470595,36.69741058349609,0.002315915422514081,0.024108899757266045,9.984633834392298e-06,77.3200912475586,9.999999747378752e-06,0.0011112818028777836,7163.86572265625,-6145.09619140625,9438.388671875,-40.62268066406249
32.0,158.005615234375,7551.659179687501,6973.1201171875,-6973.1201171875,10278.7138671875,-42.71904754638672,1.0,1.5250448370807135e-07,0.893689215183258,8.0,0.9970647692680359,0.10250581055879592,92.86659240722656,0.0031259916722774506,0.030070340260863304,9.972629413823597e-06,135.5856475830078,9.999999747378752e-06,0.0015060668811202047,7551.659179687501,-6973.1201171875,10278.7138671875,-42.71904754638672
33.0,125.5580368041992,8094.91845703125,8177.796875,-8177.796875,11506.6962890625,-45.29181289672852,1.0,1.5472878089894948e-07,0.8943495750427246,8.0,0.9869090318679808,0.11389493942260742,-144.69906616210935,0.0042667509987950325,0.03703773766756058,9.898143616737794e-06,-99.4072494506836,9.999999747378752e-06,0.0012531426036730409,8094.91845703125,-8177.796875,11506.6962890625,-45.29181289672852
34.0,99.73403930664062,8571.48828125,8963.4716796875,-8963.4716796875,12402.1865234375,-46.28060150146484,1.0,1.3907140328228706e-07,0.9337130188941956,8.0,0.9922236204147338,0.1246897280216217,-143.14048767089844,0.005891306325793265,0.04611510410904884,1.0053850928670727e-05,-96.85989379882812,9.999999747378752e-06,0.0012935402337461708,8571.48828125,-8963.4716796875,12402.1865234375,-46.28060150146484
35.0,78.78150939941406,9321.126953125,10603.28515625,-10603.28515625,14117.8271484375,-48.6819725036621,1.0,1.4822032312622468e-07,0.9326813817024232,8.0,0.9928419589996336,0.14126627147197723,-143.50927734375,0.008150631561875342,0.05626633763313293,1.00062316050753e-05,-94.82730865478516,9.999999747378752e-06,0.001053264131769538,9321.126953125,-10603.28515625,14117.8271484375,-48.6819725036621
36.0,62.919464111328125,10087.2841796875,12324.982421875,-12324.982421875,15926.66015625,-50.70166397094727,1.0,1.363851822588913e-07,0.935926914215088,8.0,0.9934425950050354,0.1593629419803619,-143.98031616210935,0.010948820039629936,0.06702473014593124,1.0006049706134943e-05,-93.27865600585936,9.999999747378752e-06,0.0010000666370615363,10087.2841796875,-12324.982421875,15926.66015625,-50.70166397094727
37.0,49.86701965332031,11098.6513671875,14369.9716796875,-14369.9716796875,18156.986328125,-52.31928634643555,1.0,1.572873316035839e-07,0.9393939971923827,8.0,0.9943137168884275,0.18172909319400787,-145.8204345703125,0.014680799096822739,0.07990910112857817,1.0008769095293246e-05,-93.50113677978516,9.999999747378752e-06,0.0012561473995447159,11098.6513671875,-14369.9716796875,18156.986328125,-52.31928634643555
38.0,39.72457504272461,12245.9326171875,16740.037109375,-16740.037109375,20741.0625,-53.81320190429688,1.0,1.4016752913903474e-07,0.9404035806655885,8.0,0.9947193861007689,0.207495242357254,-146.31085205078125,0.01967289298772812,0.09361027181148528,1.0004079740610903e-05,-92.49765014648435,9.999999747378752e-06,0.001417582156136632,12245.9326171875,-16740.037109375,20741.0625,-53.81320190429688
39.0,31.459732055664062,13601.875,19475.216796875,-19475.216796875,23754.89453125,-55.06879425048828,1.0,1.5286690313587314e-07,0.9424839019775391,8.0,0.9948196411132812,0.23757287859916687,-146.77493286132812,0.026211708784103397,0.1089923158288002,1.0001007467508316e-05,-91.70613861083984,9.999999747378752e-06,0.0016074933810159564,13601.875,-19475.216796875,23754.89453125,-55.06879425048828
40.0,24.93350982666016,15167.609375,22426.744140625,-22426.744140625,27074.25390625,-55.92880630493164,1.0,1.5275381315404957e-07,0.9486143589019777,8.0,0.9956023097038269,0.27095556259155273,-147.0189208984375,0.03500723838806152,0.12761057913303375,1.0007867786043788e-05,-91.09011840820312,9.999999747378752e-06,0.001385085633955896,15167.609375,-22426.744140625,27074.25390625,-55.92880630493164
41.0,19.862287521362305,17057.115234375,25962.080078125,-25962.080078125,31064.044921875,-56.69504165649414,1.0,1.4120037405973562e-07,0.9471601247787476,8.0,0.9959322810173034,0.3107433617115021,-147.27816772460935,0.046576794236898415,0.14806503057479858,1.0003313946072012e-05,-90.5831298828125,9.999999747378752e-06,0.0014354231534525752,17057.115234375,-25962.080078125,31064.044921875,-56.69504165649414
42.0,15.782828330993652,19535.291015625,30396.37890625,-30396.37890625,36132.63671875,-57.27176284790039,1.0,1.4654737867658699e-07,0.9359474778175354,8.0,0.9961256384849548,0.36139652132987976,-147.48292541503906,0.06236200407147408,0.1704750210046768,1.0001941518567037e-05,-90.21116638183592,9.999999747378752e-06,0.0016385407652705908,19535.291015625,-30396.37890625,36132.63671875,-57.27176284790039
43.0,12.466754913330078,22815.39453125,35924.68359375,-35924.68359375,42557.31640625,-57.58079147338867,1.0,1.4324625396966442e-07,0.914930522441864,8.0,0.9965463876724243,0.4257529079914093,-147.47254943847656,0.0842222198843956,0.19545115530490875,1.0004224350268485e-05,-89.8917465209961,9.999999747378752e-06,0.002003494184464216,22815.39453125,-35924.68359375,42557.31640625,-57.58079147338867
44.0,9.973403930664062,26737.970703125,41997.97265625,-41997.97265625,49787.03515625,-57.51716613769531,1.0,1.7634434357205467e-07,0.8868585824966431,8.0,0.9967603087425234,0.4979771673679352,-147.1855316162109,0.10873094946146011,0.21574683487415316,1.0002146154874936e-05,-89.66835021972656,9.999999747378752e-06,0.0018600499024614687,26737.970703125,-41997.97265625,49787.03515625,-57.51716613769531
45.0,7.878151416778564,32104.080078125,49166.73828125,-49166.73828125,58720.01171875,-56.85693359375,1.0,1.5960966948114222e-07,0.837203562259674,8.0,0.997291386127472,0.5875130295753479,-146.33969116210935,0.1331569254398346,0.22395609319210047,1.000532847683644e-05,-89.48274993896483,9.999999747378752e-06,0.0016655378276482224,32104.080078125,-49166.73828125,58720.01171875,-56.85693359375
46.0,6.275100231170654,37919.8671875,55767.44140625,-55767.44140625,67438.296875,-55.78569793701172,1.0,1.198472432406561e-07,0.781318426132202,8.0,0.9972217082977296,0.6743358373641968,-145.08612060546875,0.14834226667881012,0.21737775206565857,9.99930125544779e-06,-89.3004150390625,9.999999747378752e-06,0.0016443607164546847,37919.8671875,-55767.44140625,67438.296875,-55.78569793701172
47.0,5.013369083404541,43663.22265625,61817.97265625,-61817.97265625,75683.1484375,-54.76570510864258,1.0,1.5790615748301207e-07,0.7203689217567444,8.0,0.9977327585220338,0.75721937417984,-143.9392547607422,0.15588676929473877,0.20343267917633057,1.0005124750023242e-05,-89.17356109619139,9.999999747378752e-06,0.0014693159610033035,43663.22265625,-61817.97265625,75683.1484375,-54.76570510864258
