# point,freq,zreal,reflected_zimag,zimag,zmod,zphz,zsig,Idc,Vdc,ie_range,gain,vmod,vphz,vsig,vthd,imod,iphz,isig,ithd,zreal_drift,zimag_drift,zmod_drift,zphz_drift
0.0,250019.53125,3970.826904296875,-382.0173950195313,382.0173950195313,3989.1606445312495,5.495285511016846,1.0,2.9399012646536e-07,0.12362640351057053,8.0,0.10542623698711397,0.004205622244626284,4.739514827728272,0.0006780110416002572,0.13383229076862335,1.0542623840592569e-06,-0.755770742893219,9.999999747378752e-06,0.13209308683872223,3970.826904296875,382.0173950195313,3989.1606445312495,5.495285511016846
1.0,198691.40625,4078.969482421875,-236.59393310546875,236.59393310546875,4085.825439453125,3.3196282386779785,1.0,5.000035798730097e-07,0.3024449050426483,8.0,0.0513797104358673,0.0197475366294384,-177.96926879882812,0.003975940868258476,0.17975804209709167,4.833181719732238e-06,178.7111053466797,9.999999747378752e-06,0.1493763029575348,4078.969482421875,236.59393310546875,4085.825439453125,3.3196282386779785
2.0,157792.96875,3995.466552734375,-211.08132934570312,211.08132934570312,4001.038330078125,3.024136543273926,1.0,4.7596597596566426e-07,0.37352016568183893,8.0,0.0630563274025917,0.02373246848583221,6.309020519256592,0.0040775067172944554,0.150396466255188,5.931576652074e-06,3.2848842144012447,9.999999747378752e-06,0.1363167017698288,3995.466552734375,211.08132934570312,4001.038330078125,3.024136543273926
3.0,125332.03125,4030.7924804687505,-130.3136749267578,130.3136749267578,4032.8984375,1.851701498031616,1.0,4.766993981775159e-07,0.4187754094600677,8.0,0.07693527638912201,0.02918665111064911,-76.06250762939453,0.004408986307680607,0.13509009778499603,7.2371399255644064e-06,-77.9142074584961,8.979585004453839e-07,0.12058594822883605,4030.7924804687505,130.3136749267578,4032.8984375,1.851701498031616
4.0,99550.78125,4039.260986328125,-1.26094913482666,1.26094913482666,4039.2612304687505,0.01788620837032795,1.0,3.4425698913764796e-07,0.5124300122261047,8.0,0.09221213310956955,0.03503736853599548,-43.35390472412109,0.0019018539460375905,0.04778659716248512,8.674202035763301e-06,-43.37179183959961,9.999999747378752e-06,0.04558133333921432,4039.260986328125,1.26094913482666,4039.2612304687505,0.01788620837032795
5.0,79160.15625,4058.7778320312495,49.81724548339844,-49.81724548339844,4059.0834960937505,-0.7032103538513184,1.0,3.2189282705985534e-07,0.5103906989097595,8.0,0.11600513011217116,0.04429418221116065,23.131000518798828,0.0031407342758029695,0.0665973648428917,1.0912359357462265e-05,23.834211349487305,9.999999747378752e-06,0.05897032842040061,4058.7778320312495,-49.81724548339844,4059.0834960937505,-0.7032103538513184
6.0,62871.09375,4079.8564453125,103.06890869140624,-103.06890869140624,4081.158203125,-1.447148323059082,1.0,3.0386797789105913e-07,0.5873500108718872,8.0,0.15824192762374875,0.0556708462536335,10.658114433288574,0.0039814836345613,0.06994031369686127,1.364094168820884e-05,12.10526180267334,9.821693538469844e-07,0.070736363530159,4079.8564453125,-103.06890869140624,4081.158203125,-1.447148323059082
7.0,49980.46875,4099.076171875,154.319580078125,-154.319580078125,4101.97998046875,-2.1560192108154297,1.0,2.1491518964467105e-07,0.5471429824829102,8.0,0.2523441612720489,0.06541317701339722,-98.69840240478516,0.0036590481176972394,0.05500313639640808,1.5946732673910446e-05,-96.5423812866211,1.0492058208910748e-06,0.06498763710260391,4099.076171875,-154.319580078125,4101.97998046875,-2.1560192108154297
8.0,39667.96875,4122.3330078125,205.11900329589844,-205.11900329589844,4127.43310546875,-2.848573446273804,1.0,1.8219935782326502e-07,0.5686107873916626,8.0,0.4215700328350067,0.06895352900028229,42.451484680175774,0.00217073829844594,0.03066689148545265,1.6706153473933227e-05,45.30005645751953,9.999999747378752e-06,0.03153955191373825,4122.3330078125,-205.11900329589844,4127.43310546875,-2.848573446273804
9.0,31582.03125,4147.36572265625,249.9994201660156,-249.9994201660156,4154.8935546875,-3.449563503265381,1.0,1.5803222197519062e-07,0.5560981035232544,8.0,0.5609036087989807,0.05528132990002632,52.922000885009766,0.0006205207318998873,0.0029848350677639246,1.3305111679073889e-05,56.37156295776367,9.999999747378752e-06,0.010389616712927818,4147.36572265625,-249.9994201660156,4154.8935546875,-3.449563503265381
10.0,25019.53125,4183.560546875,310.6295166015625,-310.6295166015625,4195.07666015625,-4.246421813964844,1.0,1.4561706507265626e-07,0.5623842477798462,8.0,0.6445440053939819,0.04820634797215462,179.61524963378906,0.00028197976644150913,0.008485830388963223,1.1491171790112276e-05,-176.13833618164062,9.999999747378752e-06,0.012660278938710688,4183.560546875,-310.6295166015625,4195.07666015625,-4.246421813964844
11.0,19863.28125,4221.41064453125,373.0737915039063,-373.0737915039063,4237.8642578125,-5.050483226776123,1.0,1.4179585150486673e-07,0.566625714302063,8.0,0.7201889157295227,0.047352273017168045,-176.64833068847656,0.0005054359789937736,0.0016622294206172228,1.1173618986504152e-05,-171.5978546142578,9.999999747378752e-06,0.002364950021728873,4221.41064453125,-373.0737915039063,4237.8642578125,-5.050483226776123
12.0,15682.8701171875,4259.45849609375,443.9898376464844,-443.9898376464844,4282.53564453125,-5.950805187225342,1.0,1.3717915692268434e-07,0.5633838772773743,8.0,0.7883478999137878,0.04687836766242981,90.39819335937501,0.0005529663758352399,0.001076343236491084,1.094640447263373e-05,96.34899139404298,9.999999747378752e-06,0.0026097081135958437,4259.45849609375,-443.9898376464844,4282.53564453125,-5.950805187225342
13.0,12597.65625,4317.70654296875,518.5587768554688,-518.5587768554688,4348.73486328125,-6.848450660705566,1.0,1.361487846907039e-07,0.5725025534629822,8.0,0.8340944647789001,0.04601084813475609,2.811883926391601,0.00039967542397789657,0.0018459599232301116,1.0580283742456231e-05,9.66033458709717,9.999999747378752e-06,0.001779057551175356,4317.70654296875,-518.5587768554688,4348.73486328125,-6.848450660705566
14.0,9895.8330078125,4349.14306640625,611.6029052734375,-611.6029052734375,4391.93603515625,-8.004788398742676,1.0,1.3356655870211398e-07,0.5783955454826354,8.0,0.8804090619087219,0.04635806381702423,6.563884735107422,0.00026067084399983287,0.00542771490290761,1.0555268090683965e-05,14.568674087524414,9.999999747378752e-06,0.002447369508445263,4349.14306640625,-611.6029052734375,4391.93603515625,-8.004788398742676
15.0,7910.15625,4403.42919921875,705.642578125,-705.642578125,4459.60986328125,-9.104154586791992,1.0,1.263216802271927e-07,0.5872880816459656,8.0,0.90982449054718,0.04608609899878502,8.441018104553223,0.000513276259880513,0.0010740350699052215,1.0334110811527353e-05,17.54517364501953,9.999999747378752e-06,0.003124079667031765,4403.42919921875,-705.642578125,4459.60986328125,-9.104154586791992
16.0,6307.87060546875,4463.392578125,831.3973388671875,-831.3973388671875,4540.16455078125,-10.55157470703125,1.0,1.4062871400710722e-07,0.6018694639205933,8.0,0.9318767786026002,0.04650208353996277,76.96504211425781,0.00019470119150355456,0.0015987711958587167,1.0242380085401235e-05,87.51662445068358,9.999999747378752e-06,0.003014307003468275,4463.392578125,-831.3973388671875,4540.16455078125,-10.55157470703125
17.0,4973.3232421875,4541.12744140625,981.7546997070312,-981.7546997070312,4646.0390625,-12.199134826660156,1.0,1.3944044496838615e-07,0.6124860048294067,8.0,0.9205982089042664,0.045898083597421646,-29.231395721435543,0.00040205445839092135,0.001541823730804026,9.87896873994032e-06,-17.032264709472656,9.999999747378752e-06,0.0006557230954058468,4541.12744140625,-981.7546997070312,4646.0390625,-12.199134826660156
18.0,3944.3598632812495,4619.91845703125,1143.6549072265625,-1143.6549072265625,4759.36865234375,-13.903981208801268,1.0,1.3709271229345177e-07,0.6266656517982483,8.0,0.9480650424957277,0.04901369288563728,78.10721588134764,0.00023770822735968977,0.0009988939855247738,1.0298358574800657e-05,92.01119995117188,9.999999747378752e-06,0.0007687259931117296,4619.91845703125,-1143.6549072265625,4759.36865234375,-13.903981208801268
19.0,3144.054931640625,4711.66943359375,1334.49365234375,-1334.49365234375,4897.00927734375,-15.813798904418944,1.0,1.1957442325183365e-07,0.6356169581413269,8.0,0.9628827571868896,0.04973547160625458,114.1792221069336,9.999999747378752e-06,0.004652637988328934,1.0156294592889024e-05,129.99302673339844,9.999999747378752e-06,0.0008281220216304063,4711.66943359375,-1334.49365234375,4897.00927734375,-15.813798904418944
20.0,2488.426025390625,4819.7265625,1574.7449951171875,-1574.7449951171875,5070.4619140625,-18.09372329711914,1.0,1.0329163302458257e-07,0.6403442621231079,8.0,0.971481680870056,0.05115743726491928,170.49118041992188,0.0002105845633195713,0.006424783729016781,1.0089303941640536e-05,-171.41510009765625,9.999999747378752e-06,0.0008489033207297325,4819.7265625,-1574.7449951171875,5070.4619140625,-18.09372329711914
21.0,1976.6566162109373,4944.06884765625,1848.1198730468752,-1848.1198730468752,5278.197265625,-20.496017456054688,1.0,1.0521524274054173e-07,0.6508192420005798,8.0,0.9781697392463683,0.05314533784985542,-124.70362854003906,9.999999747378752e-06,0.0009540592436678708,1.0068843948829452e-05,-104.20761108398436,9.999999747378752e-06,0.00102005444932729,4944.06884765625,-1848.1198730468752,5278.197265625,-20.496017456054688
22.0,1582.03125,5083.93408203125,2161.5390625,-2161.5390625,5524.36767578125,-23.033767700195312,1.0,9.563920144728401e-08,0.658353865146637,8.0,0.98102068901062,0.05540468171238899,115.00028991699217,0.00041114326450042427,0.0012265880359336732,1.0029145414591765e-05,138.0340576171875,9.999999747378752e-06,0.0013417453737929463,5083.93408203125,-2161.5390625,5524.36767578125,-23.033767700195312
23.0,1253.6336669921875,5260.2626953125,2556.6513671875,-2556.6513671875,5848.66064453125,-25.921194076538082,1.0,1.0034088404609065e-07,0.6640169024467468,8.0,0.9846509695053101,0.05870303511619568,142.27401733398435,0.00029980627004988486,0.0016666068695485592,1.0037005267804489e-05,168.19522094726562,9.999999747378752e-06,0.0010676599340513349,5260.2626953125,-2556.6513671875,5848.66064453125,-25.921194076538082
24.0,996.09375,5458.13232421875,3018.123291015625,-3018.123291015625,6237.0087890625,-28.9407958984375,1.0,1.0004738015823023e-07,0.6666492223739624,8.0,0.9868601560592652,0.06251002103090286,-19.460176467895508,0.0006100585451349616,0.002407871885225177,1.0022436072176788e-05,9.480620384216307,9.999999747378752e-06,0.0015726021956652403,5458.13232421875,-3018.123291015625,6237.0087890625,-28.9407958984375
25.0,790.028076171875,5699.78857421875,3543.628662109375,-3543.628662109375,6711.54931640625,-31.86972427368164,1.0,1.0183416776499145e-07,0.684633195400238,8.0,0.988948941230774,0.06725755333900452,-143.25465393066406,0.0005090785562060772,0.002715047914534807,1.0021166417573111e-05,-111.38492584228516,9.999999747378752e-06,0.0015207710675895214,5699.78857421875,-3543.628662109375,6711.54931640625,-31.86972427368164
26.0,628.8109741210938,5981.08447265625,4187.97900390625,-4187.97900390625,7301.54345703125,-34.99986267089844,1.0,9.766075947936768e-08,0.6860134601593018,8.0,0.9905601143836976,0.07313438504934312,68.35011291503906,0.0004873037105426192,0.0039082542061805725,1.001629152597161e-05,103.3499755859375,9.999999747378752e-06,0.0011557977413758636,5981.08447265625,-4187.97900390625,7301.54345703125,-34.99986267089844
35.0,78.78150939941406,12098.482421875,15928.4697265625,-15928.4697265625,20002.234375,-52.7814826965332,1.0,8.091884495797785e-08,0.7849596142768861,8.0,0.9892309308052064,0.2001678943634033,-147.7108612060547,0.012584729120135307,0.061315994709730155,1.0007276614487637e-05,-94.92938232421875,9.999999747378752e-06,0.0016415101708844304,12098.482421875,-15928.4697265625,20002.234375,-52.7814826965332
36.0,62.919464111328125,13296.8515625,18199.244140625,-18199.244140625,22539.271484375,-53.84714126586913,1.0,8.694286179888877e-08,0.790690004825592,8.0,0.9902246594429016,0.22561912238597867,-147.24937438964844,0.01723508909344673,0.07452002167701721,1.0010045116359832e-05,-93.40222930908205,9.999999747378752e-06,0.0016701058484613895,13296.8515625,-18199.244140625,22539.271484375,-53.84714126586913
37.0,49.86701965332031,14717.9130859375,20880.51953125,-20880.51953125,25546.29296875,-54.821392059326165,1.0,9.150474511443463e-08,0.7931926250457764,8.0,0.9912010431289674,0.2557148337364197,-148.380126953125,0.022840972989797592,0.08821616321802139,1.0009860488935372e-05,-93.55872344970705,9.999999747378752e-06,0.001870877342298627,14717.9130859375,-20880.51953125,25546.29296875,-54.821392059326165
38.0,39.72457504272461,16268.009765625,23886.5,-23886.5,28900.052734375,-55.74300003051758,1.0,1.012802357536202e-07,0.7933660745620726,8.0,0.9921562671661378,0.28927904367446894,-148.32742309570312,0.02985570579767227,0.10194779932498932,1.0009636753238736e-05,-92.5844268798828,9.999999747378752e-06,0.0019065072992816567,16268.009765625,-23886.5,28900.052734375,-55.74300003051758
39.0,31.459732055664062,18079.533203125,27343.1796875,-27343.1796875,32779.85546875,-56.52699661254882,1.0,9.5955130063885e-08,0.7909923791885376,8.0,0.9930076003074645,0.32807984948158264,-148.30323791503906,0.038543451577425,0.11605759710073472,1.000858082988998e-05,-91.7762451171875,9.999999747378752e-06,0.0021378544624894857,18079.533203125,-27343.1796875,32779.85546875,-56.52699661254882
40.0,24.93350982666016,20031.361328125,30800.44140625,-30800.44140625,36741.29296875,-56.96165466308594,1.0,1.0658854421308205e-07,0.7972046732902528,8.0,0.9937952160835266,0.36770433187484736,-148.10182189941406,0.04923545196652413,0.132281556725502,1.0007931450672912e-05,-91.14017486572264,9.999999747378752e-06,0.002234494313597679,20031.361328125,-30800.44140625,36741.29296875,-56.96165466308594
41.0,19.862287521362305,22248.47265625,34662.21484375,-34662.21484375,41188.15234375,-57.305000305175774,1.0,1.1728577220537773e-07,0.7935428023338317,8.0,0.9943832159042358,0.41212517023086553,-147.9553070068359,0.06091101095080376,0.14603281021118164,1.0005916919908486e-05,-90.65029907226561,9.999999747378752e-06,0.0022009501699358225,22248.47265625,-34662.21484375,41188.15234375,-57.305000305175774
42.0,15.782828330993652,25007.4609375,39082.625,-39082.625,46398.5390625,-57.386394500732415,1.0,1.0228094993181003e-07,0.7787699103355407,8.0,0.9950541257858275,0.4642985165119171,-147.64186096191406,0.07377365976572035,0.1569996029138565,1.0006747288571203e-05,-90.25546264648435,9.999999747378752e-06,0.0020132253412157297,25007.4609375,-39082.625,46398.5390625,-57.386394500732415
43.0,12.466754913330078,28161.556640625,43784.26953125,-43784.26953125,52058.9609375,-57.25132751464844,1.0,1.2341027399997986e-07,0.7630903124809265,8.0,0.9956510663032532,0.5209019184112549,-147.17678833007812,0.08763314038515091,0.16623613238334656,1.0005998774431644e-05,-89.92546844482422,9.999999747378752e-06,0.0018923006718978284,28161.556640625,-43784.26953125,52058.9609375,-57.25132751464844
44.0,9.973403930664062,31839.140625,48570.75,-48570.75,58076.23046875,-56.75432205200195,1.0,1.0981967335510488e-07,0.7375814318656921,8.0,0.996103823184967,0.5810263752937317,-146.44305419921875,0.100085511803627,0.170211523771286,1.0004547220887616e-05,-89.68872833251953,9.999999747378752e-06,0.0017941824626177547,31839.140625,-48570.75,58076.23046875,-56.75432205200195
45.0,7.878151416778564,36245.34375,53803.71484375,-53803.71484375,64873.453125,-56.03347396850586,1.0,1.2008575822619605e-07,0.70172119140625,8.0,0.996734619140625,0.6491453647613524,-145.5043182373047,0.1113087236881256,0.16943728923797607,1.0006332558987197e-05,-89.4708251953125,9.999999747378752e-06,0.0015946724452078342,36245.34375,-53803.71484375,64873.453125,-56.03347396850586
46.0,6.275100231170654,40939.74609375,58949.48046875,-58949.48046875,71771.1953125,-55.220462799072266,1.0,1.2970515683718986e-07,0.6593962907791138,8.0,0.9972869157791135,0.718109667301178,-144.53533935546875,0.11997000128030776,0.16508354246616364,1.0005541298596654e-05,-89.31488037109375,9.999999747378752e-06,0.0014896511565893888,40939.74609375,-58949.48046875,71771.1953125,-55.220462799072266
47.0,5.013369083404541,45780.29296875,64232.640625,-64232.640625,78877.546875,-54.52152633666992,1.0,1.2998127374430626e-07,0.6095424890518188,8.0,0.997620701789856,0.7890394926071168,-143.70635986328125,0.12657539546489716,0.15851491689682007,1.0003346687881276e-05,-89.18482971191406,9.999999747378752e-06,0.0012152421986684203,45780.29296875,-64232.640625,78877.546875,-54.52152633666992
48.0,3.939075708389282,50941.828125,69964.984375,-69964.984375,86545.7578125,-53.94146347045898,1.0,1.3844815782704245e-07,0.5574964880943297,8.0,0.9981451034545897,0.8659125566482544,-143.00912475585935,0.13439726829528809,0.1533682942390442,1.0005256626755e-05,-89.06765747070312,9.999999747378752e-06,0.0010475900489836931,50941.828125,-69964.984375,86545.7578125,-53.94146347045898
49.0,3.137550115585327,55952.41015625,75757.90625,-75757.90625,94180.3203125,-53.55158996582031,1.0,1.4298855433025892e-07,0.4997836053371429,8.0,0.9985384941101073,0.9421743750572205,-142.50332641601562,0.14016108214855194,0.1469949632883072,1.0003941497416236e-05,-88.95172882080078,9.999999747378752e-06,0.0009773711208254099,55952.41015625,-75757.90625,94180.3203125,-53.55158996582031
50.0,2.485418796539306,60423.79296875,81985.1484375,-81985.1484375,101845.9609375,-53.60945129394531,1.0,1.275901126973622e-07,0.4326039552688599,8.0,0.9688464403152464,0.9881752133369444,174.1171722412109,0.0825541615486145,0.08255005627870558,9.7026450021076e-06,-132.2733612060547,9.999999747378752e-06,0.0003877793496940285,60423.79296875,-81985.1484375,101845.9609375,-53.60945129394531
51.0,1.9955300092697144,65157.953125,85914.6796875,-85914.6796875,107828.0625,-52.82321166992188,1.0,1.0187192600596973e-07,0.3426159620285034,8.0,0.9864933490753172,1.0979207754135132,-175.78726196289062,0.09652785956859587,0.08687782287597656,1.0182143341808114e-05,-122.96405029296876,9.999999747378752e-06,0.0004555635387077928,65157.953125,-85914.6796875,107828.0625,-52.82321166992188
52.0,1.5836148262023924,72084.7421875,91953.8046875,-91953.8046875,116840.5390625,-51.906272888183594,1.0,9.350658558560097e-08,0.2609670460224152,8.0,0.9942256808280944,1.1775635480880735,-167.347412109375,0.11355100572109222,0.09528987109661102,1.0078381819766946e-05,-115.4411392211914,9.999999747378752e-06,0.0003999499604105949,72084.7421875,-91953.8046875,116840.5390625,-51.906272888183594
53.0,1.258051514625549,79282.3515625,96444.328125,-96444.328125,124848.703125,-50.57798004150391,1.0,1.3443457191897326e-07,0.19778555631637573,8.0,0.9973483681678773,1.2524083852767944,-160.2802734375,0.14457650482654572,0.11407595127820969,1.0031408237409776e-05,-109.70228576660156,9.999999747378752e-06,0.0004911469877697528,79282.3515625,-96444.328125,124848.703125,-50.57798004150391
54.0,0.9977650046348573,86316.109375,99390.0,-99390.0,131639.0625,-49.02703475952149,1.0,1.477375093372757e-07,0.17118383944034576,8.0,0.9986449480056762,1.3181017637252808,-154.2353057861328,0.1855994015932083,0.1391441524028778,1.0013000064645892e-05,-105.20826721191406,9.999999747378752e-06,0.0008350323769263923,86316.109375,-99390.0,131639.0625,-49.02703475952149
