# point,freq,zreal,reflected_zimag,zimag,zmod,zphz,zsig,Idc,Vdc,ie_range,gain,vmod,vphz,vsig,vthd,imod,iphz,isig,ithd,zreal_drift,zimag_drift,zmod_drift,zphz_drift
0.0,250019.53125,4365.39794921875,-659.2800903320312,659.2800903320312,4414.90087890625,8.588139533996582,1.0,5.442814199341228e-07,0.7337753772735596,8.0,0.040285106748342514,0.016730424016714096,-27.845104217529297,0.0032785548828542233,0.18703411519527435,3.7895356399531006e-06,-36.43324661254882,9.999999747378752e-06,0.15729419887065887,4365.39794921875,659.2800903320312,4414.90087890625,8.588139533996582
1.0,198691.40625,4420.158203125,-438.1891479492188,438.1891479492188,4441.82470703125,5.6614770889282235,1.0,5.727222855966829e-07,0.8010138273239135,8.0,0.04779300093650818,0.019969498738646507,86.34142303466797,0.0037418762221932407,0.1754558831453323,4.4957873797102366e-06,80.67994689941406,9.999999747378752e-06,0.14959929883480072,4420.158203125,438.1891479492188,4441.82470703125,5.6614770889282235
2.0,157792.96875,4345.8642578125,-326.3777160644531,326.3777160644531,4358.1025390625,4.294894218444824,1.0,4.911472046842391e-07,0.850493013858795,8.0,0.058703072369098656,0.024065766483545303,-53.08290863037109,0.0038134735077619553,0.15351834893226624,5.522074843611335e-06,-57.37780380249024,9.999999747378752e-06,0.13529354333877563,4345.8642578125,326.3777160644531,4358.1025390625,4.294894218444824
3.0,125332.03125,4354.59619140625,-249.2061004638672,249.2061004638672,4361.72119140625,3.275367021560669,1.0,4.5048761876387294e-07,0.8726894259452819,8.0,0.07214976847171782,0.029602903872728348,-75.12008666992188,0.00409909151494503,0.1359623819589615,6.7869777922169305e-06,-78.39545440673827,9.999999747378752e-06,0.11560718715190887,4354.59619140625,249.2061004638672,4361.72119140625,3.275367021560669
4.0,99550.78125,4335.392578125,-131.431396484375,131.431396484375,4337.38427734375,1.7364422082901,1.0,3.499521596950217e-07,0.9083839058876035,8.0,0.08719401806592941,0.03557591512799263,50.836036682128906,0.0016972954617813227,0.04640247672796249,8.202158824133221e-06,49.09959411621094,9.999999747378752e-06,0.04550644755363464,4335.392578125,131.431396484375,4337.38427734375,1.7364422082901
5.0,79160.15625,4347.6435546875,-68.22569274902344,68.22569274902344,4348.1787109375,0.8990441560745238,1.0,3.2739134780968016e-07,0.9239430427551267,8.0,0.10985103994607924,0.044931717216968536,146.72203063964844,0.002790090395137668,0.05983109027147293,1.0333456884836778e-05,145.8229827880859,9.999999747378752e-06,0.0588504634797573,4347.6435546875,68.22569274902344,4348.1787109375,0.8990441560745238
6.0,62871.09375,4361.0224609375,-9.931543350219727,9.931543350219727,4361.03369140625,0.13048191368579865,1.0,2.899510889164958e-07,0.9388056397438048,8.0,0.14228427410125732,0.056486178189516074,-168.72463989257812,0.004098393488675356,0.07005421072244644,1.2952474207850171e-05,-168.85511779785156,9.316054843111489e-07,0.07052454352378845,4361.0224609375,9.931543350219727,4361.03369140625,0.13048191368579865
7.0,49980.46875,4373.6748046875,41.02050018310546,-41.02050018310546,4373.8671875,-0.5373587608337401,1.0,2.848869939953147e-07,0.9466673731803894,8.0,0.22129449248313904,0.06802668422460556,124.7788314819336,0.00508136348798871,0.07408018410205841,1.555298331368249e-05,125.3161849975586,1.100472672987962e-06,0.06986792385578156,4373.6748046875,-41.02050018310546,4373.8671875,-0.5373587608337401
8.0,39667.96875,4392.48876953125,89.82380676269531,-89.82380676269531,4393.4072265625,-1.1715016365051267,1.0,2.388649704698764e-07,0.9408073425292968,8.0,0.376129686832428,0.0746738314628601,174.5257568359375,0.0032554850913584232,0.04253922402858734,1.6996793419821188e-05,175.697265625,9.999999747378752e-06,0.044157784432172775,4392.48876953125,-89.82380676269531,4393.4072265625,-1.1715016365051267
9.0,31582.03125,4423.01904296875,138.6520843505859,-138.6520843505859,4425.19189453125,-1.7955107688903809,1.0,2.236633775964947e-07,0.9321435689926147,8.0,0.5439942479133606,0.06400129944086075,-65.23430633544922,0.0007827744120731949,0.003903080243617296,1.4462943909165917e-05,-63.438789367675774,9.999999747378752e-06,0.01157099101692438,4423.01904296875,-138.6520843505859,4425.19189453125,-1.7955107688903809
10.0,25019.53125,4436.67236328125,179.3334808349609,-179.3334808349609,4440.29541015625,-2.314676523208618,1.0,2.1802824790029265e-07,0.9288690686225891,8.0,0.6355655193328857,0.051877360790967934,146.71852111816406,0.00013101960939820856,0.00878854375332594,1.1683313459798228e-05,149.0331878662109,9.999999747378752e-06,0.014825040474534035,4436.67236328125,-179.3334808349609,4440.29541015625,-2.314676523208618
11.0,19863.28125,4464.80419921875,230.534423828125,-230.534423828125,4470.751953125,-2.9557690620422363,1.0,2.0203911788030385e-07,0.9260320663452147,8.0,0.7157592177391052,0.050348568707704544,138.7509307861328,0.0008041089167818427,0.0010312766535207627,1.1261769031989388e-05,141.70668029785156,9.999999747378752e-06,0.003081969218328595,4464.80419921875,-230.534423828125,4470.751953125,-2.9557690620422363
12.0,15682.8701171875,4496.0693359375,277.5038757324219,-277.5038757324219,4504.625,-3.531897783279419,1.0,1.9112299298740254e-07,0.9241464138031005,8.0,0.7877606749534608,0.04957765713334084,52.87863540649414,0.000713793036993593,0.0012644462985917924,1.1005945452779995e-05,56.4105339050293,9.999999747378752e-06,0.003202353604137897,4496.0693359375,-277.5038757324219,4504.625,-3.531897783279419
13.0,12597.65625,4546.24169921875,348.53887939453125,-348.53887939453125,4559.58251953125,-4.384020805358888,1.0,1.670805289677446e-07,0.9222941994667053,8.0,0.8395827412605285,0.04859530180692673,-23.844463348388672,0.0002958033583126962,0.0011146500473842025,1.0657839993655216e-05,-19.46044158935547,9.999999747378752e-06,0.0022637411020696163,4546.24169921875,-348.53887939453125,4559.58251953125,-4.384020805358888
14.0,9895.8330078125,4566.2841796875,389.2804870605469,-389.2804870605469,4582.84765625,-4.872743129730225,1.0,1.6231700783464478e-07,0.9234417080879213,8.0,0.8890074491500854,0.048526309430599206,-16.355138778686523,0.0007642810232937336,0.011314257979393004,1.0588682016532402e-05,-11.482396125793455,9.999999747378752e-06,0.0017646969063207507,4566.2841796875,-389.2804870605469,4582.84765625,-4.872743129730225
15.0,7910.15625,4602.33056640625,444.5923461914063,-444.5923461914063,4623.7548828125,-5.5177412033081055,1.0,1.4987861618465106e-07,0.9247772693634032,8.0,0.9212334156036378,0.047913629561662674,-2.0075368881225586,0.0003906250058207661,0.0008300447370857,1.036249341268558e-05,3.5102045536041255,9.999999747378752e-06,0.0028241185937076807,4602.33056640625,-444.5923461914063,4623.7548828125,-5.5177412033081055
16.0,6307.87060546875,4652.822265625,517.7100830078125,-517.7100830078125,4681.5361328125,-6.349069595336913,1.0,1.4620718502555974e-07,0.9228473305702208,8.0,0.9429210424423216,0.04791748523712158,74.20288848876953,9.999999747378752e-06,0.0008113354560919106,1.0235419722448569e-05,80.55195617675781,9.999999747378752e-06,0.0023653348907828327,4652.822265625,-517.7100830078125,4681.5361328125,-6.349069595336913
17.0,4973.3232421875,4711.98291015625,606.9892578125,-606.9892578125,4750.91748046875,-7.340316295623779,1.0,1.4794696312492306e-07,0.9224219322204589,8.0,0.9327142834663392,0.046994905918836594,-44.21070861816406,0.000375373667338863,0.0003708355943672359,9.89175350696314e-06,-36.87039566040039,9.999999747378752e-06,0.0004235889064148069,4711.98291015625,-606.9892578125,4750.91748046875,-7.340316295623779
18.0,3944.3598632812495,4768.779296875,699.1210327148438,-699.1210327148438,4819.75390625,-8.340363502502441,1.0,1.2572355956308456e-07,0.9219166040420531,8.0,0.9600013494491576,0.04960759356617928,64.6513442993164,0.0007172916666604577,0.000512417231220752,1.0292555998603348e-05,72.99170684814453,9.999999747378752e-06,0.000482905947137624,4768.779296875,-699.1210327148438,4819.75390625,-8.340363502502441
19.0,3144.054931640625,4833.06787109375,808.8020629882812,-808.8020629882812,4900.27587890625,-9.50027561187744,1.0,1.2405747895627428e-07,0.9182084798812865,8.0,0.9761570692062378,0.04982742294669151,105.15167999267578,0.000561629596631974,0.008477720431983473,1.0168288099521304e-05,114.6519546508789,9.999999747378752e-06,0.0009210506686940787,4833.06787109375,-808.8020629882812,4900.27587890625,-9.50027561187744
20.0,2488.426025390625,4907.7744140625,939.3565673828125,-939.3565673828125,4996.86279296875,-10.835462570190428,1.0,1.4819786997577467e-07,0.9185597300529481,8.0,0.9834215641021729,0.05034049972891808,167.18475341796875,0.0005800074432045221,0.0089279618114233,1.007441915135132e-05,178.02020263671875,9.999999747378752e-06,0.0012165345251560211,4907.7744140625,-939.3565673828125,4996.86279296875,-10.835462570190428
21.0,1976.6566162109373,4986.27587890625,1083.191162109375,-1083.191162109375,5102.5732421875,-12.256195068359377,1.0,1.707310133269857e-07,0.9227091073989869,8.0,0.9903176426887512,0.05138354003429413,-121.90077972412108,9.999999747378752e-06,0.001427998999133706,1.0070123607874848e-05,-109.64458465576172,9.999999747378752e-06,0.001114803715609014,4986.27587890625,-1083.191162109375,5102.5732421875,-12.256195068359377
22.0,1582.03125,5074.73876953125,1251.869140625,-1251.869140625,5226.8681640625,-13.857418060302734,1.0,1.5206161663172682e-07,0.9226785302162169,8.0,0.9929023385047911,0.05240510031580925,120.4830093383789,0.0005996125400997697,0.001830950495786965,1.0026099516835528e-05,134.34042358398435,9.999999747378752e-06,0.0009177636820822953,5074.73876953125,-1251.869140625,5226.8681640625,-13.857418060302734
23.0,1253.6336669921875,5181.81689453125,1463.885009765625,-1463.885009765625,5384.625,-15.775208473205566,1.0,1.4039891027550766e-07,0.9234760403633117,8.0,0.995940327644348,0.05401100590825081,150.48483276367188,0.0005290589760988951,0.002183494158089161,1.0030596968135796e-05,166.26004028320312,9.999999747378752e-06,0.0011963344877585769,5181.81689453125,-1463.885009765625,5384.625,-15.775208473205566
24.0,996.09375,5308.458984375,1718.64453125,-1718.64453125,5579.73779296875,-17.93966293334961,1.0,1.4837407036338846e-07,0.9199954867362976,8.0,0.9986448884010315,0.055948905646800995,-11.386774063110352,0.0008500862750224769,0.00328409974463284,1.0027156349678988e-05,6.552889347076416,9.999999747378752e-06,0.0013397659640759227,5308.458984375,-1718.64453125,5579.73779296875,-17.93966293334961
25.0,790.028076171875,5442.1416015625,1993.7624511718752,-1993.7624511718752,5795.8603515625,-20.12062263488769,1.0,1.6142239189775864e-07,0.9279430508613585,8.0,0.9986793398857117,0.05796059593558312,-132.7507171630859,0.0007398710004054011,0.0038401621859520674,1.0000344445870724e-05,-112.63008880615234,9.999999747378752e-06,0.0017501241527497768,5442.1416015625,-1993.7624511718752,5795.8603515625,-20.12062263488769
26.0,628.8109741210938,5600.1767578125,2332.955810546875,-2332.955810546875,6066.6845703125,-22.615930557250977,1.0,1.8425200210003825e-07,0.9296848177909853,8.0,0.9997541904449463,0.060732141137123115,79.1779098510742,0.0008224314660765231,0.005116136744618416,1.0010762707679532e-05,101.79383850097656,9.999999747378752e-06,0.0011443713447079062,5600.1767578125,-2332.955810546875,6066.6845703125,-22.615930557250977
27.0,496.3235168457031,5544.86767578125,2931.89794921875,-2931.89794921875,6272.287109375,-27.86804389953613,1.0,1.8390286982139517e-07,0.934518814086914,8.0,0.9725699424743651,0.06101737543940544,106.614990234375,0.0006323194829747081,0.004219238180667162,9.728090844873805e-06,134.4830322265625,9.999999747378752e-06,0.00037026742938905954,5544.86767578125,-2931.89794921875,6272.287109375,-27.86804389953613
28.0,395.3313293457031,5802.49365234375,3395.731201171875,-3395.731201171875,6723.08837890625,-30.336996078491207,1.0,1.7804077856453662e-07,0.9347646236419677,8.0,0.9923276901245117,0.06859667599201201,69.88375091552734,0.0007855108706280589,0.006975993514060974,1.0203149940934964e-05,100.22074890136717,9.999999747378752e-06,0.0005731269484385848,5802.49365234375,-3395.731201171875,6723.08837890625,-30.336996078491207
29.0,315.5048217773437,6094.7783203125,3980.042724609375,-3980.042724609375,7279.22119140625,-33.14554214477539,1.0,1.6553363479943073e-07,0.928519368171692,8.0,0.999044120311737,0.07328489422798157,-166.77964782714844,0.0011260150931775568,0.010396168567240238,1.0067683433589991e-05,-133.6341094970703,9.999999747378752e-06,0.0007338523282669485,6094.7783203125,-3980.042724609375,7279.22119140625,-33.14554214477539
30.0,249.33511352539065,6390.33056640625,4581.7802734375,-4581.7802734375,7863.14404296875,-35.640010833740234,1.0,1.8216215380562062e-07,0.9409807324409485,8.0,1.0023227930068968,0.07888948917388915,56.07902908325195,0.0011554843513295054,0.013675558380782604,1.0032818863692228e-05,91.71904754638672,9.999999747378752e-06,0.0008421011734753846,6390.33056640625,-4581.7802734375,7863.14404296875,-35.640010833740234
31.0,198.6228790283203,6795.77001953125,5440.25,-5440.25,8705.1025390625,-38.67848587036133,1.0,1.997032939016208e-07,0.9309879541397095,8.0,1.001815676689148,0.08700697869062422,39.231342315673835,0.0017328137764707208,0.017969172447919846,9.994940228352787e-06,77.90982818603516,9.999999747378752e-06,0.0011525709414854644,6795.77001953125,-5440.25,8705.1025390625,-38.67848587036133
32.0,158.005615234375,7259.95458984375,6496.076171875,-6496.076171875,9741.9677734375,-41.82160568237305,1.0,1.712196251446585e-07,0.9203957915306092,8.0,0.9977559447288512,0.09702489525079729,93.67035675048828,0.002309730276465416,0.02296360209584236,9.959476301446557e-06,135.49195861816406,9.999999747378752e-06,0.0011050269240513444,7259.95458984375,-6496.076171875,9741.9677734375,-41.82160568237305
33.0,125.5580368041992,7665.56298828125,7418.969726562499,-7418.969726562499,10667.80078125,-44.06344604492188,1.0,1.8615291708101722e-07,0.9408543705940247,8.0,0.9883792400360109,0.10567545890808104,-143.21856689453125,0.0030490809585899115,0.028791146352887157,9.906021659844555e-06,-99.15511322021484,9.999999747378752e-06,0.0013794469414278865,7665.56298828125,-7418.969726562499,10667.80078125,-44.06344604492188
34.0,99.73403930664062,8087.78271484375,8126.48974609375,-8126.48974609375,11465.2548828125,-45.13677597045898,1.0,2.0245521170636493e-07,0.9860652685165405,8.0,0.9930419325828552,0.1151934340596199,-141.96142578125,0.0044135013595223435,0.03735571727156639,1.0047175237559712e-05,-96.82464599609376,9.999999747378752e-06,0.0010677132522687316,8087.78271484375,-8126.48974609375,11465.2548828125,-45.13677597045898
35.0,78.78150939941406,8715.7275390625,9537.6181640625,-9537.6181640625,12920.1416015625,-47.57810974121094,1.0,2.0014661572531625e-07,0.9913652539253235,8.0,0.9934963583946227,0.12926054000854492,-142.40435791015625,0.0060246409848332405,0.04546239972114562,1.0004576324718071e-05,-94.82624816894531,9.999999747378752e-06,0.0011425180127844214,8715.7275390625,-9537.6181640625,12920.1416015625,-47.57810974121094
36.0,62.919464111328125,9388.29296875,11045.130859375,-11045.130859375,14496.0322265625,-49.63566970825195,1.0,1.836363878737757e-07,0.9982576370239258,8.0,0.9939336776733398,0.14502413570880887,-142.90748596191406,0.00812559761106968,0.05464641377329826,1.0004401701735333e-05,-93.27181243896483,9.999999747378752e-06,0.0010742070153355598,9388.29296875,-11045.130859375,14496.0322265625,-49.63566970825195
37.0,49.86701965332031,10294.68359375,12880.216796875,-12880.216796875,16488.798828125,-51.365943908691406,1.0,1.7479011660270774e-07,1.0039753913879395,8.0,0.9945585727691649,0.16499166190624237,-144.83792114257812,0.011039822362363338,0.06599956750869751,1.0006287084252108e-05,-93.47196960449217,9.999999747378752e-06,0.0011537006357684731,10294.68359375,-12880.216796875,16488.798828125,-51.365943908691406
38.0,39.72457504272461,11295.0400390625,15007.955078125,-15007.955078125,18783.4140625,-53.03475189208984,1.0,1.762383874392981e-07,1.0069942474365234,8.0,0.9951591491699218,0.1879475712776184,-145.5190277099609,0.014961211942136288,0.07863317430019377,1.0006038792198524e-05,-92.48428344726561,9.999999747378752e-06,0.0008687482913956046,11295.0400390625,-15007.955078125,18783.4140625,-53.03475189208984
39.0,31.459732055664062,12567.7802734375,17615.826171875,-17615.826171875,21639.46484375,-54.494537353515625,1.0,1.6044648987190158e-07,1.0055311918258667,8.0,0.9955933094024657,0.2164890617132187,-146.188232421875,0.020592181012034416,0.09393122792243955,1.0004362593463156e-05,-91.69369506835936,9.999999747378752e-06,0.0011825852561742067,12567.7802734375,-17615.826171875,21639.46484375,-54.494537353515625
40.0,24.93350982666016,14076.3935546875,20512.84765625,-20512.84765625,24878.138671875,-55.541179656982415,1.0,1.692605309244755e-07,1.0072718858718872,8.0,0.9959678649902344,0.24887497723102567,-146.58509826660156,0.02819765731692314,0.1118875741958618,1.0003762326959986e-05,-91.0439224243164,9.999999747378752e-06,0.0014226656639948487,14076.3935546875,-20512.84765625,24878.138671875,-55.541179656982415
41.0,19.862287521362305,15950.9912109375,24074.130859375,-24074.130859375,28879.021484375,-56.47241973876953,1.0,1.6206871578106075e-07,0.9985492825508115,8.0,0.996114432811737,0.2888326942920685,-147.0517120361328,0.0385589711368084,0.1318788379430771,1.000147130980622e-05,-90.57929229736328,9.999999747378752e-06,0.0014266201760619879,15950.9912109375,-24074.130859375,28879.021484375,-56.47241973876953
42.0,15.782828330993652,18289.822265625,28301.662109375,-28301.662109375,33697.20703125,-57.12761688232422,1.0,1.7578815914021106e-07,0.987067461013794,8.0,0.9964801669120787,0.3370957672595978,-147.3264617919922,0.05344829335808753,0.1566338092088699,1.0003671377489807e-05,-90.19884490966797,9.999999747378752e-06,0.0013369309017434716,18289.822265625,-28301.662109375,33697.20703125,-57.12761688232422
43.0,12.466754913330078,21486.8515625,33696.37890625,-33696.37890625,39964.1171875,-57.47594833374024,1.0,1.5860798896483175e-07,0.9640843868255616,8.0,0.9965752959251405,0.3996793329715729,-147.36402893066406,0.07471420615911484,0.1846895664930344,1.0000954716815612e-05,-89.88807678222656,9.999999747378752e-06,0.0019146460108458996,21486.8515625,-33696.37890625,39964.1171875,-57.47594833374024
44.0,9.973403930664062,25473.0390625,39927.5546875,-39927.5546875,47361.22265625,-57.4628791809082,1.0,1.6093572696718186e-07,0.929401159286499,8.0,0.9968255162239074,0.47373116016387934,-147.09906005859375,0.10070344805717468,0.21003189682960513,1.0002510862250347e-05,-89.63618469238281,9.999999747378752e-06,0.001557174138724804,25473.0390625,-39927.5546875,47361.22265625,-57.4628791809082
45.0,7.878151416778564,30500.681640625,46851.2109375,-46851.2109375,55904.62890625,-56.935405731201165,1.0,1.716453965627807e-07,0.8883289694786071,8.0,0.9968070983886719,0.5590359568595886,-146.37930297851562,0.1282150149345398,0.22662892937660217,9.999815119954292e-06,-89.44388580322266,9.999999747378752e-06,0.0018184793880209329,30500.681640625,-46851.2109375,55904.62890625,-56.935405731201165
46.0,6.275100231170654,36115.98828125,53427.67578125,-53427.67578125,64489.390625,-55.94213104248047,1.0,1.5688036114624992e-07,0.8388306498527527,8.0,0.997388243675232,0.6452698111534119,-145.23643493652344,0.1483998745679855,0.22725749015808103,1.0005830517911816e-05,-89.29430389404298,9.999999747378752e-06,0.0016674766084179282,36115.98828125,-53427.67578125,64489.390625,-55.94213104248047
47.0,5.013369083404541,42106.2734375,59629.9609375,-59629.9609375,72997.7421875,-54.77308654785156,1.0,1.5423248100887577e-07,0.7776361107826234,8.0,0.9977198839187622,0.7302201390266417,-143.9528350830078,0.15907514095306396,0.2152652144432068,1.0003324860008432e-05,-89.17975616455078,9.999999747378752e-06,0.0014891513856127858,42106.2734375,-59629.9609375,72997.7421875,-54.77308654785156
