# point,freq,zreal,reflected_zimag,zimag,zmod,zphz,zsig,Idc,Vdc,ie_range,gain,vmod,vphz,vsig,vthd,imod,iphz,isig,ithd,zreal_drift,zimag_drift,zmod_drift,zphz_drift
0.0,250019.53125,4332.56298828125,-588.533447265625,588.533447265625,4372.353515625,7.735684394836426,1.0,6.020546265972371e-07,0.5917218923568726,8.0,0.04070930927991867,0.01674366369843483,128.94033813476562,0.0031874286942183967,0.17964760959148407,3.8294392652460365e-06,121.20465850830078,9.999999747378752e-06,0.16537557542324066,4332.56298828125,588.533447265625,4372.353515625,7.735684394836426
1.0,198691.40625,4259.8447265625,-467.12063598632807,467.12063598632807,4285.3798828125,6.2578649520874015,1.0,6.067434696888085e-07,0.683718740940094,8.0,0.0491911955177784,0.01982979290187359,158.03903198242188,0.003732534125447273,0.1778707057237625,4.627312591765076e-06,151.7811737060547,9.999999747378752e-06,0.14030081033706665,4259.8447265625,467.12063598632807,4285.3798828125,6.2578649520874015
2.0,157792.96875,4264.162109375,-292.1431579589844,292.1431579589844,4274.15771484375,3.9192821979522714,1.0,5.509724587682285e-07,0.7509996891021729,8.0,0.05956178903579712,0.02394747734069824,-148.00917053222656,0.0038368778768926855,0.151165634393692,5.602852525044e-06,-151.928466796875,9.999999747378752e-06,0.13992485404014587,4264.162109375,292.1431579589844,4274.15771484375,3.9192821979522714
3.0,125332.03125,4248.62939453125,-230.7703399658203,230.7703399658203,4254.89208984375,3.1090466976165767,1.0,5.588893259300677e-07,0.7840934395790099,8.0,0.07345645129680634,0.029400857165455815,43.39159393310546,0.004168260376900434,0.13592509925365448,6.909894636919489e-06,40.28255081176758,9.02620513443253e-07,0.12390589714050292,4248.62939453125,230.7703399658203,4254.89208984375,3.1090466976165767
4.0,99550.78125,4242.3427734375,-141.3646240234375,141.3646240234375,4244.697265625,1.9085211753845213,1.0,3.9146294739111914e-07,0.8167411088943481,8.0,0.08854777365922928,0.035356223583221436,40.546085357666016,0.0018760423408821223,0.04643290117383003,8.329503543791361e-06,38.63756561279297,9.999999747378752e-06,0.045808576047420495,4242.3427734375,141.3646240234375,4244.697265625,1.9085211753845213
5.0,79160.15625,4248.9951171875,-68.34974670410156,68.34974670410156,4249.544921875,0.9215860366821288,1.0,3.628987883530499e-07,0.8577368855476379,8.0,0.11166519671678544,0.044637687504291534,164.6703643798828,0.002788551850244403,0.06079638749361038,1.0504110832698643e-05,163.74879455566406,9.999999747378752e-06,0.058181844651699066,4248.9951171875,68.34974670410156,4249.544921875,0.9215860366821288
6.0,62871.09375,4263.31005859375,-5.138620376586913,5.138620376586913,4263.31298828125,0.06905927509069443,1.0,3.403770847398846e-07,0.8786824345588685,8.0,0.14697016775608063,0.0561123751103878,-156.3191680908203,0.004076666198670864,0.07025586813688278,1.3161681636120193e-05,-156.38821411132812,9.497319979345776e-07,0.06995734572410583,4263.31005859375,5.138620376586913,4263.31298828125,0.06905927509069443
7.0,49980.46875,4275.77978515625,45.94182586669922,-45.94182586669922,4276.0263671875,-0.6156002879142761,1.0,2.7371271471565706e-07,0.8757969737052916,8.0,0.23064106702804563,0.06710390746593475,119.33625793457033,0.00454070046544075,0.0669482946395874,1.5693052773713134e-05,119.95186614990234,1.1026834272342967e-06,0.06926412135362625,4275.77978515625,-45.94182586669922,4276.0263671875,-0.6156002879142761
8.0,39667.96875,4293.70458984375,96.27291107177734,-96.27291107177734,4294.78369140625,-1.28446364402771,1.0,2.332870678856125e-07,0.8679974675178528,8.0,0.39122289419174194,0.07284989207983017,-149.4540557861328,0.002983154729008674,0.03938373923301697,1.6962412701104768e-05,-148.16958618164062,9.999999747378752e-06,0.04127981886267663,4293.70458984375,-96.27291107177734,4294.78369140625,-1.28446364402771
9.0,31582.03125,4316.87841796875,145.9611663818359,-145.9611663818359,4319.34521484375,-1.9365321397781368,1.0,2.1175381448301778e-07,0.8748243451118469,8.0,0.5522763729095458,0.06097475811839104,-70.42390441894531,0.0005859375232830644,0.0037637562490999694,1.41166683533811e-05,-68.48736572265625,9.999999747378752e-06,0.012252354063093662,4316.87841796875,-145.9611663818359,4319.34521484375,-1.9365321397781368
10.0,25019.53125,4338.62353515625,191.58523559570312,-191.58523559570312,4342.8515625,-2.528428554534912,1.0,2.134930241481925e-07,0.8790958523750305,8.0,0.6407445073127747,0.050385244190692895,118.2260513305664,0.0008135416428558528,0.011044393293559551,1.1601880942180289e-05,120.75447845458984,9.999999747378752e-06,0.01430605910718441,4338.62353515625,-191.58523559570312,4342.8515625,-2.528428554534912
11.0,19863.28125,4364.138671875,239.81607055664065,-239.81607055664065,4370.72265625,-3.145327091217041,1.0,2.1177154962970238e-07,0.883773922920227,8.0,0.721083402633667,0.04918740317225456,151.937744140625,0.00021672208094969392,0.001453434000723064,1.1253836419200525e-05,155.0830841064453,9.999999747378752e-06,0.0033855983056128025,4364.138671875,-239.81607055664065,4370.72265625,-3.145327091217041
12.0,15682.8701171875,4396.95166015625,294.62503051757807,-294.62503051757807,4406.8115234375,-3.8334679603576656,1.0,2.103042220369389e-07,0.8878621459007262,8.0,0.7913346886634826,0.04836143925786018,53.40707778930664,0.0006035756669007242,0.001239184639416635,1.0974246833939104e-05,57.24054336547852,9.999999747378752e-06,0.00279147713445127,4396.95166015625,-294.62503051757807,4406.8115234375,-3.8334679603576656
13.0,12597.65625,4437.52783203125,358.9325866699219,-358.9325866699219,4452.0205078125,-4.624342441558838,1.0,1.9606594037213654e-07,0.8886395692825316,8.0,0.8425032496452332,0.04739892482757568,-15.725651741027832,0.00037727429298684,0.0016674352809786797,1.0646610462572424e-05,-11.101309776306152,9.999999747378752e-06,0.002487026620656252,4437.52783203125,-358.9325866699219,4452.0205078125,-4.624342441558838
14.0,9895.8330078125,4470.453125,410.83245849609375,-410.83245849609375,4489.291015625,-5.250705718994141,1.0,2.0875557993349505e-07,0.8954789638519286,8.0,0.8896963596343994,0.04740760475397109,-26.711095809936523,0.00035446663969196374,0.011873967945575714,1.0560153896221893e-05,-21.460391998291012,9.999999747378752e-06,0.0015779102686792612,4470.453125,-410.83245849609375,4489.291015625,-5.250705718994141
15.0,7910.15625,4518.5068359375,468.95532226562494,-468.95532226562494,4542.77734375,-5.925255298614502,1.0,2.0094665842407267e-07,0.9029778242111206,8.0,0.920359432697296,0.046993423253297806,2.2044992446899414,0.0007938137860037385,0.001734210061840713,1.034464639815269e-05,8.129755020141602,9.999999747378752e-06,0.0037984524387866254,4518.5068359375,-468.95532226562494,4542.77734375,-5.925255298614502
16.0,6307.87060546875,4557.998046875,539.5255737304688,-539.5255737304688,4589.818359375,-6.750631809234619,1.0,2.0462124439291077e-07,0.9039086103439331,8.0,0.9435992836952208,0.047057151794433594,55.31653594970703,0.000620328588411212,0.0021849137265235186,1.025250821840018e-05,62.06716537475586,9.999999747378752e-06,0.002973131602630019,4557.998046875,-539.5255737304688,4589.818359375,-6.750631809234619
17.0,4973.3232421875,4618.5341796875,633.5951538085938,-633.5951538085938,4661.79150390625,-7.811380863189697,1.0,2.140624957291948e-07,0.9103959202766417,8.0,0.9313879609107971,0.04601462185382843,-30.95503234863281,0.0004432346031535417,0.0011785101378336549,9.87058774626348e-06,-23.14365005493164,9.999999747378752e-06,0.0007773891557008029,4618.5341796875,-633.5951538085938,4661.79150390625,-7.811380863189697
18.0,3944.3598632812495,4675.29541015625,715.0172119140625,-715.0172119140625,4729.6552734375,-8.695168495178223,1.0,2.215289782725449e-07,0.9215943813323975,8.0,0.960288166999817,0.048764120787382126,71.75975799560547,0.00041946742567233747,0.0008475936483591795,1.031029205478262e-05,80.4549331665039,9.999999747378752e-06,0.0009293759358115494,4675.29541015625,-715.0172119140625,4729.6552734375,-8.695168495178223
19.0,3144.054931640625,4734.2412109375,810.974609375,-810.974609375,4803.19873046875,-9.720411300659181,1.0,2.090674797727843e-07,0.9300463795661926,8.0,0.9745326638221741,0.048744477331638336,113.07376098632812,0.0007055621827021241,0.007244235835969448,1.014833560475381e-05,122.7941665649414,9.999999747378752e-06,0.0008310509147122502,4734.2412109375,-810.974609375,4803.19873046875,-9.720411300659181
20.0,2488.426025390625,4807.7900390625,933.1675415039062,-933.1675415039062,4897.5146484375,-10.98424243927002,1.0,1.940531717536942e-07,0.9321181774139404,8.0,0.9841494560241699,0.04945843294262887,165.43653869628906,9.999999747378752e-06,0.007707218173891307,1.0098680832015816e-05,176.4207763671875,9.999999747378752e-06,0.0011974981753155587,4807.7900390625,-933.1675415039062,4897.5146484375,-10.98424243927002
21.0,1976.6566162109373,4889.4423828125,1077.942138671875,-1077.942138671875,5006.85595703125,-12.432730674743652,1.0,1.970396112938033e-07,0.9334067106246947,8.0,0.9892520904541016,0.05032815784215927,-117.63076019287108,9.999999747378752e-06,0.0013738542329519987,1.0051848221337423e-05,-105.19802856445312,9.999999747378752e-06,0.0010738561395555735,4889.4423828125,-1077.942138671875,5006.85595703125,-12.432730674743652
22.0,1582.03125,4969.67333984375,1220.226806640625,-1220.226806640625,5117.28515625,-13.795193672180176,1.0,2.201303175297653e-07,0.9454806447029112,8.0,0.9939728975296019,0.051417052745819085,119.23531341552734,0.0006919136503711343,0.0018774763448163867,1.0047720934380775e-05,133.0305023193359,9.999999747378752e-06,0.0011606649495661259,4969.67333984375,-1220.226806640625,5117.28515625,-13.795193672180176
23.0,1253.6336669921875,5059.86865234375,1396.29296875,-1396.29296875,5248.99072265625,-15.427077293395996,1.0,2.1293116958531757e-07,0.9555103182792664,8.0,0.9978425502777101,0.05269425734877586,151.06385803222656,0.000532875710632652,0.0023384634405374527,1.0038931577582844e-05,166.49093627929688,9.999999747378752e-06,0.0012940283631905911,5059.86865234375,-1396.29296875,5248.99072265625,-15.427077293395996
24.0,996.09375,5178.62744140625,1633.5052490234375,-1633.5052490234375,5430.1494140625,-17.506946563720703,1.0,2.0083484741917346e-07,0.9534997940063475,8.0,0.9994107484817504,0.05438683554530144,-10.744190216064451,9.999999747378752e-06,0.002715925453230738,1.0015715815825388e-05,6.762756824493408,9.999999747378752e-06,0.001542566460557282,5178.62744140625,-1633.5052490234375,5430.1494140625,-17.506946563720703
25.0,790.028076171875,5316.17919921875,1920.5635986328125,-1920.5635986328125,5652.4619140625,-19.863147735595703,1.0,1.901273805060555e-07,0.9524062871932985,8.0,0.9996377825737,0.05653746053576469,-132.86248779296875,0.0006392569630406797,0.004313270095735788,1.000227166514378e-05,-112.99934387207033,9.999999747378752e-06,0.0015976025024428964,5316.17919921875,-1920.5635986328125,5652.4619140625,-19.863147735595703
26.0,628.8109741210938,5463.837890625,2232.5263671875,-2232.5263671875,5902.3466796875,-22.22494506835937,1.0,1.9124917116641882e-07,0.9557777047157288,8.0,1.0014072656631468,0.05912794917821884,79.36135864257811,0.0006956937140785158,0.005220588762313128,1.0017701242759358e-05,101.5863037109375,9.999999747378752e-06,0.0016316843684762716,5463.837890625,-2232.5263671875,5902.3466796875,-22.22494506835937
27.0,496.3235168457031,5406.7119140625,2810.777587890625,-2810.777587890625,6093.685546875,-27.468486785888672,1.0,1.9553635866031985e-07,0.9598538875579834,8.0,0.9727935194969176,0.05919567868113518,107.9546890258789,0.0007655278313905,0.0044239591807127,9.714264706417453e-06,135.4231719970703,9.999999747378752e-06,0.000417965609813109,5406.7119140625,-2810.777587890625,6093.685546875,-27.468486785888672
28.0,395.3313293457031,5625.0693359375,3183.206298828125,-3183.206298828125,6463.296875,-29.5053653717041,1.0,1.999704721811213e-07,0.9724430441856384,8.0,0.9930917024612426,0.06598159670829773,70.01007080078125,0.0007726578041911125,0.007419088389724493,1.0208658750343602e-05,99.51543426513673,9.999999747378752e-06,0.0006194837624207139,5625.0693359375,-3183.206298828125,6463.296875,-29.5053653717041
29.0,315.5048217773437,5892.314453125,3706.316162109375,-3706.316162109375,6961.044921875,-32.17024230957031,1.0,2.0805673273116557e-07,0.9699084758758546,8.0,1.0004698038101196,0.07012762129306793,-165.005126953125,0.0008254697313532233,0.010421281680464745,1.0074293641082477e-05,-132.8348846435547,9.999999747378752e-06,0.000533487880602479,5892.314453125,-3706.316162109375,6961.044921875,-32.17024230957031
30.0,249.33511352539065,6206.912109375,4354.8251953125,-4354.8251953125,7582.23291015625,-35.0538444519043,1.0,1.9955314201069998e-07,0.968273401260376,8.0,1.0036706924438477,0.07606491446495056,56.57027816772461,0.0010878923349082468,0.01426391489803791,1.003199395199772e-05,91.62412261962889,9.999999747378752e-06,0.0010020501213148236,6206.912109375,-4354.8251953125,7582.23291015625,-35.0538444519043
31.0,198.6228790283203,6573.09912109375,5155.5888671875,-5155.5888671875,8353.78515625,-38.108745574951165,1.0,1.9648201998734294e-07,0.9612011313438416,8.0,1.001845359802246,0.08338592201471327,39.67800521850586,0.0015755678759887815,0.018772846087813377,9.981813491322098e-06,77.78675079345702,9.999999747378752e-06,0.001290665823034942,6573.09912109375,-5155.5888671875,8353.78515625,-38.108745574951165
32.0,158.005615234375,6850.9453125,5806.81591796875,-5806.81591796875,8980.7880859375,-40.28438949584961,1.0,1.9396544814753724e-07,0.9856681227684021,8.0,0.9985743761062622,0.08951466530561446,95.11723327636719,0.002194225322455168,0.02354470267891884,9.967350706574509e-06,135.40162658691406,9.999999747378752e-06,0.0012126208748668432,6850.9453125,-5806.81591796875,8980.7880859375,-40.28438949584961
33.0,125.5580368041992,7255.711914062499,6734.2978515625,-6734.2978515625,9899.2998046875,-42.865547180175774,1.0,2.062502773014785e-07,0.9951118230819702,8.0,0.9875617027282714,0.09790125489234924,-142.20533752441406,0.0028464745264500375,0.028820704668760296,9.88971623883117e-06,-99.33979034423827,9.999999747378752e-06,0.0012429284397512674,7255.711914062499,-6734.2978515625,9899.2998046875,-42.865547180175774
34.0,99.73403930664062,7638.95458984375,7450.614257812499,-7450.614257812499,10670.767578125,-44.2849006652832,1.0,2.2030968693798059e-07,1.0309027433395384,8.0,0.9939708709716797,0.10740017890930176,-141.09507751464844,0.0040683564729988575,0.03642825037240982,1.0064898560813162e-05,-96.81017303466797,9.999999747378752e-06,0.0008211284293793143,7638.95458984375,-7450.614257812499,10670.767578125,-44.2849006652832
35.0,78.78150939941406,8220.9345703125,8769.3603515625,-8769.3603515625,12020.2099609375,-46.848796844482415,1.0,2.1050185239346322e-07,1.0346933603286743,8.0,0.9946768879890442,0.12028747797012328,-141.642822265625,0.005500518716871738,0.04458853229880333,1.0007102900999598e-05,-94.79402160644531,9.999999747378752e-06,0.0008905756985768675,8220.9345703125,-8769.3603515625,12020.2099609375,-46.848796844482415
36.0,62.919464111328125,8876.1943359375,10237.1884765625,-10237.1884765625,13549.4228515625,-49.072948455810554,1.0,1.9939048456762973e-07,1.0394858121871948,8.0,0.99451607465744,0.1354723274707794,-142.33511352539062,0.007539902348071336,0.05415495857596397,9.9983835752937e-06,-93.26216888427734,9.999999747378752e-06,0.0008641683962196111,8876.1943359375,-10237.1884765625,13549.4228515625,-49.072948455810554
37.0,49.86701965332031,9611.2705078125,11881.708984375,-11881.708984375,15282.392578125,-51.03015136718751,1.0,2.0813074286252234e-07,1.0468302965164185,8.0,0.9957285523414611,0.1530102491378784,-144.48294067382812,0.010029610246419907,0.0648035928606987,1.0012191523856016e-05,-93.45278930664062,9.999999747378752e-06,0.0008468537707813085,9611.2705078125,-11881.708984375,15282.392578125,-51.03015136718751
38.0,39.72457504272461,10504.447265625,13863.517578125,-13863.517578125,17393.693359375,-52.8486328125,1.0,1.9939169249028055e-07,1.0505628585815427,8.0,0.9953329563140867,0.1738678067922592,-145.30679321289062,0.013538780622184277,0.07671649754047394,9.996027074521407e-06,-92.45816802978516,9.999999747378752e-06,0.001476920791901648,10504.447265625,-13863.517578125,17393.693359375,-52.8486328125
39.0,31.459732055664062,11591.6376953125,16224.005859375,-16224.005859375,19939.51953125,-54.45516204833984,1.0,1.995633454043855e-07,1.053290009498596,8.0,0.9955211281776429,0.1994328945875168,-146.12367248535156,0.018506992608308792,0.09166750311851501,1.0001890586863736e-05,-91.66851043701172,9.999999747378752e-06,0.0009423908195458351,11591.6376953125,-16224.005859375,19939.51953125,-54.45516204833984
40.0,24.93350982666016,12898.8974609375,18912.36328125,-18912.36328125,22892.3359375,-55.704635620117195,1.0,1.949632348896557e-07,1.0561674833297727,8.0,0.9957775473594664,0.22898232936859128,-146.77040100097656,0.02526235766708851,0.10892806202173232,1.0002575436374173e-05,-91.06576538085936,9.999999747378752e-06,0.0011414798209443688,12898.8974609375,-18912.36328125,22892.3359375,-55.704635620117195
41.0,19.862287521362305,14458.599609375,22081.708984375,-22081.708984375,26394.18359375,-56.784133911132805,1.0,1.923147436855288e-07,1.0539913177490234,8.0,0.9965132474899294,0.2641368508338928,-147.3635711669922,0.03457719832658768,0.12930285930633545,1.0007388482335953e-05,-90.5794448852539,9.999999747378752e-06,0.0012622472131624816,14458.599609375,-22081.708984375,26394.18359375,-56.784133911132805
42.0,15.782828330993652,16461.466796875,26066.8046875,-26066.8046875,30829.501953125,-57.72714614868164,1.0,1.9188908595424442e-07,1.044402003288269,8.0,0.9966588616371154,0.3083401024341583,-147.90081787109375,0.0479268804192543,0.15353903174400327,1.00014613053645e-05,-90.17367553710936,9.999999747378752e-06,0.0012706907000392675,16461.466796875,-26066.8046875,30829.501953125,-57.72714614868164
43.0,12.466754913330078,19193.248046875,31136.99609375,-31136.99609375,36577.22265625,-58.34978103637695,1.0,1.8800487566750237e-07,1.0256671905517578,8.0,0.996941030025482,0.3658757507801056,-148.2238006591797,0.06795339286327362,0.18349716067314148,1.000283100438537e-05,-89.8740234375,9.999999747378752e-06,0.001182295614853501,19193.248046875,-31136.99609375,36577.22265625,-58.34978103637695
44.0,9.973403930664062,22756.35546875,37254.421875,-37254.421875,43654.82421875,-58.581897735595696,1.0,1.779651483957423e-07,0.9932769536972045,8.0,0.997045159339905,0.43659386038780207,-148.22286987304688,0.09437034279108047,0.21356159448623657,1.0001044756791089e-05,-89.64097595214844,9.999999747378752e-06,0.0016632152255624533,22756.35546875,-37254.421875,43654.82421875,-58.581897735595696
45.0,7.878151416778564,27595.400390625,44624.5234375,-44624.5234375,52467.6484375,-58.26773071289063,1.0,1.818771124817431e-07,0.9481838941574096,8.0,0.997246205806732,0.5247822403907776,-147.70541381835935,0.12597791850566864,0.23720410466194153,1.0002016097132582e-05,-89.43768310546875,9.999999747378752e-06,0.0017129183979704976,27595.400390625,-44624.5234375,52467.6484375,-58.26773071289063
46.0,6.275100231170654,33321.37109375,51957.06640625,-51957.06640625,61723.984375,-57.326927185058594,1.0,1.7668070029230878e-07,0.8918710947036742,8.0,0.99747633934021,0.6173823475837708,-146.6068115234375,0.15104225277900696,0.24174964427948,1.0002308044931851e-05,-89.27988433837889,9.999999747378752e-06,0.001625912613235414,33321.37109375,-51957.06640625,61723.984375,-57.326927185058594
47.0,5.013369083404541,39345.20703125,58573.53125,-58573.53125,70561.3515625,-56.109825134277344,1.0,1.7455317902204115e-07,0.8310717940330505,8.0,0.9978528022766112,0.7058798670768738,-145.2790069580078,0.16565315425395963,0.23190017044544217,1.0003774150391108e-05,-89.16918945312499,9.999999747378752e-06,0.0015180931659415364,39345.20703125,-58573.53125,70561.3515625,-56.109825134277344
