# point,freq,zreal,reflected_zimag,zimag,zmod,zphz,zsig,Idc,Vdc,ie_range,gain,vmod,vphz,vsig,vthd,imod,iphz,isig,ithd,zreal_drift,zimag_drift,zmod_drift,zphz_drift
0.0,250019.53125,4441.33251953125,-335.7337646484375,335.7337646484375,4454.00390625,4.322939872741699,1.0,4.773202135766043e-07,0.6332377195358276,8.0,0.03990217670798302,0.016718165948987007,-81.90302276611328,0.004109754227101803,0.2406458258628845,3.7535141927946816e-06,-86.22596740722656,9.999999747378752e-06,0.1664183139801025,4441.33251953125,335.7337646484375,4454.00390625,4.322939872741699
1.0,198691.40625,4411.994140625,-283.48440551757807,283.48440551757807,4421.09228515625,3.6763792037963863,1.0,4.514575664416043e-07,0.6641660332679749,8.0,0.04786048084497452,0.019904354587197304,79.39131164550781,0.003823323175311089,0.17742285132408142,4.502135197981261e-06,75.71493530273438,9.999999747378752e-06,0.15097709000110626,4411.994140625,283.48440551757807,4421.09228515625,3.6763792037963863
2.0,157792.96875,4392.5546875,-155.0516357421875,155.0516357421875,4395.29052734375,2.0216293334960938,1.0,4.911067321700103e-07,0.7397556900978088,8.0,0.058048725128173835,0.024000581353902817,-84.18006896972656,0.003870079526677728,0.1539773941040039,5.460522061184747e-06,-86.20169067382812,9.999999747378752e-06,0.14114797115325928,4392.5546875,155.0516357421875,4395.29052734375,2.0216293334960938
3.0,125332.03125,4397.955078125,-95.71050262451172,95.71050262451172,4398.99609375,1.2467026710510252,1.0,4.4629496187553746e-07,0.7572810053825377,8.0,0.07139902561903,0.02954522892832756,11.861738204956055,0.00406784750521183,0.1306845098733902,6.716356892866315e-06,10.615036010742188,9.999999747378752e-06,0.126150444149971,4397.955078125,95.71050262451172,4398.99609375,1.2467026710510252
4.0,99550.78125,4383.171875,-16.391263961791992,16.391263961791992,4383.20263671875,0.21426169574260712,1.0,3.109547606072738e-07,0.7769196629524232,8.0,0.08618103712797166,0.03553404659032822,-41.968387603759766,0.0018635463202372196,0.04776701703667641,8.10686924523907e-06,-42.18265151977539,9.999999747378752e-06,0.04575711488723754,4383.171875,16.391263961791992,4383.20263671875,0.21426169574260712
5.0,79160.15625,4397.8056640625,33.69487762451172,-33.69487762451172,4397.9345703125,-0.4389772117137909,1.0,2.822903013566247e-07,0.816274344921112,8.0,0.10853882879018784,0.04490300640463829,119.28518676757812,0.0027457736432552338,0.05895349755883217,1.0210020263912156e-05,119.72415924072264,9.999999747378752e-06,0.05871029198169708,4397.8056640625,-33.69487762451172,4397.9345703125,-0.4389772117137909
6.0,62871.09375,4416.19287109375,81.53477478027342,-81.53477478027342,4416.9453125,-1.057713747024536,1.0,2.3993956688173057e-07,0.843876540660858,8.0,0.1387268751859665,0.056454356759786606,-6.158272743225098,0.0039998251013457775,0.07003194093704224,1.2781312761944719e-05,-5.100559711456299,9.307366894972801e-07,0.07059264928102493,4416.19287109375,-81.53477478027342,4416.9453125,-1.057713747024536
7.0,49980.46875,4435.40380859375,128.81715393066406,-128.81715393066406,4437.27392578125,-1.6635700464248655,1.0,1.5581122170260642e-07,0.8451429009437562,8.0,0.21377775073051447,0.0683782771229744,-127.08475494384764,0.0048861317336559296,0.0711951032280922,1.540997436677571e-05,-125.42118072509764,1.123346919484902e-06,0.07192529737949371,4435.40380859375,-128.81715393066406,4437.27392578125,-1.6635700464248655
8.0,39667.96875,4456.11669921875,176.178466796875,-176.178466796875,4459.59814453125,-2.264085292816162,1.0,1.2344531796770752e-07,0.8380578756332396,8.0,0.36257740855216974,0.07563693076372145,53.299930572509766,0.003508768742904067,0.04538994282484055,1.6960482753347605e-05,55.56401824951172,9.999999747378752e-06,0.0472295731306076,4456.11669921875,-176.178466796875,4459.59814453125,-2.264085292816162
9.0,31582.03125,4479.9248046875,227.3712615966797,-227.3712615966797,4485.69091796875,-2.9054605960845947,1.0,1.2108476710182006e-07,0.8176882266998291,8.0,0.5347371101379395,0.06615595519542694,114.81131744384764,0.0007732747471891343,0.004689641296863556,1.4748219655302817e-05,117.71678161621092,9.999999747378752e-06,0.011478654108941557,4479.9248046875,-227.3712615966797,4485.69091796875,-2.9054605960845947
10.0,25019.53125,4511.20166015625,282.2624816894531,-282.2624816894531,4520.0234375,-3.580286264419556,1.0,1.197846017930715e-07,0.7993546128273009,8.0,0.6250816583633423,0.05283687636256217,-6.6365275382995605,9.999999747378752e-06,0.0067395553924143314,1.1689513485180214e-05,-3.056241273880005,9.999999747378752e-06,0.01437709294259548,4511.20166015625,-282.2624816894531,4520.0234375,-3.580286264419556
11.0,19863.28125,4543.22265625,334.9059143066406,-334.9059143066406,4555.5498046875,-4.215961456298828,1.0,1.3072985893813893e-07,0.7908102869987487,8.0,0.7039039731025696,0.051300015300512314,16.343719482421875,0.0004981904639862478,0.0011974782682955265,1.1260992323514074e-05,20.559682846069332,9.999999747378752e-06,0.003392371581867337,4543.22265625,-334.9059143066406,4555.5498046875,-4.215961456298828
12.0,15682.8701171875,4579.06640625,398.9867248535156,-398.9867248535156,4596.416015625,-4.979763031005859,1.0,1.2930833293012256e-07,0.794457197189331,8.0,0.7750761508941649,0.05061161890625954,7.959300518035888,0.0005399869405664504,0.0009610092383809389,1.1011105925717857e-05,12.939064025878906,9.999999747378752e-06,0.0032226203475147486,4579.06640625,-398.9867248535156,4596.416015625,-4.979763031005859
13.0,12597.65625,4615.99560546875,474.4198913574218,-474.4198913574218,4640.3115234375,-5.868105411529541,1.0,1.384604502163711e-07,0.8009292483329774,8.0,0.829531729221344,0.04966331645846367,-82.56004333496092,0.0006765823345631361,0.0017247897339984775,1.0702583495003635e-05,-76.69194030761719,9.999999747378752e-06,0.0019827585201710463,4615.99560546875,-474.4198913574218,4640.3115234375,-5.868105411529541
14.0,9895.8330078125,4661.63671875,548.21484375,-548.21484375,4693.76123046875,-6.707254409790039,1.0,1.45591030786818e-07,0.8091931939125061,8.0,0.8767139911651611,0.04960734397172928,-64.77320861816406,0.0006696755299344659,0.007430886849761009,1.056878227245761e-05,-58.06595993041992,9.999999747378752e-06,0.002553599886596203,4661.63671875,-548.21484375,4693.76123046875,-6.707254409790039
15.0,7910.15625,4706.7021484375,647.3689575195312,-647.3689575195312,4751.013671875,-7.831435203552246,1.0,1.4521266678002578e-07,0.8189027905464172,8.0,0.9086756706237794,0.04924217611551285,-48.13102722167969,0.0003149319381918758,0.0011832443997263908,1.0364562513132112e-05,-40.29958724975586,9.999999747378752e-06,0.0027240696363151078,4706.7021484375,-647.3689575195312,4751.013671875,-7.831435203552246
16.0,6307.87060546875,4763.1572265625,744.0929565429686,-744.0929565429686,4820.92724609375,-8.878893852233887,1.0,1.4091546063355054e-07,0.8301547169685363,8.0,0.9331682324409485,0.0495087169110775,36.922645568847656,0.0005308585241436958,0.0010685051092877984,1.0269541235174984e-05,45.80154037475586,9.999999747378752e-06,0.0018898064736276865,4763.1572265625,-744.0929565429686,4820.92724609375,-8.878893852233887
17.0,4973.3232421875,4841.1142578125,878.533203125,-878.533203125,4920.18359375,-10.285719871520996,1.0,1.2275657468308054e-07,0.8380675315856932,8.0,0.9212653040885923,0.04857424646615982,-57.36742782592773,0.000270985095994547,0.0008145499159581958,9.872445843939204e-06,-47.081707000732415,9.999999747378752e-06,0.000475224805995822,4841.1142578125,-878.533203125,4920.18359375,-10.285719871520996
18.0,3944.3598632812495,4918.240234375,1014.8091430664062,-1014.8091430664062,5021.8447265625,-11.658557891845703,1.0,1.2247610925442134e-07,0.8504387736320494,8.0,0.94901305437088,0.051730986684560776,50.47565460205078,0.00037378241540864105,0.0008472878835164009,1.030119165079668e-05,62.13421249389648,9.999999747378752e-06,0.0005316672031767665,4918.240234375,-1014.8091430664062,5021.8447265625,-11.658557891845703
19.0,3144.054931640625,5005.53076171875,1166.096435546875,-1166.096435546875,5139.56396484375,-13.113821983337402,1.0,1.2522798442660132e-07,0.8647042512893677,8.0,0.9649909734725952,0.05226095765829086,94.3301010131836,0.0004137445357628167,0.003193508367985487,1.0168363587581553e-05,107.44393157958984,9.999999747378752e-06,0.0008801796357147396,5005.53076171875,-1166.096435546875,5139.56396484375,-13.113821983337402
20.0,2488.426025390625,5109.70751953125,1360.178466796875,-1360.178466796875,5287.6455078125,-14.906183242797852,1.0,9.354927499316544e-08,0.8688010573387147,8.0,0.9752891063690184,0.05344074219465256,149.7794952392578,0.0005465697613544762,0.005261794198304416,1.010671712720068e-05,164.6856689453125,9.999999747378752e-06,0.0009397182147949934,5109.70751953125,-1360.178466796875,5287.6455078125,-14.906183242797852
21.0,1976.6566162109373,5229.9794921875,1595.9779052734375,-1595.9779052734375,5468.07373046875,-16.97006607055664,1.0,7.739038920817619e-08,0.8659022450447081,8.0,0.9815839529037476,0.055033668875694275,-134.41563415527344,0.0004279082349967211,0.001353650470264256,1.0064543857879473e-05,-117.4455795288086,9.999999747378752e-06,0.0010887678945437072,5229.9794921875,-1595.9779052734375,5468.07373046875,-16.97006607055664
22.0,1582.03125,5366.79638671875,1867.9521484375,-1867.9521484375,5682.5830078125,-19.190820693969727,1.0,6.828392429270025e-08,0.8611458539962769,8.0,0.9858421683311462,0.05707234144210816,107.1134033203125,9.999999747378752e-06,0.0017442619428038595,1.0043380825663917e-05,126.30422973632812,9.999999747378752e-06,0.0012367053423076868,5366.79638671875,-1867.9521484375,5682.5830078125,-19.190820693969727
23.0,1253.6336669921875,5532.5546875,2186.516845703125,-2186.516845703125,5948.95068359375,-21.564392089843754,1.0,9.443616022508648e-08,0.8626863360404968,8.0,0.9892697334289551,0.05969634279608727,139.33767700195312,0.00044080737279728055,0.0024468381889164448,1.0034767910838129e-05,160.9020538330078,9.999999747378752e-06,0.0011760361958295107,5532.5546875,-2186.516845703125,5948.95068359375,-21.564392089843754
24.0,996.09375,5721.96337890625,2545.4990234375,-2545.4990234375,6262.62158203125,-23.982589721679688,1.0,9.671521894460965e-08,0.8674287199974061,8.0,0.9913302659988403,0.06275665760040283,-21.355623245239254,9.999999747378752e-06,0.003450567135587334,1.0020828995038755e-05,2.6269662380218506,9.999999747378752e-06,0.0015703075332567096,5721.96337890625,-2545.4990234375,6262.62158203125,-23.982589721679688
25.0,790.028076171875,5947.810546875,3001.489013671875,-3001.489013671875,6662.23583984375,-26.777231216430664,1.0,1.1351314554985949e-07,0.8630638718605042,8.0,0.9931762814521788,0.06674642115831375,-143.85382080078125,9.999999747378752e-06,0.004837783053517342,1.0018621651397552e-05,-117.0765914916992,9.999999747378752e-06,0.001188008114695549,5947.810546875,-3001.489013671875,6662.23583984375,-26.777231216430664
26.0,628.8109741210938,6208.107421875,3499.718994140625,-3499.718994140625,7126.6142578125,-29.411420822143555,1.0,1.3792745789942273e-07,0.8655499815940858,8.0,0.9942753911018372,0.07134500145912169,69.61946868896484,0.0005227118381299078,0.006633739452809095,1.0011066478909925e-05,99.0308837890625,9.999999747378752e-06,0.001387805794365704,6208.107421875,-3499.718994140625,7126.6142578125,-29.411420822143555
35.0,78.78150939941406,10548.2802734375,12439.1162109375,-12439.1162109375,16309.439453125,-49.70229721069336,1.0,1.030496150633553e-07,0.9571653008460999,8.0,0.9915326237678528,0.1631917655467987,-144.57862854003906,0.011948383413255215,0.07145674526691437,1.000597058009589e-05,-94.87633514404298,9.999999747378752e-06,0.001768983667716384,10548.2802734375,-12439.1162109375,16309.439453125,-49.70229721069336
36.0,62.919464111328125,11516.611328125,14487.0556640625,-14487.0556640625,18506.94921875,-51.51675033569336,1.0,9.069272977058063e-08,0.9556824564933776,8.0,0.9925777316093444,0.18526454269886017,-144.86114501953125,0.016058672219514847,0.08449335396289825,1.0010539881477598e-05,-93.34439086914062,9.999999747378752e-06,0.001421125023625791,11516.611328125,-14487.0556640625,18506.94921875,-51.51675033569336
37.0,49.86701965332031,12782.013671875,17070.6953125,-17070.6953125,21325.771484375,-53.17525863647461,1.0,1.0149283014015965e-07,0.9488705396652221,8.0,0.992900311946869,0.2133270353078842,-146.69271850585935,0.02138278819620609,0.09899481385946272,1.0003250281442888e-05,-93.5174560546875,9.999999747378752e-06,0.0018541656900197268,12782.013671875,-17070.6953125,21325.771484375,-53.17525863647461
38.0,39.72457504272461,14129.876953125,19758.33984375,-19758.33984375,24290.8515625,-54.430118560791016,1.0,1.118118362342102e-07,0.9474656581878662,8.0,0.9936552643775941,0.24309316277503967,-146.97048950195312,0.02813594974577427,0.1143396869301796,1.0007603123085572e-05,-92.54035949707033,9.999999747378752e-06,0.0018459786660969255,14129.876953125,-19758.33984375,24290.8515625,-54.430118560791016
39.0,31.459732055664062,15777.876953125,22956.33984375,-22956.33984375,27855.609375,-55.49928665161133,1.0,1.1810712408077961e-07,0.9424141645431519,8.0,0.9941160082817075,0.27868527173995966,-147.2406005859375,0.03683830052614212,0.1305907517671585,1.0004637260863092e-05,-91.74131011962889,9.999999747378752e-06,0.0019906526431441307,15777.876953125,-22956.33984375,27855.609375,-55.49928665161133
40.0,24.93350982666016,17713.31640625,26438.94140625,-26438.94140625,31824.19140625,-56.17907333374024,1.0,1.2721386610792254e-07,0.9388667941093444,8.0,0.9946435689926147,0.3184108138084412,-147.28485107421875,0.0480070561170578,0.14893853664398193,1.0005306648963597e-05,-91.10577392578125,9.999999747378752e-06,0.002282737521454692,17713.31640625,-26438.94140625,31824.19140625,-56.17907333374024
41.0,19.862287521362305,20034.455078125,30521.6796875,-30521.6796875,36509.62109375,-56.71907424926758,1.0,1.1875872019118106e-07,0.9267911911010742,8.0,0.9950426816940308,0.36524271965026855,-147.34083557128906,0.06172684580087662,0.1669734418392181,1.0004012438002972e-05,-90.62176513671875,9.999999747378752e-06,0.00204711640253663,20034.455078125,-30521.6796875,36509.62109375,-56.71907424926758
42.0,15.782828330993652,22992.392578125,35439.2890625,-35439.2890625,42244.4453125,-57.025196075439446,1.0,1.0982877540754998e-07,0.9045720100402832,8.0,0.9953139424324036,0.42255964875221247,-147.26815795898435,0.07836814224720001,0.18323396146297452,1.0002726412494665e-05,-90.24295043945312,9.999999747378752e-06,0.0020959076937288046,22992.392578125,-35439.2890625,42244.4453125,-57.025196075439446
43.0,12.466754913330078,27120.3828125,41616.87109375,-41616.87109375,49673.7265625,-56.90900039672852,1.0,1.0567828212515452e-07,0.8585845232009887,8.0,0.9956855177879331,0.49692270159721375,-146.8137969970703,0.09671268612146376,0.19230221211910248,1.0003733223129528e-05,-89.90480804443358,9.999999747378752e-06,0.002066603163257241,27120.3828125,-41616.87109375,49673.7265625,-56.90900039672852
44.0,9.973403930664062,31647.890625,47486.6640625,-47486.6640625,57066.3828125,-56.31819152832031,1.0,1.410525669598428e-07,0.8096310496330261,8.0,0.9962237477302552,0.5709723234176636,-146.00230407714844,0.1108107343316078,0.1917673945426941,1.0005405783886088e-05,-89.68410491943358,9.999999747378752e-06,0.0018728708382695915,31647.890625,-47486.6640625,57066.3828125,-56.31819152832031
45.0,7.878151416778564,36527.8515625,52974.58203125,-52974.58203125,64347.41796875,-55.41236114501953,1.0,1.724629186128368e-07,0.7681632041931152,8.0,0.9967329502105712,0.6438031196594238,-144.8831787109375,0.12283912301063536,0.18854261934757233,1.0005111107602715e-05,-89.47081756591795,9.999999747378752e-06,0.0017153433291241527,36527.8515625,-52974.58203125,64347.41796875,-55.41236114501953
46.0,6.275100231170654,41714.23046875,58283.73046875,-58283.73046875,71673.359375,-54.4083366394043,1.0,1.1299433566591689e-07,0.7167746424674988,8.0,0.9973652958869934,0.71718829870224,-143.7283477783203,0.13036972284317017,0.1796245276927948,1.000634438241832e-05,-89.32000732421875,9.999999747378752e-06,0.0014909910969436169,41714.23046875,-58283.73046875,71673.359375,-54.4083366394043
47.0,5.013369083404541,46976.76171875,63711.8828125,-63711.8828125,79158.1953125,-53.59748840332031,1.0,1.336908184157437e-07,0.6570436954498291,8.0,0.9975606799125672,0.7917369604110717,-142.7829132080078,0.134992316365242,0.1684827208518982,1.000195879896637e-05,-89.1854248046875,9.999999747378752e-06,0.001336966292001307,46976.76171875,-63711.8828125,79158.1953125,-53.59748840332031
48.0,3.939075708389282,52295.01953125,69249.5546875,-69249.5546875,86777.1328125,-52.941082000732415,1.0,1.219274565755768e-07,0.6052634119987488,8.0,0.9984260797500609,0.8685241341590881,-142.00958251953125,0.14217910170555115,0.16175921261310575,1.0008675417338964e-05,-89.0685043334961,9.999999747378752e-06,0.0010478872573003173,52295.01953125,-69249.5546875,86777.1328125,-52.941082000732415
49.0,3.137550115585327,57567.03125,75135.6875,-75135.6875,94653.7578125,-52.54159164428711,1.0,1.3212022054176487e-07,0.5409016013145447,8.0,0.998502016067505,0.9466096162796019,-141.5348968505859,0.14569202065467834,0.1520782858133316,1.0000760084949432e-05,-88.99330139160156,9.999999747378752e-06,0.0009155069128610192,57567.03125,-75135.6875,94653.7578125,-52.54159164428711
50.0,2.485418796539306,62182.171875,81482.109375,-81482.109375,102498.5703125,-52.65133666992188,1.0,1.2151221540079862e-07,0.46496888995170593,8.0,0.9689728617668154,0.9946734309196472,175.07931518554688,0.08437951654195786,0.0838189125061035,9.704265721666161e-06,-132.26934814453125,9.999999747378752e-06,0.0005558475386351346,62182.171875,-81482.109375,102498.5703125,-52.65133666992188
51.0,1.9955300092697144,66884.1328125,85649.296875,-85649.296875,108670.5546875,-52.013477325439446,1.0,1.252954575647891e-07,0.37253788113594055,8.0,0.9864422082901002,1.106297492980957,-174.990966796875,0.0982901453971863,0.08779308199882507,1.0180287063121796e-05,-122.97748565673828,9.999999747378752e-06,0.0003831743670161813,66884.1328125,-85649.296875,108670.5546875,-52.013477325439446
52.0,1.5836148262023924,73555.2109375,91421.1796875,-91421.1796875,117337.9765625,-51.180709838867195,1.0,1.2043805952544062e-07,0.3102167844772339,8.0,0.9940180778503418,1.1823915243148804,-166.6250457763672,0.1179160699248314,0.09854990243911745,1.0076800208480565e-05,-115.4443359375,9.999999747378752e-06,0.0004192976339254528,73555.2109375,-91421.1796875,117337.9765625,-51.180709838867195
53.0,1.258051514625549,80615.890625,95974.046875,-95974.046875,125339.296875,-49.970550537109375,1.0,1.339149804380213e-07,0.2510550320148468,8.0,0.9973746538162231,1.2576253414154053,-159.66799926757812,0.14663435518741608,0.1152190938591957,1.0033767466666175e-05,-109.6974411010742,9.999999747378752e-06,0.00043400572030805046,80615.890625,-95974.046875,125339.296875,-49.970550537109375
54.0,0.9977650046348573,87661.9765625,99280.2265625,-99280.2265625,132443.140625,-48.55629730224609,1.0,1.3094329176510658e-07,0.21906766295433044,8.0,0.9984973669052125,1.3259223699569702,-153.7682647705078,0.1849617660045624,0.13784772157669067,1.0011256563302595e-05,-105.21198272705078,9.999999747378752e-06,0.0005458213854581118,87661.9765625,-99280.2265625,132443.140625,-48.55629730224609
