# point,freq,zreal,reflected_zimag,zimag,zmod,zphz,zsig,Idc,Vdc,ie_range,gain,vmod,vphz,vsig,vthd,imod,iphz,isig,ithd,zreal_drift,zimag_drift,zmod_drift,zphz_drift
0.0,250019.53125,4377.54150390625,-570.7957763671875,570.7957763671875,4414.59814453125,7.428990364074707,1.0,5.083119845039619e-07,0.4795961678028106,8.0,0.04047443717718124,0.016807900741696358,-175.10250854492188,0.0038209646008908744,0.21859610080718997,3.8073453652032185e-06,177.4684906005859,9.999999747378752e-06,0.16003878414630887,4377.54150390625,570.7957763671875,4414.59814453125,7.428990364074707
1.0,198691.40625,4341.24853515625,-422.06362915039057,422.06362915039057,4361.71728515625,5.552942276000977,1.0,4.7001208258734556e-07,0.5555550456047058,8.0,0.0485897772014141,0.01993626728653908,-175.4318084716797,0.0040100570768117905,0.1798616647720337,4.570738383335993e-06,179.01524353027344,9.999999747378752e-06,0.14722342789173126,4341.24853515625,422.06362915039057,4361.71728515625,5.552942276000977
2.0,157792.96875,4328.20751953125,-289.6264038085937,289.6264038085937,4337.88720703125,3.828298091888428,1.0,4.865775053986e-07,0.6317153573036194,8.0,0.05900711938738823,0.024078205227851868,-155.1999053955078,0.0038710494991391897,0.15159296989440915,5.55067617824534e-06,-159.02821350097656,9.999999747378752e-06,0.13709504902362823,4328.20751953125,289.6264038085937,4337.88720703125,3.828298091888428
3.0,125332.03125,4293.37646484375,-179.75445556640625,179.75445556640625,4297.1376953125,2.397451162338257,1.0,4.346790376530408e-07,0.6781392097473145,8.0,0.07290328294038771,0.029469165951013565,5.618772506713867,0.004050454124808312,0.13006810843944547,6.857858807052253e-06,3.2213211059570312,9.999999747378752e-06,0.12695874273777008,4293.37646484375,179.75445556640625,4297.1376953125,2.397451162338257
4.0,99550.78125,4301.5263671875,-114.45473480224608,114.45473480224608,4303.048828125,1.5241627693176267,1.0,2.910099681230349e-07,0.6775100827217102,8.0,0.08768101036548615,0.03549141436815262,-29.797208786010746,0.002220525871962309,0.04747983440756798,8.24796916276682e-06,-31.321372985839844,9.999999747378752e-06,0.045168302953243256,4301.5263671875,114.45473480224608,4303.048828125,1.5241627693176267
5.0,79160.15625,4320.90576171875,-39.06450653076172,39.06450653076172,4321.08203125,0.5179864168167113,1.0,2.6904504579761124e-07,0.691917359828949,8.0,0.11041170358657836,0.04487961903214455,-159.8844757080078,0.0028418221045285463,0.06139081716537476,1.0386197573097888e-05,-160.4024658203125,9.999999747378752e-06,0.05848610028624535,4320.90576171875,39.06450653076172,4321.08203125,0.5179864168167113
6.0,62871.09375,4330.5,19.68878364562988,-19.68878364562988,4330.544921875,-0.260495662689209,1.0,2.406178509772872e-07,0.7259491682052611,8.0,0.14371801912784576,0.05636877939105034,175.21910095214844,0.004049114882946014,0.0703342854976654,1.3016556295042392e-05,175.4796142578125,9.387202908328618e-07,0.07068192213773727,4330.5,-19.68878364562988,4330.544921875,-0.260495662689209
7.0,49980.46875,4349.9169921875,79.4944610595703,-79.4944610595703,4350.6435546875,-1.0469602346420288,1.0,1.986756643646004e-07,0.7173545956611633,8.0,0.22389526665210724,0.06777776032686234,148.80043029785156,0.004648375790566206,0.06782061606645584,1.5578789316350594e-05,149.84738159179688,1.0968864216920336e-06,0.06953613460063934,4349.9169921875,-79.4944610595703,4350.6435546875,-1.0469602346420288
8.0,39667.96875,4369.83203125,140.2061309814453,-140.2061309814453,4372.08056640625,-1.837705492973328,1.0,1.5294597233150853e-07,0.7092269659042358,8.0,0.37965378165245056,0.07413630187511443,-72.92919921875,0.0031451529357582326,0.041477534919977195,1.6956757463049144e-05,-71.09149169921875,9.999999747378752e-06,0.04263770580291748,4369.83203125,-140.2061309814453,4372.08056640625,-1.837705492973328
9.0,31582.03125,4402.791015625,193.37271118164065,-193.37271118164065,4407.03564453125,-2.514842271804809,1.0,1.5910137562968885e-07,0.6886686086654663,8.0,0.542928159236908,0.06302330642938614,7.048291683197021,0.0010093377204611895,0.00390378525480628,1.4300612747319974e-05,9.56313419342041,9.999999747378752e-06,0.011073192581534384,4402.791015625,-193.37271118164065,4407.03564453125,-2.514842271804809
10.0,25019.53125,4423.63525390625,258.15496826171875,-258.15496826171875,4431.16162109375,-3.3398849964141846,1.0,1.4474986187451577e-07,0.6873130202293396,8.0,0.6314785480499268,0.051538735628128045,109.87528228759764,0.000968349224422127,0.01655423827469349,1.1630977496679407e-05,113.21516418457033,9.999999747378752e-06,0.014202730730175972,4423.63525390625,-258.15496826171875,4431.16162109375,-3.3398849964141846
11.0,19863.28125,4451.8408203125,319.1081848144531,-319.1081848144531,4463.2626953125,-4.099952220916748,1.0,1.2520352754563646e-07,0.6792722940444945,8.0,0.7097743153572083,0.0501665398478508,151.48789978027344,0.0009110077517107128,0.0014081718400120735,1.123988022300182e-05,155.58786010742188,9.999999747378752e-06,0.003674227511510253,4451.8408203125,-319.1081848144531,4463.2626953125,-4.099952220916748
12.0,15682.8701171875,4483.9404296875,396.0867919921875,-396.0867919921875,4501.400390625,-5.048093318939209,1.0,1.1773053643082677e-07,0.6691414713859558,8.0,0.7800331711769104,0.049469828605651855,57.023334503173835,0.0007454889127984643,0.0006185079691931605,1.0989876500389071e-05,62.07142639160156,9.999999747378752e-06,0.002662337152287364,4483.9404296875,-396.0867919921875,4501.400390625,-5.048093318939209
13.0,12597.65625,4513.779296875,510.64889526367193,-510.64889526367193,4542.57275390625,-6.4544925689697275,1.0,1.5291067256839597e-07,0.6659292578697205,8.0,0.8347023129463197,0.0486094206571579,9.61836528778076,0.000995543086901307,0.0014081447152420878,1.070085636456497e-05,16.072856903076172,9.999999747378752e-06,0.002828350057825446,4513.779296875,-510.64889526367193,4542.57275390625,-6.4544925689697275
14.0,9895.8330078125,4577.5107421875,566.1985473632812,-566.1985473632812,4612.39453125,-7.0511789321899405,1.0,1.6155416915353274e-07,0.6724503040313721,8.0,0.8771057724952698,0.048467077314853675,-2.957862138748169,0.0006129826069809496,0.014467270113527775,1.0508007108001038e-05,4.093316078186035,9.999999747378752e-06,0.0021496503613889217,4577.5107421875,-566.1985473632812,4612.39453125,-7.0511789321899405
15.0,7910.15625,4628.45703125,667.2196044921875,-667.2196044921875,4676.3017578125,-8.203017234802246,1.0,1.690563067313633e-07,0.6765130162239075,8.0,0.9075058102607728,0.04838379472494125,6.5887603759765625,0.0007462879875674843,0.001405044225975871,1.0346594535803888e-05,14.791775703430176,9.999999747378752e-06,0.003128653392195701,4628.45703125,-667.2196044921875,4676.3017578125,-8.203017234802246
16.0,6307.87060546875,4688.61328125,783.3731689453125,-783.3731689453125,4753.60595703125,-9.485359191894531,1.0,1.7301789512202959e-07,0.681777834892273,8.0,0.930025637149811,0.04871566593647003,71.23091125488281,0.0008110467460937798,0.0013446800876408815,1.0248150829283986e-05,80.71627044677734,9.999999747378752e-06,0.0033042849972844124,4688.61328125,-783.3731689453125,4753.60595703125,-9.485359191894531
17.0,4973.3232421875,4762.5869140625,926.453125,-926.453125,4851.8603515625,-11.0081148147583,1.0,1.7506096128272475e-07,0.6888428330421448,8.0,0.9208412170410156,0.04803946614265442,-45.49426269531249,0.0006675359909422696,0.0005326511454768479,9.901245903165544e-06,-34.48614501953125,9.999999747378752e-06,0.0006269286968745291,4762.5869140625,-926.453125,4851.8603515625,-11.0081148147583
18.0,3944.3598632812495,4843.37646484375,1080.9298095703125,-1080.9298095703125,4962.5302734375,-12.58092212677002,1.0,1.6475132724735886e-07,0.6966928243637085,8.0,0.94885116815567,0.05113479122519493,58.41273498535156,0.0006328848539851606,0.0005700363544747232,1.0304177521902602e-05,70.99365997314453,9.999999747378752e-06,0.0007508919225074352,4843.37646484375,-1080.9298095703125,4962.5302734375,-12.58092212677002
19.0,3144.054931640625,4934.9140625,1254.138916015625,-1254.138916015625,5091.78173828125,-14.259056091308592,1.0,1.7326117074389913e-07,0.7064375281333923,8.0,0.9628022313117982,0.051666468381881714,102.00699615478516,0.0005048459861427546,0.009740854613482952,1.0147031389351469e-05,116.26605224609376,9.999999747378752e-06,0.0006707562715746462,4934.9140625,-1254.138916015625,5091.78173828125,-14.259056091308592
20.0,2488.426025390625,5045.94482421875,1464.7513427734375,-1464.7513427734375,5254.24169921875,-16.18710708618164,1.0,1.8738225548986523e-07,0.7124567627906799,8.0,0.9729342460632323,0.053095340728759766,157.5135955810547,0.000756442081183195,0.012525029480457304,1.0105234650836792e-05,173.70069885253906,9.999999747378752e-06,0.0009643373196013274,5045.94482421875,-1464.7513427734375,5254.24169921875,-16.18710708618164
21.0,1976.6566162109373,5174.021484375,1710.08642578125,-1710.08642578125,5449.30224609375,-18.28944396972656,1.0,1.991165277104301e-07,0.7176591157913208,8.0,0.9792599678039551,0.05484731867909432,-126.18955993652344,0.0006797464448027313,0.001337055815383792,1.0065016795124391e-05,-107.9001235961914,9.999999747378752e-06,0.0011390967993065715,5174.021484375,-1710.08642578125,5449.30224609375,-18.28944396972656
22.0,1582.03125,5318.73681640625,1987.6109619140625,-1987.6109619140625,5677.9892578125,-20.490705490112305,1.0,2.0038152115375849e-07,0.7216562032699586,8.0,0.983660101890564,0.05703502148389816,112.49568939208984,0.0008206902421079576,0.002060179365798831,1.0044933333119843e-05,132.98638916015625,9.999999747378752e-06,0.0013404726050794125,5318.73681640625,-1987.6109619140625,5677.9892578125,-20.490705490112305
23.0,1253.6336669921875,5490.658203125,2293.997802734375,-2293.997802734375,5950.609375,-22.675180435180664,1.0,2.1151613793790602e-07,0.7355535626411438,8.0,0.9876430630683899,0.05974704772233963,143.01058959960935,9.999999747378752e-06,0.002680078614503145,1.0040491360996384e-05,165.68576049804688,9.999999747378752e-06,0.0010498162591829896,5490.658203125,-2293.997802734375,5950.609375,-22.675180435180664
24.0,996.09375,5686.97119140625,2671.4912109375,-2671.4912109375,6283.1923828125,-25.162092208862305,1.0,2.050277601028938e-07,0.7394583225250243,8.0,0.9905200004577636,0.06301494687795639,-18.8583984375,0.0009296598145738243,0.0034095025621354576,1.0029129043687133e-05,6.303693294525146,9.999999747378752e-06,0.001383390394039452,5686.97119140625,-2671.4912109375,6283.1923828125,-25.162092208862305
25.0,790.028076171875,5916.45263671875,3114.40966796875,-3114.40966796875,6686.10205078125,-27.76223564147949,1.0,2.174175506297616e-07,0.7443748116493225,8.0,0.9913821220397949,0.06691920757293701,-140.78773498535156,0.0005588634521700442,0.005498566664755344,1.0008703611674719e-05,-113.02550506591795,9.999999747378752e-06,0.001294389134272933,5916.45263671875,-3114.40966796875,6686.10205078125,-27.76223564147949
26.0,628.8109741210938,6174.5009765625,3581.915283203125,-3581.915283203125,7138.24755859375,-30.118627548217773,1.0,2.182719356369489e-07,0.7557054162025452,8.0,0.9937772750854493,0.07155492901802063,71.51637268066406,0.0008322295034304261,0.007372493855655193,1.0024159564636648e-05,101.63499450683592,9.999999747378752e-06,0.0016145514091476798,6174.5009765625,-3581.915283203125,7138.24755859375,-30.118627548217773
27.0,496.3235168457031,6149.84326171875,4305.55615234375,-4305.55615234375,7507.22216796875,-34.996185302734375,1.0,2.151510756220887e-07,0.7711221575736998,8.0,0.9670110344886781,0.07305024564266205,100.86434936523436,0.0002888710878323764,0.006910610478371382,9.730661986395715e-06,135.86053466796875,9.999999747378752e-06,0.0005667975638061762,6149.84326171875,-4305.55615234375,7507.22216796875,-34.996185302734375
28.0,395.3313293457031,6553.32080078125,5009.90380859375,-5009.90380859375,8248.9482421875,-37.397308349609375,1.0,1.9789031568961946e-07,0.7680133581161499,8.0,0.9867128729820253,0.0841701105237007,61.99269485473633,0.0011867344146594403,0.01151516567915678,1.0203739293501712e-05,99.39000701904298,9.999999747378752e-06,0.000702287070453167,6553.32080078125,-5009.90380859375,8248.9482421875,-37.397308349609375
29.0,315.5048217773437,7004.33203125,5898.41259765625,-5898.41259765625,9157.0703125,-40.10103988647461,1.0,1.9290183672637798e-07,0.7583058476448059,8.0,0.9943287372589112,0.09227747470140456,-174.1373748779297,0.001644210540689528,0.016808634623885155,1.0077184015244711e-05,-134.03634643554688,9.999999747378752e-06,0.0010162204271182416,7004.33203125,-5898.41259765625,9157.0703125,-40.10103988647461
30.0,249.33511352539065,7474.18408203125,6715.18212890625,-6715.18212890625,10047.7412109375,-41.93811798095703,1.0,1.9382774496534694e-07,0.7732385396957396,8.0,0.9968171715736387,0.10072886943817139,50.452613830566406,0.0024168689269572496,0.02296963520348072,1.0025026313087436e-05,92.39072418212889,9.999999747378752e-06,0.0010611538309603927,7474.18408203125,-6715.18212890625,10047.7412109375,-41.93811798095703
31.0,198.6228790283203,8085.436523437501,7951.278320312499,-7951.278320312499,11340.06640625,-44.520694732666016,1.0,1.991684115409953e-07,0.7621264457702637,8.0,0.996365249156952,0.11334926635026932,32.80216979980469,0.003485384164378047,0.030017627403140068,9.995466825785117e-06,77.32286834716797,9.999999747378752e-06,0.001424444606527686,8085.436523437501,-7951.278320312499,11340.06640625,-44.520694732666016
32.0,158.005615234375,8585.04296875,8901.4111328125,-8901.4111328125,12366.8134765625,-46.03649139404297,1.0,1.9828452479941919e-07,0.7865719199180603,8.0,0.9930018186569213,0.12325067818164824,89.60418701171875,0.004753412213176489,0.038057435303926475,9.966242942027748e-06,135.64068603515625,9.999999747378752e-06,0.0016905369702726603,8585.04296875,-8901.4111328125,12366.8134765625,-46.03649139404297
33.0,125.5580368041992,9239.5009765625,10268.3017578125,-10268.3017578125,13813.2685546875,-48.01886367797852,1.0,1.9426151709467376e-07,0.7936643958091735,8.0,0.9846972823143004,0.13697746396064758,-147.53091430664062,0.006518636830151081,0.04719299450516701,9.916368981066624e-06,-99.51204681396483,9.999999747378752e-06,0.0015396225498989224,9239.5009765625,-10268.3017578125,13813.2685546875,-48.01886367797852
34.0,99.73403930664062,9732.3291015625,10940.1630859375,-10940.1630859375,14642.5888671875,-48.34382629394531,1.0,2.0012664947444136e-07,0.8465195298194885,8.0,0.9912971258163453,0.14740727841854095,-145.25006103515625,0.008864697068929672,0.05877057462930679,1.0067024049931204e-05,-96.90624237060547,9.999999747378752e-06,0.0014991973293945191,9732.3291015625,-10940.1630859375,14642.5888671875,-48.34382629394531
35.0,78.78150939941406,10609.275390625,12772.111328125,-12772.111328125,16603.720703125,-50.284961700439446,1.0,1.816532346765598e-07,0.850101113319397,8.0,0.9911419153213502,0.16601121425628662,-145.16567993164062,0.011963053606450556,0.07025190442800522,9.998434506997e-06,-94.8807144165039,9.999999747378752e-06,0.0017095216317102313,10609.275390625,-12772.111328125,16603.720703125,-50.284961700439446
36.0,62.919464111328125,11578.34375,14870.0419921875,-14870.0419921875,18846.119140625,-52.09440612792969,1.0,1.6407966541009958e-07,0.8510182499885558,8.0,0.9920005798339844,0.1886244565248489,-145.43569946289062,0.016056405380368233,0.08300168812274931,1.000866359390784e-05,-93.34129333496092,9.999999747378752e-06,0.0016238909447565675,11578.34375,-14870.0419921875,18846.119140625,-52.09440612792969
37.0,49.86701965332031,12814.74609375,17244.673828125,-17244.673828125,21484.796875,-53.38347244262695,1.0,1.5651301055186198e-07,0.8527519106864929,8.0,0.992702066898346,0.21499988436698916,-146.90098571777344,0.02119460143148899,0.09735169261693953,1.0007071068685036e-05,-93.51752471923827,9.999999747378752e-06,0.0017285724170506,12814.74609375,-17244.673828125,21484.796875,-53.38347244262695
38.0,39.72457504272461,14149.3876953125,19972.818359375,-19972.818359375,24476.900390625,-54.68501663208008,1.0,1.6224483090354624e-07,0.8531152606010437,8.0,0.9934948086738585,0.24496448040008545,-147.22862243652344,0.027804939076304436,0.11217544227838516,1.000798602035502e-05,-92.54361724853517,9.999999747378752e-06,0.0017295458819717169,14149.3876953125,-19972.818359375,24476.900390625,-54.68501663208008
39.0,31.459732055664062,15720.6513671875,23034.9140625,-23034.9140625,27888.1015625,-55.6876106262207,1.0,1.586312237122911e-07,0.8556073904037476,8.0,0.9939650297164917,0.2790129780769348,-147.41152954101562,0.03627537935972214,0.12846697866916656,1.0004732757806776e-05,-91.72391510009763,9.999999747378752e-06,0.001809252076782286,15720.6513671875,-23034.9140625,27888.1015625,-55.6876106262207
40.0,24.93350982666016,17589.513671875,26412.6796875,-26412.6796875,31733.587890625,-56.33838653564453,1.0,1.4983812945956743e-07,0.8583799004554749,8.0,0.9944570660591123,0.31749296188354487,-147.45960998535156,0.046840865164995193,0.14575769007205963,1.00049501270405e-05,-91.12122344970705,9.999999747378752e-06,0.0021180345211178064,17589.513671875,-26412.6796875,31733.587890625,-56.33838653564453
41.0,19.862287521362305,19771.552734375,30363.66015625,-30363.66015625,36233.49609375,-56.92949676513672,1.0,1.4705581463658746e-07,0.854560375213623,8.0,0.9950699806213379,0.3625582754611969,-147.53860473632812,0.05998064205050469,0.16344627737998962,1.0006163392972667e-05,-90.60910034179688,9.999999747378752e-06,0.001866108970716596,19771.552734375,-30363.66015625,36233.49609375,-56.92949676513672
42.0,15.782828330993652,22599.4140625,35171.84765625,-35171.84765625,41806.60546875,-57.27752304077149,1.0,1.3470871351728422e-07,0.8412562608718872,8.0,0.9955834746360778,0.4182817935943604,-147.51837158203125,0.07714126259088515,0.18220947682857516,1.0005160220316611e-05,-90.2408447265625,9.999999747378752e-06,0.0020855311304330826,22599.4140625,-35171.84765625,41806.60546875,-57.27752304077149
43.0,12.466754913330078,26325.3203125,41185.29296875,-41185.29296875,48879.96484375,-57.41360092163086,1.0,1.3451159475152963e-07,0.812866449356079,8.0,0.9955954551696776,0.4888055920600891,-147.3303985595703,0.09767194092273712,0.19743984937667847,1.0000120710174087e-05,-89.91679382324217,9.999999747378752e-06,0.0022813123650848866,26325.3203125,-41185.29296875,48879.96484375,-57.41360092163086
44.0,9.973403930664062,30775.390625,47359.4765625,-47359.4765625,56480.48046875,-56.9831657409668,1.0,1.1764538498937327e-07,0.7749450206756591,8.0,0.996267020702362,0.5651857852935791,-146.66348266601562,0.11672256886959076,0.20406693220138547,1.00067454695818e-05,-89.68031311035155,9.999999747378752e-06,0.0019416820723563433,30775.390625,-47359.4765625,56480.48046875,-56.9831657409668
45.0,7.878151416778564,36103.5390625,53746.765625,-53746.765625,64747.046875,-56.10939407348633,1.0,1.2974543039945274e-07,0.7282716631889342,8.0,0.9967167973518372,0.6477627754211426,-145.58258056640625,0.13153144717216492,0.20064894855022433,1.0004514479078352e-05,-89.47319793701172,9.999999747378752e-06,0.0017759064212441444,36103.5390625,-53746.765625,64747.046875,-56.10939407348633
46.0,6.275100231170654,41716.46875,59670.078125,-59670.078125,72806.46875,-55.0418815612793,1.0,1.2812590455268946e-07,0.6742107272148132,8.0,0.9969518184661864,0.7282363772392274,-144.3450927734375,0.1399698257446289,0.18992851674556727,1.0002358067140449e-05,-89.30320739746092,9.999999747378752e-06,0.0016465934459120035,41716.46875,-59670.078125,72806.46875,-55.0418815612793
47.0,5.013369083404541,47034.25390625,65086.71875,-65086.71875,80302.5625,-54.14662551879882,1.0,1.5925849083942015e-07,0.6243965029716492,8.0,0.9976726770401002,0.8036062717437744,-143.344970703125,0.14563842117786407,0.17908424139022827,1.0007230230257846e-05,-89.19834899902342,9.999999747378752e-06,0.001449102652259171,47034.25390625,-65086.71875,80302.5625,-54.14662551879882
