# point,freq,zreal,reflected_zimag,zimag,zmod,zphz,zsig,Idc,Vdc,ie_range,gain,vmod,vphz,vsig,vthd,imod,iphz,isig,ithd,zreal_drift,zimag_drift,zmod_drift,zphz_drift
0.0,250019.53125,4139.68408203125,-267.9218444824219,267.9218444824219,4148.34521484375,3.703038692474365,1.0,2.009844308759057e-07,0.5849056839942932,8.0,0.1018894612789154,0.004226726945489645,15.696468353271484,0.00046667954302392895,0.08760379999876022,1.0188946362177376e-06,11.993430137634276,9.999999747378752e-06,0.1396476924419403,4139.68408203125,267.9218444824219,4148.34521484375,3.703038692474365
1.0,198691.40625,4117.62451171875,-191.73736572265625,191.73736572265625,4122.08642578125,2.6660547256469727,1.0,5.176147510610464e-07,0.7347028851509094,8.0,0.050741203129291534,0.019675206393003464,146.75453186035156,0.0036870932672172785,0.1760891079902649,4.773118689627154e-06,144.08847045898435,9.999999747378752e-06,0.14912253618240356,4117.62451171875,191.73736572265625,4122.08642578125,2.6660547256469727
2.0,157792.96875,4079.077880859375,-152.87896728515625,152.87896728515625,4081.941650390625,2.1463727951049805,1.0,4.4387010689206363e-07,0.8206912875175475,8.0,0.061734173446893685,0.023704666644334797,-136.5502471923828,0.0037436001002788544,0.15077792108058927,5.807204161101254e-06,-138.69662475585935,9.999999747378752e-06,0.13712359964847565,4079.077880859375,152.87896728515625,4081.941650390625,2.1463727951049805
3.0,125332.03125,4114.8818359375,-50.5740623474121,50.5740623474121,4115.1923828125,0.7041597962379456,1.0,4.869945655627816e-07,0.8647826313972473,8.0,0.07540627568960188,0.029190341010689732,-48.9641990661621,0.004052602220326662,0.1327994167804718,7.093310159689281e-06,-49.66836166381836,9.268284202335053e-07,0.12755419313907623,4114.8818359375,50.5740623474121,4115.1923828125,0.7041597962379456
4.0,99550.78125,4088.766357421875,0.3868213593959808,-0.3868213593959808,4088.766357421875,-0.005420518107712269,1.0,3.1796994903743325e-07,0.8960921168327332,8.0,0.09120866656303404,0.03508083522319794,-162.9921417236328,0.001988600008189678,0.04706347733736038,8.579808309150394e-06,-162.98670959472656,9.999999747378752e-06,0.04609694331884384,4088.766357421875,-0.3868213593959808,4088.766357421875,-0.005420518107712269
5.0,79160.15625,4102.87744140625,54.627471923828125,-54.627471923828125,4103.2412109375,-0.7628155350685119,1.0,3.035629561054521e-07,0.9214307069778441,8.0,0.11476338654756546,0.044296745210886,-32.99752426147461,0.00274377572350204,0.06053437292575836,1.0795551133924164e-05,-32.23470687866211,9.999999747378752e-06,0.05924590304493904,4102.87744140625,-54.627471923828125,4103.2412109375,-0.7628155350685119
6.0,62871.09375,4126.98291015625,104.18398284912108,-104.18398284912108,4128.2978515625,-1.446101188659668,1.0,2.8977751753700437e-07,0.9323261976242064,8.0,0.15494513511657715,0.05573726072907448,160.50660705566406,0.004003786947578192,0.07021105289459229,1.350126967736287e-05,161.9527130126953,9.756591907716938e-07,0.07097846269607544,4126.98291015625,-104.18398284912108,4128.2978515625,-1.446101188659668
7.0,49980.46875,4148.95263671875,152.99557495117188,-152.99557495117188,4151.7724609375,-2.111865758895874,1.0,2.2110879172032585e-07,0.9265721440315247,8.0,0.24551405012607572,0.06578576564788817,27.608015060424805,0.004030790645629168,0.06040755659341812,1.5845223970245567e-05,29.719877243041992,1.0682059610189751e-06,0.06658147275447845,4148.95263671875,-152.99557495117188,4151.7724609375,-2.111865758895874
8.0,39667.96875,4177.52490234375,202.1603240966797,-202.1603240966797,4182.41357421875,-2.770517110824585,1.0,1.6945034531090641e-07,0.9168158769607545,8.0,0.4115387797355652,0.07010699808597565,18.057792663574215,0.0024018276017159224,0.0331324003636837,1.6762331142672338e-05,20.828308105468754,9.999999747378752e-06,0.034340761601924896,4177.52490234375,-202.1603240966797,4182.41357421875,-2.770517110824585
9.0,31582.03125,4198.2060546875,245.62705993652344,-245.62705993652344,4205.38525390625,-3.3484227657318115,1.0,1.4524347591304834e-07,0.9148728251457214,8.0,0.5570473670959473,0.056922916322946555,37.010833740234375,0.0003164424269925803,0.0034570682328194375,1.3535719517676624e-05,40.35925292968751,9.999999747378752e-06,0.011301562190055847,4198.2060546875,-245.62705993652344,4205.38525390625,-3.3484227657318115
10.0,25019.53125,4243.11181640625,297.6473999023437,-297.6473999023437,4253.53857421875,-4.012632846832275,1.0,1.4962742511670513e-07,0.9110817909240722,8.0,0.6409708857536316,0.04894367232918739,168.9014129638672,0.0005673315608873963,0.005530514288693666,1.1506577720865607e-05,172.9140472412109,9.999999747378752e-06,0.01423047762364149,4243.11181640625,-297.6473999023437,4253.53857421875,-4.012632846832275
11.0,19863.28125,4281.26953125,349.4645690917969,-349.4645690917969,4295.5087890625,-4.666501998901367,1.0,1.509152838252703e-07,0.9116854071617126,8.0,0.7182297706604004,0.04813264682888985,-164.53871154785156,9.999999747378752e-06,0.0012464026222005486,1.1205342161701992e-05,-159.87220764160156,9.999999747378752e-06,0.002665609819814563,4281.26953125,-349.4645690917969,4295.5087890625,-4.666501998901367
12.0,15682.8701171875,4327.93359375,405.0018310546875,-405.0018310546875,4346.84228515625,-5.34608793258667,1.0,1.533802560516051e-07,0.9188551902770995,8.0,0.7866544723510742,0.047609593719244,116.34672546386717,9.999999747378752e-06,0.0011188769713044167,1.0952685443044174e-05,121.69281005859376,9.999999747378752e-06,0.0020386152900755405,4327.93359375,-405.0018310546875,4346.84228515625,-5.34608793258667
13.0,12597.65625,4364.4248046875,482.52880859375,-482.52880859375,4391.01806640625,-6.3089728355407715,1.0,1.426013369609791e-07,0.9207208752632141,8.0,0.840946614742279,0.04694070667028427,48.415351867675774,9.999999747378752e-06,0.0013873162679374216,1.0690165254345628e-05,54.72432708740234,9.999999747378752e-06,0.002911035902798176,4364.4248046875,-482.52880859375,4391.01806640625,-6.3089728355407715
14.0,9895.8330078125,4429.63720703125,529.6226806640625,-529.6226806640625,4461.1865234375,-6.818114280700684,1.0,1.2975827701211529e-07,0.9192261695861816,8.0,0.8842126727104187,0.046907104551792145,14.070219039916992,0.0007047168910503387,0.005292338319122791,1.051449180522468e-05,20.88833236694336,9.999999747378752e-06,0.002588486997410655,4429.63720703125,-529.6226806640625,4461.1865234375,-6.818114280700684
15.0,7910.15625,4489.541015625,599.1109008789064,-599.1109008789064,4529.3388671875,-7.60098123550415,1.0,1.3138534882273234e-07,0.9201685786247251,8.0,0.9144327640533448,0.04684140533208847,17.591115951538082,9.999999747378752e-06,0.001423854031600058,1.0341774213884491e-05,25.19209671020508,9.999999747378752e-06,0.0034268279559910297,4489.541015625,-599.1109008789064,4529.3388671875,-7.60098123550415
16.0,6307.87060546875,4552.68701171875,680.232421875,-680.232421875,4603.224609375,-8.497892379760742,1.0,1.2739766930280894e-07,0.9266596436500547,8.0,0.9368444681167601,0.04716044291853905,69.1187973022461,0.0007501118816435337,0.0010599192464724183,1.0245088560623117e-05,77.61668395996092,9.999999747378752e-06,0.002353719435632229,4552.68701171875,-680.232421875,4603.224609375,-8.497892379760742
17.0,4973.3232421875,4631.490234375,779.3776245117188,-779.3776245117188,4696.6083984375,-9.552123069763184,1.0,1.2299132379212097e-07,0.9357373118400573,8.0,0.9265423417091369,0.046449612826108926,-27.2102165222168,9.134905849350616e-05,0.00043425938929431135,9.890033652482089e-06,-17.65809440612793,9.999999747378752e-06,0.0006880658911541104,4631.490234375,-779.3776245117188,4696.6083984375,-9.552123069763184
18.0,3944.3598632812495,4709.07568359375,880.6072387695312,-880.6072387695312,4790.7060546875,-10.592096328735352,1.0,1.1302088864795225e-07,0.9402752518653869,8.0,0.9542396068572998,0.0493391491472721,71.68724822998047,0.0007116186316125095,0.0005991992074996233,1.0298931556462776e-05,82.27935028076173,9.999999747378752e-06,0.0006042391760274768,4709.07568359375,-880.6072387695312,4790.7060546875,-10.592096328735352
19.0,3144.054931640625,4793.79345703125,1002.0634155273436,-1002.0634155273436,4897.40625,-11.806732177734377,1.0,9.770311493184637e-08,0.9414846301078796,8.0,0.9713802337646483,0.04985376074910164,114.54878997802734,9.999999747378752e-06,0.0038307402282953262,1.0179625860473607e-05,126.35552215576172,9.999999747378752e-06,0.0008443814585916699,4793.79345703125,-1002.0634155273436,4897.40625,-11.806732177734377
20.0,2488.426025390625,4890.07568359375,1139.4561767578125,-1139.4561767578125,5021.07568359375,-13.116670608520508,1.0,8.96399470207143e-08,0.9469827413558961,8.0,0.9808009266853331,0.05069771036505699,168.63095092773435,0.00020944932475686076,0.005145230330526829,1.0096982805407606e-05,-178.25238037109375,9.999999747378752e-06,0.0008985586464405059,4890.07568359375,-1139.4561767578125,5021.07568359375,-13.116670608520508
21.0,1976.6566162109373,4995.5810546875,1297.8377685546875,-1297.8377685546875,5161.41552734375,-14.563329696655272,1.0,1.0186025178882119e-07,0.9521310925483704,8.0,0.9861492514610289,0.051895610988140106,-114.27680206298828,9.999999747378752e-06,0.0015669934218749404,1.0054530321212953e-05,-99.71347808837889,9.999999747378752e-06,0.001008872059173882,4995.5810546875,-1297.8377685546875,5161.41552734375,-14.563329696655272
22.0,1582.03125,5106.03955078125,1471.404541015625,-1471.404541015625,5313.81884765625,-16.07536506652832,1.0,9.207229112462301e-08,0.9590718746185303,8.0,0.9898308515548706,0.05333656817674637,120.90690612792967,0.0004989078151993454,0.0020949840545654297,1.0037332685897127e-05,136.98226928710935,9.999999747378752e-06,0.0012439872371032834,5106.03955078125,-1471.404541015625,5313.81884765625,-16.07536506652832
23.0,1253.6336669921875,5233.3515625,1682.3692626953125,-1682.3692626953125,5497.12060546875,-17.821077346801754,1.0,8.419508645829411e-08,0.966283082962036,8.0,0.9946101307868956,0.055236633867025375,152.0992889404297,0.0004850970290135592,0.002665424020960927,1.0048283911601175e-05,169.92034912109375,9.999999747378752e-06,0.001197412610054016,5233.3515625,-1682.3692626953125,5497.12060546875,-17.821077346801754
24.0,996.09375,5382.595703125,1942.0573730468752,-1942.0573730468752,5722.23046875,-19.839603424072266,1.0,7.038374860712793e-08,0.9670944213867188,8.0,0.9952779412269592,0.057260725647211075,-9.8325138092041,0.0004418877942953258,0.003758734557777643,1.000671454676194e-05,10.007089614868164,9.999999747378752e-06,0.0014822697266936302,5382.595703125,-1942.0573730468752,5722.23046875,-19.839603424072266
25.0,790.028076171875,5540.4443359375,2230.521240234375,-2230.521240234375,5972.5830078125,-21.929168701171875,1.0,8.594266631689607e-08,0.9755006432533264,8.0,0.9980793595314026,0.05989393591880798,-133.34779357910156,9.999999747378752e-06,0.0048111481592059135,1.002814678940922e-05,-111.41861724853516,9.999999747378752e-06,0.0012929784134030342,5540.4443359375,-2230.521240234375,5972.5830078125,-21.929168701171875
26.0,628.8109741210938,5736.59716796875,2602.10791015625,-2602.10791015625,6299.16748046875,-24.398941040039062,1.0,9.0305078970232e-08,0.9734393358230592,8.0,1.00001060962677,0.06311357021331787,78.50251770019531,0.00039001417462714016,0.006142765749245881,1.0019350156653672e-05,102.90145874023436,9.999999747378752e-06,0.001125382725149393,5736.59716796875,-2602.10791015625,6299.16748046875,-24.398941040039062
35.0,78.78150939941406,9179.84375,10022.44921875,-10022.44921875,13591.13671875,-47.512554168701165,1.0,1.1450703851778599e-07,1.034173846244812,8.0,0.9937491416931152,0.1360284686088562,-142.33718872070312,0.007944400422275066,0.05693407729268073,1.0008616300183348e-05,-94.82463073730467,9.999999747378752e-06,0.0010135998018085957,9179.84375,-10022.44921875,13591.13671875,-47.512554168701165
36.0,62.919464111328125,9990.6953125,11692.1767578125,-11692.1767578125,15379.2392578125,-49.48687744140625,1.0,1.0618668966344556e-07,1.0342053174972534,8.0,0.9937374591827391,0.15379057824611664,-142.7733612060547,0.01089747343212366,0.06907329708337784,9.999882422562225e-06,-93.2864761352539,9.999999747378752e-06,0.001165691646747291,9990.6953125,-11692.1767578125,15379.2392578125,-49.48687744140625
37.0,49.86701965332031,10951.09375,13758.5068359375,-13758.5068359375,17584.736328125,-51.48194122314453,1.0,1.0512745518553857e-07,1.032413363456726,8.0,0.9945177435874939,0.1759854555130005,-144.9548187255859,0.0147942453622818,0.083082877099514,1.000785232463386e-05,-93.47286987304688,9.999999747378752e-06,0.0011014720657840371,10951.09375,-13758.5068359375,17584.736328125,-51.48194122314453
38.0,39.72457504272461,12040.755859375,16054.34765625,-16054.34765625,20067.931640625,-53.13011169433594,1.0,1.1939096111746042e-07,1.0317248106002808,8.0,0.9949125647544861,0.20075899362564087,-145.63540649414062,0.02017524652183056,0.09921160340309144,1.000396969175199e-05,-92.50528717041016,9.999999747378752e-06,0.0013539721257984638,12040.755859375,-16054.34765625,20067.931640625,-53.13011169433594
39.0,31.459732055664062,13468.5478515625,19067.296875,-19067.296875,23344.455078125,-54.76380157470703,1.0,1.2493138967784034e-07,1.0219628810882568,8.0,0.9948656558990479,0.23343354463577273,-146.47479248046875,0.027927344664931297,0.11816946417093276,9.999528629123232e-06,-91.71098327636719,9.999999747378752e-06,0.0015483587048947811,13468.5478515625,-19067.296875,23344.455078125,-54.76380157470703
40.0,24.93350982666016,15058.6083984375,22231.53515625,-22231.53515625,26851.49609375,-55.88811111450195,1.0,1.380962260100205e-07,1.0200124979019165,8.0,0.9957201480865479,0.2687456011772156,-146.97201538085935,0.038335949182510376,0.14088973402976987,1.0008589015342295e-05,-91.08389282226561,9.999999747378752e-06,0.0014764046063646674,15058.6083984375,-22231.53515625,26851.49609375,-55.88811111450195
41.0,19.862287521362305,17137.7578125,26385.455078125,-26385.455078125,31462.59765625,-56.99565887451172,1.0,1.3065512405319168e-07,1.0033835172653198,8.0,0.9957076907157898,0.314622014760971,-147.59170532226562,0.052768327295780175,0.16565963625907895,9.999875146604609e-06,-90.5960464477539,9.999999747378752e-06,0.001908150385133922,17137.7578125,-26385.455078125,31462.59765625,-56.99565887451172
42.0,15.782828330993652,19920.5078125,31819.34765625,-31819.34765625,37540.61328125,-57.951370239257805,1.0,1.3602073067886522e-07,0.9725157618522643,8.0,0.995996356010437,0.37551492452621454,-148.1625518798828,0.07276160269975662,0.19142138957977292,1.0002899216488004e-05,-90.21118164062499,9.999999747378752e-06,0.001983625581488013,19920.5078125,-31819.34765625,37540.61328125,-57.951370239257805
43.0,12.466754913330078,23522.318359375,38254.7421875,-38254.7421875,44907.95703125,-58.413211822509766,1.0,1.4136286097254924e-07,0.9343361854553223,8.0,0.9960503578186035,0.44910395145416254,-148.3082733154297,0.09734881669282912,0.21416887640953064,1.0000541806221008e-05,-89.89506530761719,9.999999747378752e-06,0.001976332161575556,23522.318359375,-38254.7421875,44907.95703125,-58.413211822509766
44.0,9.973403930664062,27777.923828125,44713.1328125,-44713.1328125,52639.125,-58.14948654174805,1.0,1.339250701448691e-07,0.8891164660453795,8.0,0.9963604807853698,0.5265551805496216,-147.8001251220703,0.11862114816904068,0.2226019948720932,1.0003113857237622e-05,-89.65065002441406,9.999999747378752e-06,0.0020147983450442553,27777.923828125,-44713.1328125,52639.125,-58.14948654174805
45.0,7.878151416778564,32772.359375,50857.46484375,-50857.46484375,60502.140625,-57.202423095703125,1.0,1.2475327082484e-07,0.8394064903259277,8.0,0.9969684481620787,0.6053906083106995,-146.66372680664062,0.1330803781747818,0.21721965074539185,1.0006101547332946e-05,-89.4613037109375,9.999999747378752e-06,0.0018249138956889512,32772.359375,-50857.46484375,60502.140625,-57.202423095703125
46.0,6.275100231170654,37996.72265625,56557.07421875,-56557.07421875,68135.5546875,-56.10562133789063,1.0,1.1337854743942445e-07,0.7811872959136963,8.0,0.9973372817039488,0.6816076636314392,-145.4110107421875,0.14009934663772583,0.20310923457145688,1.0003699571825564e-05,-89.30538940429686,9.999999747378752e-06,0.0016506522661074996,37996.72265625,-56557.07421875,68135.5546875,-56.10562133789063
47.0,5.013369083404541,43336.9765625,62187.515625,-62187.515625,75798.2890625,-55.12829208374024,1.0,9.778874243693281e-08,0.7164710760116577,8.0,0.9979863166809082,0.758476197719574,-144.30996704101562,0.14449690282344818,0.18825063109397888,1.0006508091464639e-05,-89.18167114257811,9.999999747378752e-06,0.0013601520331576467,43336.9765625,-62187.515625,75798.2890625,-55.12829208374024
48.0,3.939075708389282,49561.83203125,68974.7890625,-68974.7890625,84934.6640625,-54.30086898803711,1.0,8.671650419955766e-08,0.6316729784011841,8.0,0.9981439113616944,0.8494806885719299,-143.3705902099609,0.14946380257606506,0.17385627329349515,1.0001578630181028e-05,-89.0697250366211,9.999999747378752e-06,0.0010745564941316843,49561.83203125,-68974.7890625,84934.6640625,-54.30086898803711
49.0,3.137550115585327,55906.3984375,76206.0,-76206.0,94513.9140625,-53.73540878295898,1.0,1.1817269296443557e-07,0.5336897373199463,8.0,0.9984728693962096,0.9454506635665891,-142.7104339599609,0.1528726816177368,0.15976381301879883,1.0003295756177977e-05,-88.97503662109375,9.999999747378752e-06,0.0010956369806081057,55906.3984375,-76206.0,94513.9140625,-53.73540878295898
50.0,2.485418796539306,61233.1328125,83261.140625,-83261.140625,103353.34375,-53.667945861816406,1.0,1.466670482841437e-07,0.44061005115509033,8.0,0.9689863324165344,1.0030115842819212,174.065673828125,0.09078802168369293,0.08943976461887358,9.704684089228977e-06,-132.26637268066406,9.999999747378752e-06,0.00040373706724494696,61233.1328125,-83261.140625,103353.34375,-53.667945861816406
51.0,1.9955300092697144,66568.1015625,87280.6640625,-87280.6640625,109768.96875,-52.6675910949707,1.0,1.3664512721334177e-07,0.336431086063385,8.0,0.9861278533935546,1.11710786819458,-175.63356018066406,0.10373138636350632,0.09175902605056761,1.0176901014347097e-05,-122.96597290039062,9.999999747378752e-06,0.00046619368367828423,66568.1015625,-87280.6640625,109768.96875,-52.6675910949707
52.0,1.5836148262023924,73585.2109375,92775.53125,-92775.53125,118414.875,-51.580196380615234,1.0,1.3105500329402278e-07,0.25893035531044006,8.0,0.9940729141235352,1.193689227104187,-167.0225372314453,0.12166127562522888,0.10071650147438048,1.0080568245030008e-05,-115.44234466552734,9.999999747378752e-06,0.0005673472187481821,73585.2109375,-92775.53125,118414.875,-51.580196380615234
53.0,1.258051514625549,80689.4765625,96874.6328125,-96874.6328125,126077.3046875,-50.20817947387695,1.0,1.2443015862118045e-07,0.195317342877388,8.0,0.9972261786460876,1.2647722959518433,-159.9122772216797,0.15241758525371552,0.1190854236483574,1.0031721103587188e-05,-109.70409393310545,9.999999747378752e-06,0.0005332665168680251,80689.4765625,-96874.6328125,126077.3046875,-50.20817947387695
54.0,0.9977650046348573,87526.5703125,99696.328125,-99696.328125,132665.96875,-48.71907806396484,1.0,1.5172669520779894e-07,0.15881645679473877,8.0,0.9989281892776488,1.3289239406585691,-153.9388427734375,0.19291815161705017,0.14345507323741913,1.0017067324952222e-05,-105.21977233886717,9.999999747378752e-06,0.0003910701489076018,87526.5703125,-99696.328125,132665.96875,-48.71907806396484
