# point,freq,zreal,reflected_zimag,zimag,zmod,zphz,zsig,Idc,Vdc,ie_range,gain,vmod,vphz,vsig,vthd,imod,iphz,isig,ithd,zreal_drift,zimag_drift,zmod_drift,zphz_drift
0.0,100019.53125,6953.4921875,136.74134826660156,-136.74134826660156,6954.83642578125,-1.1265839338302612,1.0,1.5326413915772719e-07,0.16916394233703613,8.0,0.13947439193725583,0.009700215421617033,32.01671600341797,0.0003187531547155231,0.025104079395532608,1.3947438901595888e-06,33.1432991027832,9.999999747378752e-06,0.060946043580770486,6953.4921875,-136.74134826660156,6954.83642578125,-1.1265839338302612
1.0,79511.71875,7003.6201171875,240.84506225585935,-240.84506225585935,7007.76025390625,-1.9695484638214111,1.0,2.697792638173269e-07,0.25173774361610407,8.0,0.09284155815839767,0.04664736986160278,174.85211181640625,0.002833730308339,0.05791616439819336,6.656530786131042e-06,176.82164001464844,9.999999747378752e-06,0.05571377277374268,7003.6201171875,-240.84506225585935,7007.76025390625,-1.9695484638214111
2.0,63105.46875,7069.32666015625,324.8820495605469,-324.8820495605469,7076.7880859375,-2.631266593933105,1.0,2.7858772000399773e-07,0.32143777608871454,8.0,0.09127640724182129,0.06076258048415184,-30.964527130126957,0.0043212338350713244,0.06958003342151642,8.586180229031015e-06,-28.333261489868164,9.999999747378752e-06,0.07301630079746246,7069.32666015625,-324.8820495605469,7076.7880859375,-2.631266593933105
3.0,50214.84375,7149.41943359375,389.12417602539057,-389.12417602539057,7160.0009765625,-3.1153855323791504,1.0,2.6285292165084684e-07,0.36739593744277954,8.0,0.1132124438881874,0.0762515589594841,83.63656616210938,0.005904355552047491,0.07618762552738188,1.0649657269823363e-05,86.751953125,9.999999747378752e-06,0.08018454909324646,7149.41943359375,-389.12417602539057,7160.0009765625,-3.1153855323791504
4.0,39902.34375,7219.19384765625,441.2997131347656,-441.2997131347656,7232.66943359375,-3.4980618953704834,1.0,2.4903525286390504e-07,0.386210411787033,8.0,0.14990167319774628,0.09576591104269028,-172.6475830078125,0.007921304553747177,0.08123018592596054,1.3240741282061208e-05,-169.14952087402344,1.1177938858963898e-06,0.08309023827314378,7219.19384765625,-441.2997131347656,7232.66943359375,-3.4980618953704834
5.0,31699.21875,7305.99853515625,529.9873657226562,-529.9873657226562,7325.196289062499,-4.149048328399657,1.0,2.208792864166753e-07,0.40475776791572565,8.0,0.23366855084896088,0.11418605595827103,97.09227752685545,0.007965266704559326,0.06876874715089798,1.5588122550980188e-05,101.24132537841795,1.1380361684132367e-06,0.07193208485841751,7305.99853515625,-529.9873657226562,7325.196289062499,-4.149048328399657
6.0,25136.71875,7386.657226562499,603.2112426757812,-603.2112426757812,7411.24609375,-4.668544292449951,1.0,1.9034504816772826e-07,0.4099538028240204,8.0,0.39052852988243103,0.1238636076450348,-116.11417388916016,0.004725426901131868,0.03740676119923592,1.671292557148263e-05,-111.44563293457033,9.999999747378752e-06,0.0380500853061676,7386.657226562499,-603.2112426757812,7411.24609375,-4.668544292449951
7.0,19980.46875,7476.73779296875,677.8585205078125,-677.8585205078125,7507.40283203125,-5.180406570434569,1.0,1.5942501363497286e-07,0.40163654088974,8.0,0.5414141416549683,0.10407982766628264,-18.416170120239254,0.0007761982851661741,0.0062550269067287445,1.3863626918464432e-05,-13.235761642456055,9.999999747378752e-06,0.018120968714356422,7476.73779296875,-677.8585205078125,7507.40283203125,-5.180406570434569
8.0,15878.90625,7565.578125,765.4409179687501,-765.4409179687501,7604.201171875,-5.777193069458008,1.0,1.5042941470255758e-07,0.40158256888389593,8.0,0.6233010292053223,0.0875430777668953,119.22099304199217,0.0007080078357830644,0.0012429787311702967,1.1512462151586078e-05,124.99818420410156,9.999999747378752e-06,0.002466900506988168,7565.578125,-765.4409179687501,7604.201171875,-5.777193069458008
9.0,12597.65625,7727.416015625,770.6483764648436,-770.6483764648436,7765.749023437501,-5.695226192474365,1.0,1.6193568797007177e-07,0.402853786945343,8.0,0.6931473016738892,0.08635967969894409,-3.947038412094116,0.0006723847473040223,0.0011209336807951331,1.1120586350443771e-05,1.7481874227523804,9.999999747378752e-06,0.0025878921151161194,7727.416015625,-770.6483764648436,7765.749023437501,-5.695226192474365
10.0,10019.53125,7776.61083984375,956.5902099609376,-956.5902099609376,7835.22412109375,-7.012647151947021,1.0,1.582122308718681e-07,0.40426117181777954,8.0,0.7629196643829346,0.08623920381069182,-176.85104370117188,0.000684856902807951,0.007308271247893571,1.1006603017449377e-05,-169.83840942382812,9.999999747378752e-06,0.02292456850409508,7776.61083984375,-956.5902099609376,7835.22412109375,-7.012647151947021
11.0,7928.24072265625,7894.07275390625,1073.66845703125,-1073.66845703125,7966.75244140625,-7.745241641998291,1.0,1.536182452355206e-07,0.41069948673248285,8.0,0.8197730183601379,0.08560440689325331,122.29187774658205,0.000579904648475349,0.002556405728682876,1.0745206964202224e-05,130.03712463378906,9.999999747378752e-06,0.01598895713686943,7894.07275390625,-1073.66845703125,7966.75244140625,-7.745241641998291
12.0,6307.87060546875,8018.594726562499,1204.140869140625,-1204.140869140625,8108.502929687501,-8.540210723876953,1.0,1.4351391541822522e-07,0.4114225804805756,8.0,0.86232852935791,0.08529426902532578,52.39865493774414,0.0006746414583176374,0.001030569663271308,1.0519113857299088e-05,60.93885803222656,9.999999747378752e-06,0.0013692604843527079,8018.594726562499,-1204.140869140625,8108.502929687501,-8.540210723876953
13.0,5034.72216796875,8171.75439453125,1362.5692138671875,-1362.5692138671875,8284.5732421875,-9.466484069824217,1.0,1.5329085556459177e-07,0.4180867373943329,8.0,0.8675819039344788,0.08335044234991074,54.80905151367188,0.0005578493000939488,0.0004738042189273983,1.0060920430987608e-05,64.2755355834961,9.999999747378752e-06,0.0006190934218466282,8171.75439453125,-1362.5692138671875,8284.5732421875,-9.466484069824217
14.0,3993.0556640625,8317.8291015625,1531.313232421875,-1531.313232421875,8457.6123046875,-10.43135643005371,1.0,1.4808054515924598e-07,0.42337265610694885,8.0,0.9082050323486328,0.08853626251220702,64.8350830078125,0.0005377748166210948,0.00047896913019940257,1.0468233995197807e-05,75.2664337158203,9.999999747378752e-06,0.00083362398436293,8317.8291015625,-1531.313232421875,8457.6123046875,-10.43135643005371
15.0,3144.054931640625,8495.8447265625,1737.1680908203125,-1737.1680908203125,8671.6279296875,-11.556128501892088,1.0,1.530267184080003e-07,0.42756208777427673,8.0,0.9352449178695679,0.08929807692766188,96.54118347167967,0.000419183139456436,0.004207086283713579,1.0297729204467032e-05,108.09730529785156,9.999999747378752e-06,0.0008896520594134927,8495.8447265625,-1737.1680908203125,8671.6279296875,-11.556128501892088
16.0,2519.53125,8675.037109375,1959.16455078125,-1959.16455078125,8893.5146484375,-12.726147651672363,1.0,1.566523479823445e-07,0.4318248927593231,8.0,0.9515265226364136,0.0904833972454071,33.31532669067383,0.0006272561149671674,0.00623046513646841,1.0174088856729211e-05,46.04147720336913,9.999999747378752e-06,0.0010341543238610027,8675.037109375,-1959.16455078125,8893.5146484375,-12.726147651672363
17.0,2000.76220703125,8885.794921875,2225.116455078125,-2225.116455078125,9160.158203125,-14.058500289916992,1.0,1.5186273571998754e-07,0.4359782934188842,8.0,0.9626329541206362,0.0926707684993744,57.569847106933594,0.00021685955289285627,0.001103954273276031,1.0116722478414884e-05,71.62834167480469,9.999999747378752e-06,0.0010545379482209682,8885.794921875,-2225.116455078125,9160.158203125,-14.058500289916992
18.0,1580.6685791015625,9127.955078125,2544.20361328125,-2544.20361328125,9475.8916015625,-15.574565887451172,1.0,1.5353209903423706e-07,0.44424059987068176,8.0,0.9705356359481812,0.09553683549165724,112.05847930908205,0.0003495561832096428,0.0014272547559812665,1.0082094377139583e-05,127.63304138183592,9.999999747378752e-06,0.0012361370027065275,9127.955078125,-2544.20361328125,9475.8916015625,-15.574565887451172
19.0,1253.6336669921875,9400.666015625,2916.249755859375,-2916.249755859375,9842.61328125,-17.234798431396484,1.0,1.531049491632075e-07,0.4461328685283661,8.0,0.9766691327095032,0.09904815256595613,145.51190185546875,0.00032120966352522373,0.0017792532453313468,1.0063196896226144e-05,162.7467041015625,9.999999747378752e-06,0.001189679722301662,9400.666015625,-2916.249755859375,9842.61328125,-17.234798431396484
20.0,1000.7022705078124,9702.3779296875,3341.0361328125,-3341.0361328125,10261.513671875,-19.001264572143555,1.0,1.5699461641816015e-07,0.44774278998374933,8.0,0.9810962677001952,0.10308027267456055,26.054504394531246,0.0003917677386198193,0.0026854949537664648,1.0045328963315114e-05,45.05577087402344,9.999999747378752e-06,0.003173862118273973,9702.3779296875,-3341.0361328125,10261.513671875,-19.001264572143555
21.0,790.028076171875,10048.4833984375,3819.735595703125,-3819.735595703125,10749.9951171875,-20.81332778930664,1.0,1.5593178659401022e-07,0.45541852712631226,8.0,0.9858596324920654,0.10802187025547028,-135.9261016845703,0.0005148415802977979,0.003211934119462967,1.0048551303043496e-05,-115.11278533935545,9.999999747378752e-06,0.0015942045720294116,10048.4833984375,-3819.735595703125,10749.9951171875,-20.81332778930664
22.0,628.8109741210938,10438.8056640625,4390.23291015625,-4390.23291015625,11324.4345703125,-22.810089111328125,1.0,1.5711853507127674e-07,0.458806186914444,8.0,0.9894609451293944,0.11365801841020584,79.71707153320312,0.000793212850112468,0.004171055275946856,1.003652960207546e-05,102.52716827392578,9.999999747378752e-06,0.0013958662748336792,10438.8056640625,-4390.23291015625,11324.4345703125,-22.810089111328125
23.0,502.2321472167969,10414.6572265625,5377.26904296875,-5377.26904296875,11720.92578125,-27.308095932006836,1.0,1.589931741818873e-07,0.4666238725185394,8.0,0.9611698985099792,0.11385796964168549,150.3160858154297,0.0007318112766370177,0.003542812075465917,9.714076441014184e-06,177.62417602539062,9.999999747378752e-06,0.0004316793056204915,10414.6572265625,-5377.26904296875,11720.92578125,-27.308095932006836
24.0,400.1524353027344,10998.3662109375,6065.044921875,-6065.044921875,12559.810546875,-28.8745231628418,1.0,1.6089714449663006e-07,0.4758796691894531,8.0,0.982904314994812,0.12843818962574005,105.73827362060545,0.0008887523435987533,0.006148665212094784,1.0226124686596448e-05,134.61279296875,9.999999747378752e-06,0.0007700740243308246,10998.3662109375,-6065.044921875,12559.810546875,-28.8745231628418
25.0,315.5048217773437,11657.099609375,6905.41162109375,-6905.41162109375,13548.8994140625,-30.64157485961914,1.0,1.5637158412573626e-07,0.4824584424495697,8.0,0.992297112941742,0.13678374886512756,-165.81011962890625,0.001268004416488111,0.008929825387895107,1.0095561265188733e-05,-135.16854858398435,9.999999747378752e-06,0.0008159804856404662,11657.099609375,-6905.41162109375,13548.8994140625,-30.64157485961914
26.0,252.01612854003903,12366.21484375,7887.657226562499,-7887.657226562499,14667.5966796875,-32.53133010864258,1.0,1.5518482143761503e-07,0.48091110587120056,8.0,0.9943024516105651,0.1469723880290985,78.34416198730467,0.00185922347009182,0.012465311214327812,1.0020209629146848e-05,110.87548828125,9.999999747378752e-06,0.0010060153435915709,12366.21484375,-7887.657226562499,14667.5966796875,-32.53133010864258
27.0,200.3205108642578,13191.5224609375,9092.158203125,-9092.158203125,16021.3486328125,-34.576263427734375,1.0,1.5791044916113606e-07,0.4755222499370575,8.0,0.9944387078285216,0.1602354347705841,54.179546356201165,0.002676325850188732,0.016550835222005844,1.0001370355894323e-05,88.75580596923827,9.999999747378752e-06,0.0015361550031229851,13191.5224609375,-9092.158203125,16021.3486328125,-34.576263427734375
28.0,158.005615234375,14107.484375,10410.6845703125,-10410.6845703125,17532.92578125,-36.42564392089844,1.0,1.600620009867271e-07,0.48380163311958313,8.0,0.9922657012939453,0.174946129322052,97.90673065185545,0.0039011961780488487,0.021923843771219254,9.978148227673955e-06,134.33238220214844,9.999999747378752e-06,0.0014400818618014455,14107.484375,-10410.6845703125,17532.92578125,-36.42564392089844
29.0,125.5580368041992,15193.2724609375,12040.84765625,-12040.84765625,19386.013671875,-38.397239685058594,1.0,1.5709517242612494e-07,0.47967696189880366,8.0,0.9837795495986937,0.19220221042633057,-138.91127014160156,0.0053744716569781295,0.027657886967062954,9.914477232086938e-06,-100.51403045654295,9.999999747378752e-06,0.00144042179454118,15193.2724609375,-12040.84765625,19386.013671875,-38.397239685058594
30.0,99.73403930664062,16591.22265625,14229.193359375,-14229.193359375,21857.232421875,-40.61750793457031,1.0,1.540757352813671e-07,0.4544738233089447,8.0,0.9659343361854552,0.21460755169391632,35.553585052490234,0.007462595589458942,0.03427080065011978,9.81860557658365e-06,76.17108917236328,9.999999747378752e-06,0.001603609067387879,16591.22265625,-14229.193359375,21857.232421875,-40.61750793457031
31.0,79.44915008544922,17754.58984375,15268.8515625,-15268.8515625,23417.158203125,-40.69535446166992,1.0,1.5371803385733074e-07,0.5116565227508545,8.0,0.9897776246070861,0.23995190858840945,-135.92237854003906,0.011405343189835548,0.04634599760174751,1.0246841156913432e-05,-95.2270278930664,9.999999747378752e-06,0.0016581140225753188,17754.58984375,-15268.8515625,23417.158203125,-40.69535446166992
32.0,62.919464111328125,19386.78125,17604.7890625,-17604.7890625,26187.322265625,-42.24202728271484,1.0,1.5400448205582506e-07,0.5096219182014465,8.0,0.9904787540435792,0.2620587348937988,-135.82188415527344,0.014790506102144718,0.055049534887075424,1.000708380161086e-05,-93.57984924316406,9.999999747378752e-06,0.00156081176828593,19386.78125,-17604.7890625,26187.322265625,-42.24202728271484
33.0,49.86701965332031,21367.509765625,20202.9375,-20202.9375,29406.27734375,-43.39530944824219,1.0,1.5327691471611618e-07,0.5049596428871155,8.0,0.9917409420013428,0.2944375276565552,-137.1175994873047,0.01985056512057781,0.06657657027244568,1.0012743587139992e-05,-93.72228240966797,9.999999747378752e-06,0.0016386711504310367,21367.509765625,-20202.9375,29406.27734375,-43.39530944824219
34.0,39.72457504272461,23618.732421875,23215.189453125,-23215.189453125,33117.8125,-44.506324768066406,1.0,1.5234670058816846e-07,0.49544814229011536,8.0,0.9922515749931335,0.33134862780570984,-137.21368408203125,0.026265425607562065,0.0782865360379219,1.0005148396885488e-05,-92.70735168457033,9.999999747378752e-06,0.0017967813182622194,23618.732421875,-23215.189453125,33117.8125,-44.506324768066406
35.0,31.672296524047848,26259.16796875,26711.033203125,-26711.033203125,37456.94921875,-45.48875427246094,1.0,1.4970694905969142e-07,0.48023983836174006,8.0,0.993204355239868,0.3749291896820068,-137.40353393554688,0.0344858393073082,0.09084566682577133,1.000960219244007e-05,-91.91477203369139,9.999999747378752e-06,0.0016500892816111443,26259.16796875,-26711.033203125,37456.94921875,-45.48875427246094
36.0,25.201612472534176,29367.14453125,30576.537109375,-30576.537109375,42395.20703125,-46.15581512451172,1.0,1.4732093234215426e-07,0.4645394384860992,8.0,0.9937359690666199,0.4241790771484375,-137.4660491943359,0.04492038115859032,0.1045890673995018,1.0005353033193389e-05,-91.31023406982419,9.999999747378752e-06,0.0019375816918909548,29367.14453125,-30576.537109375,42395.20703125,-46.15581512451172
37.0,20.03205108642578,33010.4453125,35293.765625,-35293.765625,48325.3515625,-46.91460800170898,1.0,1.4003994408540166e-07,0.43512323498725886,8.0,0.994398295879364,0.4835755228996277,-137.67857360839844,0.05674770474433898,0.11591266095638277,1.0006664524553344e-05,-90.76396179199217,9.999999747378752e-06,0.0020363547373563047,33010.4453125,-35293.765625,48325.3515625,-46.91460800170898
38.0,15.782828330993652,37316.88671875,40720.53515625,-40720.53515625,55233.25,-47.497406005859375,1.0,1.456911320474319e-07,0.39809826016426086,8.0,0.9949067234992981,0.5526148676872252,-137.84385681152344,0.06882315129041672,0.12303314357995986,1.000511292659212e-05,-90.34644317626952,9.999999747378752e-06,0.0018587965751066804,37316.88671875,-40720.53515625,55233.25,-47.497406005859375
39.0,12.600806236267088,41798.18359375,45996.890625,-45996.890625,62151.4453125,-47.73802185058594,1.0,1.4637973322351172e-07,0.35635390877723694,8.0,0.995348274707794,0.6217902898788452,-137.76412963867188,0.07661155611276625,0.12173235416412352,1.0004438081523404e-05,-90.02610015869139,9.999999747378752e-06,0.0015486901393160224,41798.18359375,-45996.890625,62151.4453125,-47.73802185058594
40.0,9.973403930664062,46526.73046875,50884.93359375,-50884.93359375,68949.3515625,-47.561710357666016,1.0,1.4679524440452954e-07,0.31460240483284,8.0,0.9960782527923585,0.6899992227554321,-137.31187438964844,0.07963403314352036,0.1140354424715042,1.0007333912653849e-05,-89.75016021728516,9.999999747378752e-06,0.0014455599011853335,46526.73046875,-50884.93359375,68949.3515625,-47.561710357666016
41.0,7.971938610076904,51048.90234375,55021.37890625,-55021.37890625,75055.59375,-47.144805908203125,1.0,1.4448714580339586e-07,0.2771431505680084,8.0,0.9967419505119325,0.751056134700775,-136.682861328125,0.07965759187936784,0.10479848831892012,1.000666361505864e-05,-89.5380630493164,9.999999747378752e-06,0.0013078838819637895,51048.90234375,-55021.37890625,75055.59375,-47.144805908203125
42.0,6.275100231170654,55774.50390625,58951.56640625,-58951.56640625,81154.6796875,-46.58626556396484,1.0,1.4288568195297557e-07,0.24389705061912537,8.0,0.997187852859497,0.8119099140167235,-135.9442138671875,0.08023029565811157,0.0976441279053688,1.0004473551816773e-05,-89.35794830322266,9.999999747378752e-06,0.001056118169799447,55774.50390625,-58951.56640625,81154.6796875,-46.58626556396484
43.0,5.013369083404541,60091.39453125,62421.7421875,-62421.7421875,86645.5390625,-46.089702606201165,1.0,1.4793295122217387e-07,0.21781496703624725,8.0,0.9977720379829407,0.866962969303131,-135.30734252929688,0.08198238164186476,0.09344276040792464,1.0005857802752873e-05,-89.21764373779295,9.999999747378752e-06,0.0010092721786350012,60091.39453125,-62421.7421875,86645.5390625,-46.089702606201165
44.0,3.985969305038452,64405.5703125,65931.015625,-65931.015625,92168.1953125,-45.67055130004882,1.0,1.4087471811308205e-07,0.19870939850807187,8.0,0.9981412291526793,0.9220229983329774,-134.77468872070312,0.08627589792013168,0.09246270358562467,1.0003700481320264e-05,-89.1041259765625,9.999999747378752e-06,0.0007694229134358466,64405.5703125,-65931.015625,92168.1953125,-45.67055130004882
45.0,3.1758129596710205,68493.6328125,69527.3359375,-69527.3359375,97598.296875,-45.429107666015625,1.0,1.332516461616251e-07,0.1821482181549072,8.0,0.9986895322799682,0.9765191078186035,-134.43946838378906,0.0922798439860344,0.09338164329528809,1.000549309537746e-05,-89.01035308837889,9.999999747378752e-06,0.0007064023520797491,68493.6328125,-69527.3359375,97598.296875,-45.429107666015625
46.0,2.516103029251098,71626.5859375,73785.6484375,-73785.6484375,102833.3125,-45.85065841674805,1.0,1.2481582700729632e-07,0.1672382354736328,8.0,0.9676162600517274,0.9963374733924864,-178.7233123779297,0.0418168231844902,0.041471011936664574,9.68885979091283e-06,-132.87265014648435,9.999999747378752e-06,0.00026961602270603175,71626.5859375,-73785.6484375,102833.3125,-45.85065841674805
47.0,1.9955300092697144,74481.515625,76021.09375,-76021.09375,106426.984375,-45.58609008789063,1.0,1.2517676850620774e-07,0.14968982338905334,8.0,0.9865927696228028,1.085141897201538,-168.5565185546875,0.06344439834356308,0.05777717009186745,1.0196115908911452e-05,-122.97042846679688,9.999999747378752e-06,0.00032363200443796813,74481.515625,-76021.09375,106426.984375,-45.58609008789063
