# point,freq,zreal,reflected_zimag,zimag,zmod,zphz,zsig,Idc,Vdc,ie_range,gain,vmod,vphz,vsig,vthd,imod,iphz,isig,ithd,zreal_drift,zimag_drift,zmod_drift,zphz_drift
0.0,250019.53125,144.107666015625,-3.2747735977172847,3.2747735977172847,144.14486694335935,1.3017935752868652,1.0,9.090922503673936e-08,0.27082449197769165,8.0,0.3836727142333984,0.0005530444905161858,-30.201993942260746,0.0009302813559770584,1.505205988883972,3.836727046291344e-06,-31.50378608703613,9.999999747378752e-06,0.020981147885322567,144.107666015625,3.2747735977172847,144.14486694335935,1.3017935752868652
1.0,198691.40625,147.46510314941406,11.53400421142578,-11.53400421142578,147.9154815673828,-4.472292423248291,1.0,9.591352068127888e-08,0.4588433802127838,8.0,0.4375745952129364,0.0016869602259248495,-72.18299865722656,0.0003239750221837312,0.07872535288333891,1.1404892575228587e-05,-67.71070861816406,9.999999747378752e-06,0.007274671457707883,147.46510314941406,-11.53400421142578,147.9154815673828,-4.472292423248291
2.0,157792.96875,151.2838592529297,20.618106842041012,-20.618106842041012,152.68238830566406,-7.760886192321777,1.0,5.225697918831429e-08,0.5609184503555298,8.0,0.5056301355361937,0.0017642892198637128,-21.713674545288082,9.999999747378752e-06,0.030938372015953064,1.1555289347597864e-05,-13.952787399291992,9.999999747378752e-06,0.007769463118165731,151.2838592529297,-20.618106842041012,152.68238830566406,-7.760886192321777
3.0,125332.03125,154.71412658691406,34.5261344909668,-34.5261344909668,158.5197601318359,-12.580045700073242,1.0,3.117443014843957e-08,0.5824038982391356,8.0,0.5806601643562317,0.001820423756726086,155.010009765625,0.0001032626678352244,0.05392571538686752,1.1483892194519283e-05,167.59005737304688,9.999999747378752e-06,0.012023595161736012,154.71412658691406,-34.5261344909668,158.5197601318359,-12.580045700073242
4.0,99550.78125,155.61561584472656,49.41259002685546,-49.41259002685546,163.27223205566406,-17.616193771362305,1.0,2.0722583826682242e-07,0.5753510594367981,8.0,0.6441406011581421,0.001811219030059874,154.85606384277344,9.999999747378752e-06,0.024022048339247704,1.1093246030213775e-05,172.4722442626953,9.999999747378752e-06,0.0035782342310994864,155.61561584472656,-49.41259002685546,163.27223205566406,-17.616193771362305
5.0,79160.15625,158.9651641845703,63.688873291015625,-63.688873291015625,171.24893188476562,-21.83334732055664,1.0,2.135185610541157e-07,0.5769200921058655,8.0,0.727846920490265,0.0019350280053913595,5.624725818634033,9.999999747378752e-06,0.11257898807525633,1.1299503967165945e-05,27.458072662353516,9.999999747378752e-06,0.0013249823823571203,158.9651641845703,-63.688873291015625,171.24893188476562,-21.83334732055664
6.0,62871.09375,164.38038635253906,78.90314483642578,-78.90314483642578,182.33654785156247,-25.641164779663082,1.0,2.178605313929438e-07,0.5852669477462769,8.0,0.797698438167572,0.0019983539823442698,100.8493194580078,9.999999747378752e-06,0.014681264758110046,1.0959700375678947e-05,126.49048614501952,9.999999747378752e-06,0.0014419774524867535,164.38038635253906,-78.90314483642578,182.33654785156247,-25.641164779663082
7.0,49980.46875,169.25465393066406,98.43385314941406,-98.43385314941406,195.79673767089844,-30.18110656738281,1.0,2.1718909692935997e-07,0.5882754921913146,8.0,0.8514160513877869,0.002089818473905325,-50.41910171508789,9.999999747378752e-06,0.09652817994356157,1.0673407814465463e-05,-20.23799514770508,9.999999747378752e-06,0.0042609618976712236,169.25465393066406,-98.43385314941406,195.79673767089844,-30.18110656738281
8.0,39667.96875,178.76925659179688,120.71060180664062,-120.71060180664062,215.70697021484372,-34.0284538269043,1.0,2.3982755692486535e-07,0.606139063835144,8.0,0.8927244544029235,0.002261724788695574,147.76353454589844,9.999999747378752e-06,0.045233149081468575,1.0485172424523624e-05,-178.2080078125,9.999999747378752e-06,0.006023311521857977,178.76925659179688,-120.71060180664062,215.70697021484372,-34.0284538269043
9.0,31582.03125,186.1648101806641,142.61984252929688,-142.61984252929688,234.51600646972656,-37.455528259277344,1.0,1.807904794759452e-07,0.6417316198348999,8.0,0.9225149154663086,0.0024234189186245203,176.49462890625,9.999999747378752e-06,0.014730708673596382,1.0333703357900959e-05,-146.0498504638672,9.999999747378752e-06,0.004865195602178574,186.1648101806641,-142.61984252929688,234.51600646972656,-37.455528259277344
10.0,25019.53125,197.188232421875,171.25575256347656,-171.25575256347656,261.1737670898437,-40.973945617675774,1.0,1.7060193613360752e-07,0.6507024168968201,8.0,0.9437149167060851,0.0026717567816376686,-26.609870910644528,9.999999747378752e-06,0.09261082857847212,1.0229806321149226e-05,14.364075660705566,9.999999747378752e-06,0.004584393929690123,197.188232421875,-171.25575256347656,261.1737670898437,-40.973945617675774
11.0,19863.28125,210.59582519531247,205.38728332519528,-205.38728332519528,294.16754150390625,-44.28263473510742,1.0,1.7035262089848402e-07,0.6532455086708069,8.0,0.9561315178871154,0.0029803793877363205,4.6616554260253915,9.168488031718881e-05,0.009604466147720812,1.0131571798410732e-05,48.94429397583008,9.999999747378752e-06,0.0024940180592238903,210.59582519531247,-205.38728332519528,294.16754150390625,-44.28263473510742
12.0,15682.8701171875,225.49743652343753,243.2949676513672,-243.2949676513672,331.72509765625,-47.17417144775391,1.0,1.26361882735182e-07,0.6698556542396545,8.0,0.9676366448402404,0.003357167122885585,-42.09501647949219,0.000317670259391889,0.012570596300065516,1.0120329534402115e-05,5.079152584075928,9.999999747378752e-06,0.002003282308578491,225.49743652343753,-243.2949676513672,331.72509765625,-47.17417144775391
13.0,12597.65625,244.979736328125,287.1388854980469,-287.1388854980469,377.44378662109375,-49.53001403808594,1.0,1.551279495970448e-07,0.6805298328399657,8.0,0.9745361804962158,0.003801350714638829,-100.77625274658205,9.999999747378752e-06,0.003071830375120044,1.0071303222503047e-05,-51.24623870849609,9.999999747378752e-06,0.002123780082911253,244.979736328125,-287.1388854980469,377.44378662109375,-49.53001403808594
14.0,9895.8330078125,267.6990966796875,347.4228515625,-347.4228515625,438.5948486328125,-52.38473892211913,1.0,1.127073758766528e-07,0.6756994128227234,8.0,0.978564202785492,0.004404077306389809,-80.45056915283203,0.00029711960814893246,0.02319888025522232,1.0041332643595524e-05,-28.06583786010742,9.999999747378752e-06,0.0015600366750732064,267.6990966796875,-347.4228515625,438.5948486328125,-52.38473892211913
15.0,7910.15625,295.7919311523437,414.04537963867193,-414.04537963867193,508.84814453125,-54.45817947387695,1.0,1.337068908924266e-07,0.672495663166046,8.0,0.9822487831115722,0.005107641220092773,-83.01142883300781,9.999999747378752e-06,0.0044682323932647705,1.003765282803215e-05,-28.553245544433597,9.999999747378752e-06,0.0017646277556195855,295.7919311523437,-414.04537963867193,508.84814453125,-54.45817947387695
16.0,6307.87060546875,327.4678649902344,488.88305664062494,-488.88305664062494,588.4231567382812,-56.18469238281249,1.0,1.3479890981216158e-07,0.671489953994751,8.0,0.9853111505508423,0.00590257765725255,2.2398009300231934,9.999999747378752e-06,0.007104075979441404,1.0031177225755528e-05,58.42449569702149,9.999999747378752e-06,0.0024003507569432254,327.4678649902344,-488.88305664062494,588.4231567382812,-56.18469238281249
17.0,4973.3232421875,367.2543029785156,583.689208984375,-583.689208984375,689.614990234375,-57.8221092224121,1.0,1.8179703431542293e-07,0.6765478849411011,8.0,0.9587182998657225,0.006710028275847434,-108.3936767578125,9.999999747378752e-06,0.002925689797848463,9.730107194627635e-06,-50.57156753540039,9.999999747378752e-06,0.0007965331315062941,367.2543029785156,-583.689208984375,689.614990234375,-57.8221092224121
18.0,3944.3598632812495,415.9019775390625,689.04541015625,-689.04541015625,804.8341674804686,-58.88517379760742,1.0,1.960434587999771e-07,0.6832441687583923,8.0,0.9765787720680237,0.008198278956115244,2.813791036605835,0.00013067795953247696,0.003044690005481243,1.0186295185121708e-05,61.6989631652832,9.999999747378752e-06,0.0007182309054769576,415.9019775390625,-689.04541015625,804.8341674804686,-58.88517379760742
19.0,3144.054931640625,472.05120849609375,810.2430419921875,-810.2430419921875,937.723876953125,-59.77473068237305,1.0,2.104590350882063e-07,0.6875741481781006,8.0,0.9857468008995056,0.00946527160704136,45.18058395385742,7.405151700368151e-05,0.006485982798039913,1.0093878699990457e-05,104.95531463623045,9.999999747378752e-06,0.0008625682676210998,472.05120849609375,-810.2430419921875,937.723876953125,-59.77473068237305
20.0,2488.426025390625,537.631103515625,901.4886474609376,-901.4886474609376,1049.6328125,-59.18893814086913,1.0,2.3932574322316214e-07,0.745101511478424,8.0,0.9929418563842771,0.010572941973805428,114.71663665771484,0.0008129690540954471,0.06780336052179337,1.0072991244669536e-05,173.90557861328125,9.999999747378752e-06,0.0012242502998560667,537.631103515625,-901.4886474609376,1049.6328125,-59.18893814086913
21.0,1976.6566162109373,603.6244506835938,1013.932373046875,-1013.932373046875,1180.009033203125,-59.2333869934082,1.0,1.913958556087892e-07,0.7804553508758546,8.0,0.9954869151115416,0.011830335482954977,-171.3854827880859,9.999999747378752e-06,0.0037305180449038735,1.0025631127064116e-05,-112.152099609375,9.999999747378752e-06,0.0009901601588353515,603.6244506835938,-1013.932373046875,1180.009033203125,-59.2333869934082
22.0,1582.03125,675.8475952148438,1137.2698974609375,-1137.2698974609375,1322.9334716796875,-59.27817535400391,1.0,1.5985409618224367e-07,0.8090518712997437,8.0,0.9981819987297058,0.013265150599181652,73.46861267089844,9.999999747378752e-06,0.004148496314883232,1.0027073585661128e-05,132.74679565429688,9.999999747378752e-06,0.0009567118249833584,675.8475952148438,-1137.2698974609375,1322.9334716796875,-59.27817535400391
23.0,1253.6336669921875,771.594970703125,1337.837646484375,-1337.837646484375,1544.3990478515625,-60.025894165039055,1.0,1.642165727844258e-07,0.8105085492134094,8.0,1.0002273321151731,0.015475635416805744,104.369384765625,0.000203422037884593,0.005168939474970102,1.0020489753514992e-05,164.39527893066406,9.999999747378752e-06,0.0012895863037556408,771.594970703125,-1337.837646484375,1544.3990478515625,-60.025894165039055
24.0,996.09375,881.405517578125,1570.2939453125,-1570.2939453125,1800.74951171875,-60.69451522827149,1.0,1.7793982465263983e-07,0.8118678331375122,8.0,1.0012295246124268,0.018025539815425873,-57.32302474975586,9.999999747378752e-06,0.007741914596408605,1.0010020560002884e-05,3.371490716934204,9.999999747378752e-06,0.0013745883479714391,881.405517578125,-1570.2939453125,1800.74951171875,-60.69451522827149
25.0,790.028076171875,1004.7088623046876,1835.3258056640625,-1835.3258056640625,2092.333740234375,-61.30246353149414,1.0,1.863389229583845e-07,0.8173149824142456,8.0,1.0010242462158203,0.02091904915869236,-175.65757751464844,0.0006039705476723611,0.008338375017046928,9.997949746320957e-06,-114.35511779785156,9.999999747378752e-06,0.0013890325790271163,1004.7088623046876,-1835.3258056640625,2092.333740234375,-61.30246353149414
26.0,628.8109741210938,1144.4483642578125,2130.85986328125,-2130.85986328125,2418.74462890625,-61.76051712036133,1.0,2.5909932332979224e-07,0.8252815008163453,8.0,1.001672625541687,0.024203114211559292,39.20833587646484,9.999999747378752e-06,0.010714097879827023,1.0006477168644778e-05,100.9688491821289,9.999999747378752e-06,0.0015442934818565843,1144.4483642578125,-2130.85986328125,2418.74462890625,-61.76051712036133
35.0,78.78150939941406,3993.979248046875,9039.390625,-9039.390625,9882.431640625,-66.16216278076172,1.0,1.5509358775034346e-07,0.8772204518318176,8.0,0.9943940043449402,0.09886646270751952,-160.787841796875,0.00647295406088233,0.06374143809080124,1.0004265277530067e-05,-94.62567901611328,9.999999747378752e-06,0.0006150818662717937,3993.979248046875,-9039.390625,9882.431640625,-66.16216278076172
36.0,62.919464111328125,4761.62939453125,10864.513671875,-10864.513671875,11862.1572265625,-66.33343505859375,1.0,1.6884489184576526e-07,0.8676759600639342,8.0,0.9939675927162169,0.1185707002878189,-159.45062255859375,0.009113112464547156,0.07486382871866226,9.99571147985989e-06,-93.11719512939453,9.999999747378752e-06,0.0009571384289301933,4761.62939453125,-10864.513671875,11862.1572265625,-66.33343505859375
37.0,49.86701965332031,5654.46240234375,13048.4970703125,-13048.4970703125,14220.978515625,-66.57089233398438,1.0,1.8006406321546822e-07,0.8596905469894409,8.0,0.994838297367096,0.14233435690402985,-159.9025421142578,0.012558523565530775,0.08702111989259718,1.0008760000346228e-05,-93.33165740966797,9.999999747378752e-06,0.000979514210484922,5654.46240234375,-13048.4970703125,14220.978515625,-66.57089233398438
38.0,39.72457504272461,6739.34765625,15540.9365234375,-15540.9365234375,16939.2890625,-66.55597686767578,1.0,2.136550136810911e-07,0.852610945701599,8.0,0.9946885108947754,0.16936740279197693,-158.9404754638672,0.017228061333298683,0.10045702755451202,9.998494533647316e-06,-92.38449859619139,9.999999747378752e-06,0.0012361888075247407,6739.34765625,-15540.9365234375,16939.2890625,-66.55597686767578
39.0,31.459732055664062,7922.930664062499,18187.474609375,-18187.474609375,19838.2734375,-66.46082305908203,1.0,2.2214766204342598e-07,0.8575564622879027,8.0,0.9953543543815613,0.19851553440093997,-158.07763671875,0.023239038884639737,0.1155739203095436,1.00066936283838e-05,-91.6168212890625,9.999999747378752e-06,0.0011255361605435608,7922.930664062499,-18187.474609375,19838.2734375,-66.46082305908203
40.0,24.93350982666016,9543.412109375,21515.5703125,-21515.5703125,23537.12890625,-66.07991790771484,1.0,1.9708411969077133e-07,0.850703775882721,8.0,0.9956086874008178,0.23543143272399905,-157.1187744140625,0.03152018412947655,0.13221125304698944,1.0002555427490732e-05,-91.03885650634764,9.999999747378752e-06,0.001333746127784252,9543.412109375,-21515.5703125,23537.12890625,-66.07991790771484
41.0,19.862287521362305,11370.822265625,25348.20703125,-25348.20703125,27781.77734375,-65.8397216796875,1.0,2.1423818452603882e-07,0.8392016291618347,8.0,0.9957706332206726,0.2778629958629608,-156.3664398193359,0.041284799575805664,0.1467714160680771,1.0001626833400223e-05,-90.52671813964845,9.999999747378752e-06,0.0015526865608990192,11370.822265625,-25348.20703125,27781.77734375,-65.8397216796875
42.0,15.782828330993652,13637.359375,29603.88671875,-29603.88671875,32593.98046875,-65.26631927490233,1.0,1.8943592294817793e-07,0.8277856707572938,8.0,0.9959754943847656,0.32600688934326166,-155.4429931640625,0.05348405614495277,0.1620654463768005,1.0002057024394162e-05,-90.17668151855469,9.999999747378752e-06,0.0015901637962087989,13637.359375,-29603.88671875,32593.98046875,-65.26631927490233
43.0,12.466754913330078,16612.42578125,34904.81640625,-34904.81640625,38656.421875,-64.548583984375,1.0,1.7048670031272198e-07,0.7986948490142822,8.0,0.9964960217475891,0.3867662250995636,-154.3926544189453,0.06776627898216248,0.17311929166316986,1.000522661342984e-05,-89.8440704345703,9.999999747378752e-06,0.0011802817462012172,16612.42578125,-34904.81640625,38656.421875,-64.548583984375
44.0,9.973403930664062,19808.8828125,40079.05078125,-40079.05078125,44707.0703125,-63.6993293762207,1.0,1.7679661823422066e-07,0.7713356018066406,8.0,0.9967564940452576,0.44718751311302185,-153.3050537109375,0.08104926347732544,0.17908655107021332,1.0002613635151649e-05,-89.60572814941406,9.999999747378752e-06,0.0016073808073997495,19808.8828125,-40079.05078125,44707.0703125,-63.6993293762207
45.0,7.878151416778564,22935.5390625,44531.59375,-44531.59375,50090.9375,-62.749732971191406,1.0,1.9084258440216217e-07,0.7710596919059753,8.0,0.9975042939186096,0.501285195350647,-152.18980407714844,0.09549209475517273,0.18824388086795807,1.0007502169173677e-05,-89.4400634765625,9.999999747378752e-06,0.0011970786144956946,22935.5390625,-44531.59375,50090.9375,-62.749732971191406
46.0,6.275100231170654,27030.029296875,49536.75,-49536.75,56431.48046875,-61.38064193725586,1.0,2.0144838686064761e-07,0.7413387298583984,8.0,0.9976944327354432,0.5644223690032959,-150.65390014648435,0.10634471476078032,0.18618471920490265,1.0001906048273668e-05,-89.27325439453125,9.999999747378752e-06,0.0013114636531099675,27030.029296875,-49536.75,56431.48046875,-61.38064193725586
47.0,5.013369083404541,31237.494140625,54343.48046875,-54343.48046875,62681.6953125,-60.10902404785156,1.0,1.3700677925498894e-07,0.7081202268600464,8.0,0.9980541467666626,0.6270430088043213,-149.26283264160156,0.11464682966470718,0.18067786097526553,1.000360589387128e-05,-89.15380096435545,9.999999747378752e-06,0.0010262047871947289,31237.494140625,-54343.48046875,62681.6953125,-60.10902404785156
48.0,3.939075708389282,36462.3359375,59703.25,-59703.25,69956.984375,-58.58649444580078,1.0,1.6943626235388365e-07,0.6568136215209961,8.0,0.9978125095367432,0.6994004845619202,-147.59017944335935,0.12110423296689989,0.17109890282154083,9.997578672482632e-06,-89.00369262695312,9.999999747378752e-06,0.001056596520356834,36462.3359375,-59703.25,69956.984375,-58.58649444580078
49.0,3.137550115585327,41233.0546875,64964.625,-64964.625,76945.2265625,-57.59669876098633,1.0,1.7906094740283154e-07,0.6035380363464355,8.0,0.9986470341682434,0.7700957655906677,-146.55059814453125,0.1267387419939041,0.16263072192668915,1.0008363460656255e-05,-88.95390319824217,9.999999747378752e-06,0.0008471651817671954,41233.0546875,-64964.625,76945.2265625,-57.59669876098633
50.0,2.485418796539306,45444.21484375,70532.8671875,-70532.8671875,83905.078125,-57.20637893676758,1.0,1.5902928396371863e-07,0.5549483299255371,8.0,0.9683787226676942,0.8136197328567504,170.52857971191406,0.0826878622174263,0.10042060166597366,9.696907000034115e-06,-132.26502990722656,9.999999747378752e-06,0.0006333487690426409,45444.21484375,-70532.8671875,83905.078125,-57.20637893676758
51.0,1.9955300092697144,49564.74609375,74400.7265625,-74400.7265625,89398.7265625,-56.3289909362793,1.0,1.9066112599830373e-07,0.5022228956222534,8.0,0.9866088032722472,0.9108168482780457,-179.2819061279297,0.10561046749353407,0.1145780012011528,1.0188253327214625e-05,-122.95292663574217,9.999999747378752e-06,0.0003610916610341519,49564.74609375,-74400.7265625,89398.7265625,-56.3289909362793
52.0,1.5836148262023924,55510.44140625,81089.4921875,-81089.4921875,98269.6015625,-55.60610580444336,1.0,1.920268886124177e-07,0.4105379283428192,8.0,0.9942486882209776,0.9903056621551511,-171.037353515625,0.11072120070457458,0.1104854792356491,1.0077435945277102e-05,-115.43123626708984,9.999999747378752e-06,0.0004458142793737352,55510.44140625,-81089.4921875,98269.6015625,-55.60610580444336
53.0,1.258051514625549,60845.78125,85184.1953125,-85184.1953125,104683.125,-54.462356567382805,1.0,1.9032508191685338e-07,0.37364006042480474,8.0,0.9977883100509645,1.0505579710006712,-164.1406707763672,0.12742388248443604,0.11985814571380617,1.0035601007984953e-05,-109.6783218383789,9.999999747378752e-06,0.0006038657738827169,60845.78125,-85184.1953125,104683.125,-54.462356567382805
54.0,0.9977650046348573,67320.875,87998.828125,-87998.828125,110796.6328125,-52.583282470703125,1.0,1.8574247917513278e-07,0.3341202735900879,8.0,0.9983627796173096,1.108604311943054,-157.78717041015625,0.14620664715766907,0.13032527267932892,1.0005757758335676e-05,-105.20387268066406,9.999999747378752e-06,0.00048374012112617487,67320.875,-87998.828125,110796.6328125,-52.583282470703125
