# point,freq,zreal,reflected_zimag,zimag,zmod,zphz,zsig,Idc,Vdc,ie_range,gain,vmod,vphz,vsig,vthd,imod,iphz,isig,ithd,zreal_drift,zimag_drift,zmod_drift,zphz_drift
0.0,250019.53125,141.8063812255859,8.439300537109375,-8.439300537109375,142.05728149414062,-3.4058175086975098,1.0,1.1826979573470453e-07,0.26543450355529785,8.0,0.3824021518230438,0.0005432301550172268,-131.6125335693359,0.000774670101236552,1.1117886304855347,3.824021405307576e-06,-128.2067108154297,9.999999747378752e-06,0.025552738457918167,141.8063812255859,-8.439300537109375,142.05728149414062,-3.4058175086975098
1.0,198691.40625,146.97567749023435,11.38837432861328,-11.38837432861328,147.41622924804688,-4.430696487426758,1.0,1.7945015429177147e-07,0.4773840308189392,8.0,0.43844830989837646,0.0016902205534279346,-37.43724822998047,0.0008079456165432931,0.14711496233940125,1.1465634088381192e-05,-33.00654983520508,9.999999747378752e-06,0.008185580372810364,146.97567749023435,-11.38837432861328,147.41622924804688,-4.430696487426758
2.0,157792.96875,150.9757843017578,21.698244094848633,-21.698244094848633,152.5270538330078,-8.178546905517578,1.0,1.9348662760876323e-07,0.5920247435569763,8.0,0.5086268782615662,0.001769407303072512,162.42344665527344,0.0004491942236199975,0.05581706389784813,1.1600612197071312e-05,170.6019744873047,9.999999747378752e-06,0.0064117261208593845,150.9757843017578,-21.698244094848633,152.5270538330078,-8.178546905517578
3.0,125332.03125,144.01531982421875,33.419925689697266,-33.419925689697266,147.84214782714844,-13.064711570739746,1.0,1.5299124811463116e-07,0.6028810739517212,8.0,0.5866217613220215,0.00170512858312577,140.7942352294922,0.0006307227304205297,0.14574947953224182,1.153343964688247e-05,153.8589630126953,9.999999747378752e-06,0.014515785500407217,144.01531982421875,-33.419925689697266,147.84214782714844,-13.064711570739746
4.0,99550.78125,149.88575744628906,45.18617248535156,-45.18617248535156,156.5488128662109,-16.776521682739254,1.0,2.9553939384641126e-07,0.6181540489196777,8.0,0.6471924185752869,0.0017271300312131643,162.92926025390625,0.0003964431816712022,0.03826788067817688,1.1032533620891625e-05,179.70578002929688,9.999999747378752e-06,0.002552014542743564,149.88575744628906,-45.18617248535156,156.5488128662109,-16.776521682739254
5.0,79160.15625,153.52944946289062,60.200508117675774,-60.200508117675774,164.91026306152344,-21.410667419433597,1.0,3.115416120635928e-07,0.6392056941986084,8.0,0.7307121157646179,0.0018619180191308256,-53.582950592041016,9.999999747378752e-06,0.2577811181545257,1.129049269366078e-05,-32.17228317260742,9.999999747378752e-06,0.0026634174864739175,153.52944946289062,-60.200508117675774,164.91026306152344,-21.410667419433597
6.0,62871.09375,161.17002868652344,71.43157196044922,-71.43157196044922,176.2902374267578,-23.903223037719727,1.0,2.93543735097046e-07,0.659471869468689,8.0,0.800797164440155,0.001931988401338458,173.24606323242188,9.999999747378752e-06,0.030524361878633496,1.0959133760479745e-05,-162.85069274902344,9.999999747378752e-06,0.003227422945201397,161.17002868652344,-71.43157196044922,176.2902374267578,-23.903223037719727
7.0,49980.46875,165.2613983154297,87.86145782470702,-87.86145782470702,187.16560363769528,-27.997407913208008,1.0,2.8143085728515876e-07,0.6648237705230713,8.0,0.8554789423942566,0.0019994606263935566,-115.9407958984375,9.999999747378752e-06,0.14655494689941406,1.0682842003006952e-05,-87.94338226318358,9.999999747378752e-06,0.005560205783694983,165.2613983154297,-87.86145782470702,187.16560363769528,-27.997407913208008
8.0,39667.96875,171.93142700195312,107.61849975585936,-107.61849975585936,202.83529663085935,-32.04403305053711,1.0,2.8123085371589696e-07,0.6613497734069824,8.0,0.8966764211654662,0.002126032719388604,-120.4208984375,9.999999747378752e-06,0.029483715072274208,1.0481571734999306e-05,-88.3768539428711,9.999999747378752e-06,0.0055944076739251605,171.93142700195312,-107.61849975585936,202.83529663085935,-32.04403305053711
9.0,31582.03125,181.42123413085935,126.8915328979492,-126.8915328979492,221.3936004638672,-34.97011184692383,1.0,2.797253841890779e-07,0.6620869040489197,8.0,0.9265962839126587,0.002287809271365404,41.57879257202149,9.999999747378752e-06,0.020263945683836937,1.0333675163565204e-05,76.54891204833984,9.999999747378752e-06,0.005256356205791234,181.42123413085935,-126.8915328979492,221.3936004638672,-34.97011184692383
10.0,25019.53125,192.2286071777344,154.0800628662109,-154.0800628662109,246.35847473144528,-38.71377944946289,1.0,2.9941986667836323e-07,0.6656302213668823,8.0,0.9467689394950866,0.0025172189343720675,79.31550598144531,9.999999747378752e-06,0.11387877166271208,1.021770731313154e-05,118.0292739868164,9.999999747378752e-06,0.007618122734129427,192.2286071777344,-154.0800628662109,246.35847473144528,-38.71377944946289
11.0,19863.28125,204.5261993408203,184.96714782714844,-184.96714782714844,275.76043701171875,-42.12521362304688,1.0,2.69890080062396e-07,0.6675782799720764,8.0,0.961544156074524,0.002800639253109693,139.44580078125,9.999999747378752e-06,0.017505183815956116,1.0156059033761267e-05,-178.4290008544922,9.999999747378752e-06,0.0026126047596335407,204.5261993408203,-184.96714782714844,275.76043701171875,-42.12521362304688
12.0,15682.8701171875,222.3023376464844,219.6981506347656,-219.6981506347656,312.5469665527344,-44.66242599487305,1.0,2.3963852413544373e-07,0.6704564094543457,8.0,0.970773994922638,0.0031554710585623975,62.726558685302734,0.0003445811744313687,0.01440785638988018,1.009598963719327e-05,107.38898468017578,9.999999747378752e-06,0.003840487217530608,222.3023376464844,-219.6981506347656,312.5469665527344,-44.66242599487305
13.0,12597.65625,246.98284912109372,260.182861328125,-260.182861328125,358.74176025390625,-46.49090194702149,1.0,3.2090514423543937e-07,0.683244526386261,8.0,0.9697076678276062,0.003583477111533284,-18.469629287719727,9.999999747378752e-06,0.019773248583078384,9.989015779865442e-06,28.021270751953125,9.999999747378752e-06,0.0041182683780789375,246.98284912109372,-260.182861328125,358.74176025390625,-46.49090194702149
14.0,9895.8330078125,265.6596069335937,301.2757263183594,-301.2757263183594,401.6741027832031,-48.594722747802734,1.0,2.3177059915724385e-07,0.6905826926231384,8.0,0.98227322101593,0.004068790003657341,-57.27742004394531,9.999999747378752e-06,0.07198146730661392,1.0129580914508551e-05,-8.682697296142578,9.999999747378752e-06,0.00319967488758266,265.6596069335937,-301.2757263183594,401.6741027832031,-48.594722747802734
15.0,7910.15625,287.5135803222656,356.90191650390625,-356.90191650390625,458.3045043945313,-51.14572525024414,1.0,2.7521323886503524e-07,0.6918990612030029,8.0,0.9855356812477114,0.004598266910761595,-37.99825668334961,9.999999747378752e-06,0.009864152409136295,1.0033213584392796e-05,13.147469520568848,9.999999747378752e-06,0.002607194473966956,287.5135803222656,-356.90191650390625,458.3045043945313,-51.14572525024414
16.0,6307.87060546875,321.5277709960937,419.7335815429688,-419.7335815429688,528.7308959960938,-52.54686737060546,1.0,2.3008763605503193e-07,0.6932132840156555,8.0,0.9893308281898497,0.005307669751346111,22.33492660522461,0.00010912328434642404,0.004976826719939709,1.003850866254652e-05,74.88179779052734,9.999999747378752e-06,0.002184051554650068,321.5277709960937,-419.7335815429688,528.7308959960938,-52.54686737060546
17.0,4973.3232421875,357.56524658203125,495.2979431152344,-495.2979431152344,610.8788452148438,-54.17374801635742,1.0,2.6537102826296177e-07,0.7001405954360962,8.0,0.9620835185050963,0.005940545350313187,-75.80065155029295,9.999999747378752e-06,0.0062136142514646045,9.724588380777277e-06,-21.626901626586918,9.999999747378752e-06,0.0008178851567208768,357.56524658203125,-495.2979431152344,610.8788452148438,-54.17374801635742
18.0,3944.3598632812495,401.5865783691406,577.2098388671875,-577.2098388671875,703.1663818359375,-55.17221450805664,1.0,2.364717488489987e-07,0.7057396769523621,8.0,0.9821988344192506,0.007178682368248701,24.640840530395508,9.999999747378752e-06,0.0031966029200702906,1.0209080755885225e-05,79.81305694580078,9.999999747378752e-06,0.0009435656247660516,401.5865783691406,-577.2098388671875,703.1663818359375,-55.17221450805664
19.0,3144.054931640625,452.3025512695313,672.0272827148438,-672.0272827148438,810.0606689453125,-56.05779266357422,1.0,2.3140364646678793e-07,0.7105645537376404,8.0,0.9892005324363708,0.008158352226018906,66.73078155517578,0.00026088513550348574,0.033177826553583145,1.0071285942103712e-05,122.78858184814452,9.999999747378752e-06,0.0010094364406540988,452.3025512695313,-672.0272827148438,810.0606689453125,-56.05779266357422
20.0,2488.426025390625,511.6363220214844,782.7430419921875,-782.7430419921875,935.1248168945312,-56.829551696777344,1.0,2.2129538024273643e-07,0.717330813407898,8.0,0.9948149323463441,0.009404322132468224,125.6635971069336,0.0001817577285692096,0.032160073518753045,1.0056756764242891e-05,-177.50685119628906,9.999999747378752e-06,0.0010102797532454133,511.6363220214844,-782.7430419921875,935.1248168945312,-56.829551696777344
21.0,1976.6566162109373,580.8329467773438,911.3675537109376,-911.3675537109376,1080.720947265625,-57.48981857299805,1.0,2.218935009068446e-07,0.7219811677932739,8.0,0.9968960881233216,0.010829818435013294,-159.9758148193359,9.999999747378752e-06,0.00300208292901516,1.0020919944508933e-05,-102.48600769042967,9.999999747378752e-06,0.0009522372856736184,580.8329467773438,-911.3675537109376,1080.720947265625,-57.48981857299805
22.0,1582.03125,658.6170654296875,1058.7296142578125,-1058.7296142578125,1246.8699951171875,-58.11498641967773,1.0,2.1721216114656275e-07,0.7246195077896118,8.0,0.9986423254013059,0.012490540742874144,77.85997009277342,9.999999747378752e-06,0.004733034409582615,1.0017516615334898e-05,135.97496032714844,9.999999747378752e-06,0.0012944608461111784,658.6170654296875,-1058.7296142578125,1246.8699951171875,-58.11498641967773
23.0,1253.6336669921875,750.292724609375,1233.36865234375,-1233.36865234375,1443.6541748046875,-58.68667984008789,1.0,2.177306726025563e-07,0.7300155758857726,8.0,0.9998072981834413,0.014453384093940258,111.18707275390624,6.90533997840248e-05,0.005285926628857851,1.0011665835918391e-05,169.8737640380859,9.999999747378752e-06,0.0017009475268423555,750.292724609375,-1233.36865234375,1443.6541748046875,-58.68667984008789
24.0,996.09375,858.3972778320312,1437.980224609375,-1437.980224609375,1674.703857421875,-59.16505813598633,1.0,1.968897294091221e-07,0.7315009832382202,8.0,1.001622200012207,0.016777440905570984,-50.57677459716797,0.00025652197655290365,0.00710344361141324,1.0018152352131436e-05,8.588284492492676,9.999999747378752e-06,0.0014218349242582915,858.3972778320312,-1437.980224609375,1674.703857421875,-59.16505813598633
25.0,790.028076171875,977.7999877929688,1672.4847412109375,-1672.4847412109375,1937.3430175781248,-59.687774658203125,1.0,1.922729637726661e-07,0.7378020882606505,8.0,1.0024248361587524,0.019388955086469647,-171.1354522705078,0.0005172670935280621,0.007970133796334265,1.0008013305196071e-05,-111.44766998291016,9.999999747378752e-06,0.001757865073159337,977.7999877929688,-1672.4847412109375,1937.3430175781248,-59.687774658203125
26.0,628.8109741210938,1119.6461181640625,1952.2764892578125,-1952.2764892578125,2250.553466796875,-60.16539001464844,1.0,2.0591475902165257e-07,0.7405332326889038,8.0,1.0043013095855713,0.022547662258148197,43.00545883178711,0.000621384650003165,0.009456061758100985,1.0018718967330642e-05,103.17084503173828,9.999999747378752e-06,0.0016196155920624733,1119.6461181640625,-1952.2764892578125,2250.553466796875,-60.16539001464844
27.0,496.3235168457031,1174.69287109375,2336.876953125,-2336.876953125,2615.510986328125,-63.31240463256836,1.0,1.669096150180849e-07,0.7343027591705321,8.0,0.975027918815613,0.025392740964889526,74.20579528808594,0.0005568333435803652,0.007045455742627382,9.708520337881055e-06,137.51820373535156,9.999999747378752e-06,0.0004811702528968453,1174.69287109375,-2336.876953125,2615.510986328125,-63.31240463256836
28.0,395.3313293457031,1342.705810546875,2659.650390625,-2659.650390625,2979.362060546875,-63.213394165039055,1.0,1.9311693222334725e-07,0.7535770535469054,8.0,0.9947879910469056,0.03039742261171341,37.339946746826165,0.000394874339690432,0.01179341971874237,1.0202661542280111e-05,100.5533447265625,9.999999747378752e-06,0.0004658351244870573,1342.705810546875,-2659.650390625,2979.362060546875,-63.213394165039055
29.0,315.5048217773437,1538.3309326171875,3060.099365234375,-3060.099365234375,3425.006591796875,-63.31103897094727,1.0,2.156014744514323e-07,0.7664195895195006,8.0,1.0017225742340088,0.03448881581425667,163.81561279296875,0.00087031937437132,0.016769204288721085,1.006970887829084e-05,-132.8733367919922,9.999999747378752e-06,0.000714257184881717,1538.3309326171875,-3060.099365234375,3425.006591796875,-63.31103897094727
30.0,249.33511352539065,1763.1080322265625,3506.343994140625,-3506.343994140625,3924.665283203125,-63.305206298828125,1.0,1.746042386230329e-07,0.782408833503723,8.0,1.0047029256820679,0.039363425225019455,29.50492477416992,0.0008521172567270696,0.019591812044382092,1.0029752957052551e-05,92.81013488769533,9.999999747378752e-06,0.0011907670414075255,1763.1080322265625,-3506.343994140625,3924.665283203125,-63.305206298828125
31.0,198.6228790283203,2011.50634765625,4044.8779296875,-4044.8779296875,4517.43212890625,-63.55897521972656,1.0,1.710631352125347e-07,0.7938683629035949,8.0,1.0046393871307373,0.04517146572470665,14.421152114868164,0.0011597065022215247,0.023835055530071255,9.999366739066316e-06,77.98011779785155,9.999999747378752e-06,0.0010122640524059534,2011.50634765625,-4044.8779296875,4517.43212890625,-63.55897521972656
32.0,158.005615234375,2385.69970703125,4855.66357421875,-4855.66357421875,5410.0859375,-63.83404541015625,1.0,2.0388308996643903e-07,0.7838047742843629,8.0,1.0005613565444946,0.05388125404715537,72.05998229980467,0.0015844707377254963,0.02821049652993679,9.959408089343922e-06,135.8940277099609,9.999999747378752e-06,0.001233835006132722,2385.69970703125,-4855.66357421875,5410.0859375,-63.83404541015625
33.0,125.5580368041992,2743.34228515625,5689.30712890625,-5689.30712890625,6316.18115234375,-64.2569808959961,1.0,2.1560836671596922e-07,0.7877454757690429,8.0,0.9889293909072878,0.06242752820253372,-163.27163696289062,0.002020092215389013,0.03380631655454636,9.883746315608732e-06,-99.0146484375,9.999999747378752e-06,0.001206643064506352,2743.34228515625,-5689.30712890625,6316.18115234375,-64.2569808959961
34.0,99.73403930664062,3049.106689453125,6188.068359375,-6188.068359375,6898.49560546875,-63.76870346069336,1.0,1.8610100482874256e-07,0.8342633247375488,8.0,0.9951938986778259,0.06942194700241089,-160.35153198242188,0.003057475667446852,0.0423184409737587,1.0063346053357236e-05,-96.58282470703124,9.999999747378752e-06,0.0006941801402717829,3049.106689453125,-6188.068359375,6898.49560546875,-63.76870346069336
35.0,78.78150939941406,3534.385009765625,7267.28369140625,-7267.28369140625,8081.168945312499,-64.06439971923828,1.0,1.597230578909148e-07,0.8408293724060057,8.0,0.9952288866043091,0.08081453293561934,-158.66488647460935,0.00402780482545495,0.04867152124643326,1.0000351721828336e-05,-94.60049438476561,9.999999747378752e-06,0.001014249981380999,3534.385009765625,-7267.28369140625,8081.168945312499,-64.06439971923828
36.0,62.919464111328125,4028.341796875,8433.8564453125,-8433.8564453125,9346.521484375,-64.46902465820312,1.0,1.8535050116952334e-07,0.8495733141899107,8.0,0.995712399482727,0.09351062774658205,-157.59625244140625,0.005396140739321709,0.055860668420791626,1.0004858268075623e-05,-93.12722778320312,9.999999747378752e-06,0.0007425123476423323,4028.341796875,-8433.8564453125,9346.521484375,-64.46902465820312
37.0,49.86701965332031,4664.09375,9798.8115234375,-9798.8115234375,10852.2109375,-64.54622650146484,1.0,1.922398524811797e-07,0.8621931672096252,8.0,0.9959425926208496,0.10854719579219818,-157.8544921875,0.0071842088364064685,0.06516627967357635,1.0002311682910658e-05,-93.30827331542967,9.999999747378752e-06,0.0006293361075222492,4664.09375,-9798.8115234375,10852.2109375,-64.54622650146484
38.0,39.72457504272461,5452.3115234375,11560.2431640625,-11560.2431640625,12781.5068359375,-64.74940490722656,1.0,1.6085895993001034e-07,0.8626576662063599,8.0,0.9964029788970947,0.12787415087223053,-157.12353515625,0.00974317453801632,0.07518099993467331,1.0004622708947863e-05,-92.37412261962889,9.999999747378752e-06,0.0007111505256034434,5452.3115234375,-11560.2431640625,12781.5068359375,-64.74940490722656
39.0,31.459732055664062,6397.83984375,13701.064453125,-13701.064453125,15121.2275390625,-64.9693374633789,1.0,1.5169993616837019e-07,0.8622578382492065,8.0,0.9963371753692627,0.15120229125022888,-156.57083129882812,0.013151590712368488,0.08576273918151854,9.999339454225264e-06,-91.60150146484376,9.999999747378752e-06,0.0010448688408359883,6397.83984375,-13701.064453125,15121.2275390625,-64.9693374633789
40.0,24.93350982666016,7498.93408203125,16038.6171875,-16038.6171875,17705.119140625,-64.94132995605469,1.0,1.6928798629578526e-07,0.8677700161933899,8.0,0.9967376589775084,0.17712236940860748,-155.92906188964844,0.01787867583334446,0.09963458776474,1.0004019713960588e-05,-90.98773193359376,9.999999747378752e-06,0.0008905088179744781,7498.93408203125,-16038.6171875,17705.119140625,-64.94132995605469
41.0,19.862287521362305,8768.220703125,18711.15625,-18711.15625,20663.712890625,-64.89177703857422,1.0,1.557042565991651e-07,0.8720774054527282,8.0,0.9970359802246093,0.2066989839076996,-155.4031219482422,0.02391391433775425,0.11429806053638458,1.0002992894442286e-05,-90.51132965087889,9.999999747378752e-06,0.0006937065627425909,8768.220703125,-18711.15625,20663.712890625,-64.89177703857422
42.0,15.782828330993652,10447.892578125,22152.638671875,-22152.638671875,24492.8125,-64.74993133544922,1.0,1.5744845427434484e-07,0.8650350570678712,8.0,0.9972856044769288,0.24498943984508517,-154.89163208007812,0.03228653594851494,0.1301743984222412,1.0002503586292733e-05,-90.14169311523438,9.999999747378752e-06,0.0008843020768836141,10447.892578125,-22152.638671875,24492.8125,-64.74993133544922
43.0,12.466754913330078,12817.669921875,26984.931640625,-26984.931640625,29874.390625,-64.59258270263672,1.0,1.7245709216240357e-07,0.8346768617630003,8.0,0.9973700046539306,0.29876917600631714,-154.42103576660156,0.04432455822825432,0.14656411111354828,1.0000846486946102e-05,-89.8284454345703,9.999999747378752e-06,0.0010087923146784303,12817.669921875,-26984.931640625,29874.390625,-64.59258270263672
44.0,9.973403930664062,15551.396484375,32245.111328125,-32245.111328125,35799.34375,-64.25259399414062,1.0,1.7978422306441646e-07,0.8029891252517699,8.0,0.9971255064010621,0.35790571570396423,-153.8463134765625,0.05804043635725975,0.16021414101123807,9.997548659157472e-06,-89.59371185302734,9.999999747378752e-06,0.001072799670509994,15551.396484375,-32245.111328125,35799.34375,-64.25259399414062
45.0,7.878151416778564,18743.291015625,37886.84765625,-37886.84765625,42269.66015625,-63.67758941650391,1.0,1.7544023478421877e-07,0.7796918749809265,8.0,0.997739553451538,0.42295688390731806,-153.0827178955078,0.0742613598704338,0.1734740436077118,1.0006157936004456e-05,-89.4051284790039,9.999999747378752e-06,0.0009590373956598339,18743.291015625,-37886.84765625,42269.66015625,-63.67758941650391
46.0,6.275100231170654,22603.861328125,44062.046875,-44062.046875,49521.69921875,-62.84214782714844,1.0,1.7843731825450962e-07,0.7424593567848204,8.0,0.9978005886077882,0.49524730443954473,-152.08961486816406,0.0897577553987503,0.17908281087875366,1.0000611837313045e-05,-89.2474594116211,9.999999747378752e-06,0.0009321733377873896,22603.861328125,-44062.046875,49521.69921875,-62.84214782714844
