# point,freq,zreal,reflected_zimag,zimag,zmod,zphz,zsig,Idc,Vdc,ie_range,gain,vmod,vphz,vsig,vthd,imod,iphz,isig,ithd,zreal_drift,zimag_drift,zmod_drift,zphz_drift
0.0,250019.53125,146.70352172851562,0.9218272566795347,-0.9218272566795347,146.7064208984375,-0.36001941561698914,1.0,1.0483573475994489e-07,0.29176616668701166,8.0,0.3866257071495056,0.0005672047263942659,-132.71807861328125,0.0011191623052582145,1.7565425634384155,3.866256975015857e-06,-132.35806274414062,9.999999747378752e-06,0.03350307792425156,146.70352172851562,-0.9218272566795347,146.7064208984375,-0.36001941561698914
1.0,198691.40625,132.9535980224609,0.9584854841232301,-0.9584854841232301,132.95704650878906,-0.4130480289459229,1.0,8.747214508275648e-08,0.5002752542495728,8.0,0.44159567356109614,0.0015186074888333678,136.209228515625,0.0003142050991300493,0.15935435891151428,1.1421788258303422e-05,136.62228393554688,9.999999747378752e-06,0.012924106791615486,132.9535980224609,-0.9584854841232301,132.95704650878906,-0.4130480289459229
2.0,157792.96875,149.8031463623047,16.33393669128418,-16.33393669128418,150.69100952148435,-6.222720146179199,1.0,1.1600535287925597e-07,0.628787338733673,8.0,0.5067710876464844,0.0017293159617111087,60.04373550415039,9.999999747378752e-06,0.021990068256855008,1.1475906831037719e-05,66.26646423339844,9.999999747378752e-06,0.007803854066878557,149.8031463623047,-16.33393669128418,150.69100952148435,-6.222720146179199
3.0,125332.03125,149.28395080566406,26.44982147216797,-26.44982147216797,151.6090087890625,-10.047279357910156,1.0,1.1359885121464684e-07,0.6277549266815186,8.0,0.58439964056015,0.00174832867924124,92.2060317993164,9.999999747378752e-06,0.07199859619140625,1.1531826203281524e-05,102.25331878662108,9.999999747378752e-06,0.012906787917017937,149.28395080566406,-26.44982147216797,151.6090087890625,-10.047279357910156
4.0,99550.78125,151.41856384277344,42.75455474853516,-42.75455474853516,157.3389129638672,-15.767560005187988,1.0,2.557907805567084e-07,0.6280328631401062,8.0,0.646525502204895,0.0017406516708433628,35.496177673339844,9.999999747378752e-06,0.02373019233345985,1.1063071724493057e-05,51.26374435424805,9.999999747378752e-06,0.0036932143848389383,151.41856384277344,-42.75455474853516,157.3389129638672,-15.767560005187988
5.0,79160.15625,155.4499053955078,56.44977569580078,-56.44977569580078,165.3821258544922,-19.9578857421875,1.0,2.345638563383545e-07,0.6295526623725891,8.0,0.7300793528556823,0.0018675533356145024,-84.24894714355469,9.999999747378752e-06,0.07643811404705046,1.1292352610325906e-05,-64.29106903076172,9.999999747378752e-06,0.0018070912919938564,155.4499053955078,-56.44977569580078,165.3821258544922,-19.9578857421875
6.0,62871.09375,160.44442749023435,71.28814697265625,-71.28814697265625,175.5688323974609,-23.956380844116207,1.0,2.4538599063816946e-07,0.6371757388114929,8.0,0.8009117245674133,0.0019260252593085168,-76.41647338867188,9.999999747378752e-06,0.01835180260241032,1.0970200492010916e-05,-52.460086822509766,9.999999747378752e-06,0.002746227430179715,160.44442749023435,-71.28814697265625,175.5688323974609,-23.956380844116207
7.0,49980.46875,165.9140472412109,86.65812683105469,-86.65812683105469,187.18200683593753,-27.57839775085449,1.0,2.2990396075783795e-07,0.6459975838661194,8.0,0.8551627993583678,0.001998611027374864,174.7877197265625,9.999999747378752e-06,0.08015654981136322,1.067736684490228e-05,-157.63388061523435,9.999999747378752e-06,0.005822220351547003,165.9140472412109,-86.65812683105469,187.18200683593753,-27.57839775085449
8.0,39667.96875,171.3151702880859,106.01551818847656,-106.01551818847656,201.46507263183597,-31.750598907470703,1.0,2.549429041209805e-07,0.659745991230011,8.0,0.8969604969024657,0.0021131206303834915,-104.08881378173828,9.999999747378752e-06,0.047889228910207755,1.0488768566574436e-05,-72.33821868896483,9.999999747378752e-06,0.006317140534520149,171.3151702880859,-106.01551818847656,201.46507263183597,-31.750598907470703
9.0,31582.03125,180.81874084472656,127.33155822753906,-127.33155822753906,221.15321350097656,-35.15299606323242,1.0,2.2629546947428025e-07,0.6754151582717896,8.0,0.9254383444786072,0.0022817465942353006,-44.3412971496582,9.999999747378752e-06,0.01326969638466835,1.0317492524336556e-05,-9.188300132751465,9.999999747378752e-06,0.005206913221627474,180.81874084472656,-127.33155822753906,221.15321350097656,-35.15299606323242
10.0,25019.53125,191.31457519531247,152.5468292236328,-152.5468292236328,244.6871490478516,-38.567501068115234,1.0,2.1140604644642733e-07,0.676384687423706,8.0,0.9460496306419373,0.002501367824152112,119.5781021118164,9.999999747378752e-06,0.06875712424516678,1.0222719538433012e-05,158.14561462402344,9.999999747378752e-06,0.005295740906149149,191.31457519531247,-152.5468292236328,244.6871490478516,-38.567501068115234
11.0,19863.28125,202.69012451171875,183.61965942382807,-183.61965942382807,273.4949035644531,-42.17384719848633,1.0,2.1255976889733574e-07,0.6724406480789185,8.0,0.9607017636299133,0.0027773070614784956,142.3569793701172,9.999999747378752e-06,0.008772307075560095,1.015487669064896e-05,-175.4691925048828,9.999999747378752e-06,0.0024739736691117287,202.69012451171875,-183.61965942382807,273.4949035644531,-42.17384719848633
12.0,15682.8701171875,219.5182037353516,220.1821746826172,-220.1821746826172,310.9154968261719,-45.08652114868164,1.0,1.7780422467694734e-07,0.6705364584922792,8.0,0.9700437188148497,0.0031393885146826506,99.25786590576173,9.999999747378752e-06,0.015200117602944374,1.0097241101902908e-05,144.34439086914062,9.999999747378752e-06,0.004808234516531229,219.5182037353516,-220.1821746826172,310.9154968261719,-45.08652114868164
13.0,12597.65625,235.7635803222656,256.7804870605469,-256.7804870605469,348.59817504882807,-47.443336486816406,1.0,2.1931293758825634e-07,0.6863135099411011,8.0,0.9743764996528624,0.003501551924273372,-0.1842331737279892,9.999999747378752e-06,0.014625605195760725,1.004466594167752e-05,47.25910568237305,9.999999747378752e-06,0.0037205598782747984,235.7635803222656,-256.7804870605469,348.59817504882807,-47.443336486816406
14.0,9895.8330078125,257.25146484375,304.9338684082031,-304.9338684082031,398.9523315429688,-49.848003387451165,1.0,1.7286870956922942e-07,0.696217715740204,8.0,0.981671392917633,0.004019391722977161,-43.98502349853516,9.999999747378752e-06,0.055925384163856506,1.0074867532239296e-05,5.862985134124756,9.999999747378752e-06,0.0031929248943924904,257.25146484375,-304.9338684082031,398.9523315429688,-49.848003387451165
15.0,7910.15625,284.6915283203125,353.78961181640625,-353.78961181640625,454.11050415039057,-51.17665863037109,1.0,2.368888658565993e-07,0.7038478851318359,8.0,0.9855386018753053,0.004558994434773922,-16.362266540527344,0.00010306631156709044,0.00581933930516243,1.0039393600891344e-05,34.814388275146484,9.999999747378752e-06,0.0029802408535033464,284.6915283203125,-353.78961181640625,454.11050415039057,-51.17665863037109
16.0,6307.87060546875,312.69317626953125,414.45745849609375,-414.45745849609375,519.1839599609375,-52.96676635742188,1.0,1.5919036400191544e-07,0.716306209564209,8.0,0.9899668097496032,0.005215167999267577,38.945816040039055,9.999999747378752e-06,0.0033490934874862432,1.004493242362514e-05,91.91258239746092,9.999999747378752e-06,0.0023716348223388195,312.69317626953125,-414.45745849609375,519.1839599609375,-52.96676635742188
17.0,4973.3232421875,348.28665161132807,489.1574096679688,-489.1574096679688,600.48193359375,-54.548622131347656,1.0,2.0560158020543895e-07,0.7257872819900512,8.0,0.962526261806488,0.005838373675942421,-75.09835052490233,9.999999747378752e-06,0.005678602959960699,9.722813047119416e-06,-20.54972648620605,9.999999747378752e-06,0.0008058634703047572,348.28665161132807,-489.1574096679688,600.48193359375,-54.548622131347656
18.0,3944.3598632812495,390.3632507324218,572.6676635742188,-572.6676635742188,693.0596923828125,-55.71940612792969,1.0,1.7758132742073943e-07,0.7294281125068665,8.0,0.9805341362953186,0.007060261443257332,31.766695022583008,9.999999747378752e-06,0.003914837259799242,1.0187090083491055e-05,87.48609924316406,9.999999747378752e-06,0.0006754423375241457,390.3632507324218,-572.6676635742188,693.0596923828125,-55.71940612792969
19.0,3144.054931640625,438.1763610839844,666.37451171875,-666.37451171875,797.5296020507811,-56.67297363281249,1.0,1.906237798721122e-07,0.7352181673049927,8.0,0.9898101687431335,0.00805074442178011,68.38448333740233,9.999999747378752e-06,0.02443371154367924,1.0094601748278365e-05,125.05745697021484,9.999999747378752e-06,0.0009544253116473556,438.1763610839844,-666.37451171875,797.5296020507811,-56.67297363281249
20.0,2488.426025390625,495.0760192871094,778.3370971679686,-778.3370971679686,922.4472045898435,-57.540828704833984,1.0,1.8099943588367753e-07,0.741772711277008,8.0,0.9955509305000304,0.009277972392737864,127.29946899414062,0.0002674147835932672,0.0380571223795414,1.0057998224510811e-05,-175.15969848632812,9.999999747378752e-06,0.0011360597563907504,495.0760192871094,-778.3370971679686,922.4472045898435,-57.540828704833984
21.0,1976.6566162109373,559.3272705078125,909.8686523437501,-909.8686523437501,1068.039306640625,-58.4195442199707,1.0,1.8916887256636985e-07,0.7447429895401002,8.0,0.9977496862411501,0.010703981854021547,-155.35418701171875,9.999999747378752e-06,0.004299536347389221,1.0022085916716604e-05,-96.93463897705078,9.999999747378752e-06,0.0013429046375676987,559.3272705078125,-909.8686523437501,1068.039306640625,-58.4195442199707
22.0,1582.03125,620.1678466796875,1000.5740356445312,-1000.5740356445312,1177.181640625,-58.208866119384766,1.0,2.522555178074981e-07,0.7786349654197693,8.0,1.0002369880676267,0.011801162734627724,84.44526672363281,0.0001654942170716822,0.00907503068447113,1.0024928997154348e-05,142.65414428710935,9.999999747378752e-06,0.0012424832675606012,620.1678466796875,-1000.5740356445312,1177.181640625,-58.208866119384766
23.0,1253.6336669921875,672.0421142578125,1086.7994384765625,-1086.7994384765625,1277.80029296875,-58.268680572509766,1.0,2.0617217444396374e-07,0.8210837841033934,8.0,1.0027508735656738,0.012810118496418,110.8244857788086,9.999999747378752e-06,0.005573835223913193,1.0025132723967545e-05,169.09317016601562,9.999999747378752e-06,0.0014507613377645612,672.0421142578125,-1086.7994384765625,1277.80029296875,-58.268680572509766
24.0,996.09375,743.3400268554686,1235.2576904296875,-1235.2576904296875,1441.6712646484375,-58.96176528930664,1.0,1.9667446338189623e-07,0.8370891213417053,8.0,1.0023549795150757,0.014411021955311298,-50.12239837646484,9.999999747378752e-06,0.007049727253615856,9.996052540373055e-06,8.839367866516113,9.999999747378752e-06,0.0011821456719189882,743.3400268554686,-1235.2576904296875,1441.6712646484375,-58.96176528930664
25.0,790.028076171875,817.9697265625,1406.3511962890625,-1406.3511962890625,1626.928955078125,-59.81662368774414,1.0,1.587813471815025e-07,0.8564388155937194,8.0,1.00502610206604,0.016312643885612488,-171.20249938964844,0.0004895004094578326,0.00847185030579567,1.0026647942140698e-05,-111.38587188720705,9.999999747378752e-06,0.0016800074372440577,817.9697265625,-1406.3511962890625,1626.928955078125,-59.81662368774414
26.0,628.8109741210938,906.3757934570312,1608.6077880859375,-1608.6077880859375,1846.3845214843752,-60.60075759887695,1.0,1.6721946849429514e-07,0.8716724514961242,8.0,1.0049530267715454,0.018462503328919407,43.706424713134766,9.999999747378752e-06,0.009375722147524355,9.999273061112035e-06,104.30718994140624,9.999999747378752e-06,0.001269373926334083,906.3757934570312,-1608.6077880859375,1846.3845214843752,-60.60075759887695
35.0,78.78150939941406,2854.008544921875,6767.2958984375,-6767.2958984375,7344.49853515625,-67.13312530517578,1.0,2.0691524582616694e-07,0.9392964839935303,8.0,0.995737373828888,0.07345124334096909,-161.72401428222656,0.003670238424092531,0.04870696738362312,1.0000852853409015e-05,-94.59089660644531,9.999999747378752e-06,0.0010281817521899939,2854.008544921875,-6767.2958984375,7344.49853515625,-67.13312530517578
36.0,62.919464111328125,3365.153564453125,8140.50146484375,-8140.50146484375,8808.6337890625,-67.54058074951172,1.0,2.037070458982271e-07,0.9325575828552246,8.0,0.9960448145866394,0.08811352401971817,-160.63641357421875,0.005242527462542057,0.05799992382526398,1.000308748189127e-05,-93.09584808349608,9.999999747378752e-06,0.0005739810876548289,3365.153564453125,-8140.50146484375,8808.6337890625,-67.54058074951172
37.0,49.86701965332031,3987.867919921875,9736.7724609375,-9736.7724609375,10521.7783203125,-67.72757720947266,1.0,1.9899999870176546e-07,0.9310219883918761,8.0,0.995767593383789,0.1051885038614273,-161.05160522460935,0.007364310789853334,0.06883373856544495,9.997216693591326e-06,-93.32402038574217,9.999999747378752e-06,0.0006847950280644,3987.867919921875,-9736.7724609375,10521.7783203125,-67.72757720947266
38.0,39.72457504272461,4648.31103515625,11528.4296875,-11528.4296875,12430.2646484375,-68.0405044555664,1.0,2.054140963991813e-07,0.9326602220535278,8.0,0.9959473013877869,0.12432508170604704,-160.38211059570312,0.010043246671557426,0.07981366664171219,1.000180509436177e-05,-92.34160614013673,9.999999747378752e-06,0.0008737008320167661,4648.31103515625,-11528.4296875,12430.2646484375,-68.0405044555664
39.0,31.459732055664062,5418.7939453125,13549.625,-13549.625,14593.0009765625,-68.20243835449219,1.0,2.171237127868153e-07,0.9398878216743469,8.0,0.9964377880096436,0.1460018754005432,-159.77682495117188,0.013781957328319548,0.09320514649152756,1.0004924661188852e-05,-91.57438659667967,9.999999747378752e-06,0.001055798726156354,5418.7939453125,-13549.625,14593.0009765625,-68.20243835449219
40.0,24.93350982666016,6375.4599609375,15847.52734375,-15847.52734375,17081.880859375,-68.0850830078125,1.0,1.7193190160469385e-07,0.9485214948654176,8.0,0.9968640804290771,0.1708918958902359,-159.0658721923828,0.018856730312108997,0.10895721614360808,1.0004278010455891e-05,-90.98078918457033,9.999999747378752e-06,0.001106736366637051,6375.4599609375,-15847.52734375,17081.880859375,-68.0850830078125
41.0,19.862287521362305,7580.228515625,18866.484375,-18866.484375,20332.341796875,-68.11058807373047,1.0,1.70405613175717e-07,0.9436135292053223,8.0,0.9969341158866881,0.20333771407604215,-158.6116180419922,0.026182053610682487,0.1271851509809494,1.0000702786783222e-05,-90.50102996826173,9.999999747378752e-06,0.0009147500386461616,7580.228515625,-18866.484375,20332.341796875,-68.11058807373047
42.0,15.782828330993652,9008.666015625,22227.40625,-22227.40625,23983.61328125,-67.93751525878906,1.0,1.478156406164999e-07,0.9436847567558287,8.0,0.9971476197242736,0.2398874759674072,-158.0573272705078,0.0358857661485672,0.14776593446731567,1.0002141607401425e-05,-90.11981964111328,9.999999747378752e-06,0.0010078668128699064,9008.666015625,-22227.40625,23983.61328125,-67.93751525878906
43.0,12.466754913330078,11076.029296875,26897.2734375,-26897.2734375,29088.515625,-67.6186294555664,1.0,1.3745052740432584e-07,0.9255661964416506,8.0,0.9972613453865052,0.29091835021972656,-157.45059204101562,0.050691328942775726,0.1721302717924118,1.0001140253734773e-05,-89.83196258544922,9.999999747378752e-06,0.0010513633023947475,11076.029296875,-26897.2734375,29088.515625,-67.6186294555664
44.0,9.973403930664062,13888.85546875,32768.93359375,-32768.93359375,35590.77734375,-67.03071594238281,1.0,1.500932000908506e-07,0.8875616192817688,8.0,0.9973506331443786,0.3559395968914032,-156.62283325195312,0.06994281709194183,0.1941296011209488,1.0000895599659996e-05,-89.59210968017578,9.999999747378752e-06,0.00144694815389812,13888.85546875,-32768.93359375,35590.77734375,-67.03071594238281
45.0,7.878151416778564,16915.015625,38805.8515625,-38805.8515625,42332.16015625,-66.44818115234375,1.0,2.361767599268205e-07,0.8642091751098634,8.0,0.9968982934951782,0.4231295883655548,-155.83839416503906,0.09048610180616377,0.2113201916217804,9.99546409730101e-06,-89.39022064208984,9.999999747378752e-06,0.0012891419464722276,16915.015625,-38805.8515625,42332.16015625,-66.44818115234375
46.0,6.275100231170654,19981.9765625,43772.6953125,-43772.6953125,48117.859375,-65.46357727050781,1.0,2.644347603109054e-07,0.8656010627746582,8.0,0.9975968599319458,0.48151576519012446,-154.70663452148435,0.11098521202802658,0.22776858508586884,1.0007007404055912e-05,-89.24305725097656,9.999999747378752e-06,0.0012647160328924656,19981.9765625,-43772.6953125,48117.859375,-65.46357727050781
47.0,5.013369083404541,24318.4921875,49598.07421875,-49598.07421875,55239.1015625,-63.88077163696289,1.0,1.8892802700065658e-07,0.8373221755027771,8.0,0.9983386397361756,0.552801787853241,-153.0155792236328,0.1281253695487976,0.22902689874172208,1.0007435776060449e-05,-89.13481903076173,9.999999747378752e-06,0.0011601850856095552,24318.4921875,-49598.07421875,55239.1015625,-63.88077163696289
48.0,3.939075708389282,30348.966796875,56469.12109375,-56469.12109375,64107.890625,-61.74448013305664,1.0,1.786708025974804e-07,0.768936038017273,8.0,0.9985433220863342,0.6412103772163391,-150.79092407226562,0.13697102665901184,0.21107882261276245,1.0002050657931248e-05,-89.04644012451172,9.999999747378752e-06,0.0012369860196486115,30348.966796875,-56469.12109375,64107.890625,-61.74448013305664
49.0,3.137550115585327,36284.6640625,63003.47265625,-63003.47265625,72704.984375,-60.06169891357422,1.0,1.8652549726994041e-07,0.6881462931632996,8.0,0.9982115030288696,0.7268081903457642,-149.02703857421875,0.13856422901153564,0.1883884519338608,9.996676453738472e-06,-88.96533966064453,9.999999747378752e-06,0.001016142196021974,36284.6640625,-63003.47265625,72704.984375,-60.06169891357422
50.0,2.485418796539306,41179.8125,69225.34375,-69225.34375,80547.65625,-59.25301742553711,1.0,2.0913492448926266e-07,0.6183385848999025,8.0,0.9685708284378051,0.7815589904785155,168.4789581298828,0.08875787258148193,0.11221112310886384,9.703062460175715e-06,-132.26803588867188,9.999999747378752e-06,0.000458534574136138,41179.8125,-69225.34375,80547.65625,-59.25301742553711
51.0,1.9955300092697144,45688.76953125,73385.34375,-73385.34375,86445.78125,-58.09413909912109,1.0,2.240464738179071e-07,0.5660994052886963,8.0,0.9864743947982787,0.8804369568824768,178.958251953125,0.11171550303697586,0.1253860294818878,1.018484545056708e-05,-122.94761657714844,9.999999747378752e-06,0.0005039977841079235,45688.76953125,-73385.34375,86445.78125,-58.09413909912109
52.0,1.5836148262023924,52041.20703125,80370.703125,-80370.703125,95748.296875,-57.07635498046875,1.0,1.629931034585752e-07,0.4661160111427307,8.0,0.9945120811462401,0.9652844667434691,-172.52688598632812,0.11346343904733656,0.11615419387817381,1.0081478649226481e-05,-115.4505386352539,9.999999747378752e-06,0.0005971678765490651,52041.20703125,-80370.703125,95748.296875,-57.07635498046875
53.0,1.258051514625549,57169.02734375,85410.578125,-85410.578125,102777.7421875,-56.203880310058594,1.0,2.0801280697924085e-07,0.4189139902591705,8.0,0.997219145298004,1.030575156211853,-165.89527893066406,0.12751072645187375,0.122269868850708,1.0027220014308112e-05,-109.69140625,9.999999747378752e-06,0.0007746265619061886,57169.02734375,-85410.578125,102777.7421875,-56.203880310058594
54.0,0.9977650046348573,63666.015625,88764.7265625,-88764.7265625,109236.1640625,-54.350223541259766,1.0,2.1397563898517546e-07,0.3726926445960999,8.0,0.999076783657074,1.0943964719772339,-159.56500244140625,0.1454250067472458,0.13130950927734375,1.0018628017860465e-05,-105.2147750854492,9.999999747378752e-06,0.00038897202466614544,63666.015625,-88764.7265625,109236.1640625,-54.350223541259766
