# point,freq,zreal,reflected_zimag,zimag,zmod,zphz,zsig,Idc,Vdc,ie_range,gain,vmod,vphz,vsig,vthd,imod,iphz,isig,ithd,zreal_drift,zimag_drift,zmod_drift,zphz_drift
0.0,250019.53125,142.40614318847656,6.3979835510253915,-6.3979835510253915,142.5497894287109,-2.572438955307007,1.0,1.2129306981023547e-07,0.5539730191230774,8.0,0.3865385353565216,0.0005510098999366164,-145.9564971923828,0.0003598062321543693,0.3591022491455078,3.865385224344209e-06,-143.38406372070312,9.999999747378752e-06,0.04666782170534134,142.40614318847656,-6.3979835510253915,142.5497894287109,-2.572438955307007
1.0,198691.40625,144.4828338623047,10.904014587402344,-10.904014587402344,144.89370727539062,-4.315889358520508,1.0,9.305523462899144e-08,0.5708210468292236,8.0,0.43890342116355896,0.0016452267300337553,25.862047195434567,0.00047479112981818616,0.12082646042108536,1.135471393354237e-05,30.177934646606445,9.999999747378752e-06,0.006170546170324087,144.4828338623047,-10.904014587402344,144.89370727539062,-4.315889358520508
2.0,157792.96875,151.8316192626953,25.04441261291504,-25.04441261291504,153.88327026367188,-9.366518020629881,1.0,7.376656441238083e-08,0.6061421632766724,8.0,0.5063968896865845,0.0017754704458639024,73.0490036010742,9.999999747378752e-06,0.03168710693717003,1.153777429863112e-05,82.41551971435545,9.999999747378752e-06,0.009654879570007324,151.8316192626953,-25.04441261291504,153.88327026367188,-9.366518020629881
3.0,125332.03125,153.3403167724609,30.962270736694332,-30.962270736694332,156.4350128173828,-11.415596961975096,1.0,7.627579634572611e-08,0.6482412815093994,8.0,0.5814245343208313,0.001796123804524541,-66.71647644042969,9.999999747378752e-06,0.03259744495153427,1.1481597539386712e-05,-55.30087661743164,9.999999747378752e-06,0.009962942451238632,153.3403167724609,-30.962270736694332,156.4350128173828,-11.415596961975096
4.0,99550.78125,153.14907836914062,45.93305206298828,-45.93305206298828,159.88897705078125,-16.69523811340332,1.0,2.3536489379694106e-07,0.6549018621444702,8.0,0.645291805267334,0.0017745217774063349,39.03924179077149,9.999999747378752e-06,0.016571126878261566,1.1098461982328445e-05,55.73448181152344,9.999999747378752e-06,0.0037384429015219207,153.14907836914062,-45.93305206298828,159.88897705078125,-16.69523811340332
5.0,79160.15625,157.67941284179688,59.485572814941406,-59.485572814941406,168.52694702148435,-20.669307708740234,1.0,2.58585288293034e-07,0.664621114730835,8.0,0.7286670804023743,0.00190301553811878,90.80107879638672,9.999999747378752e-06,0.14764021337032318,1.1292056115053128e-05,111.47038269042967,9.999999747378752e-06,0.0024688441772013903,157.67941284179688,-59.485572814941406,168.52694702148435,-20.669307708740234
6.0,62871.09375,161.77371215820312,74.12757110595702,-74.12757110595702,177.94839477539062,-24.618087768554688,1.0,2.3671576343531342e-07,0.6970033645629883,8.0,0.7990304231643677,0.0019513186998665328,37.95280838012695,9.999999747378752e-06,0.018035531044006348,1.0965643923555037e-05,62.570892333984375,9.999999747378752e-06,0.003427595365792513,161.77371215820312,-74.12757110595702,177.94839477539062,-24.618087768554688
7.0,49980.46875,167.55384826660156,90.88636779785155,-90.88636779785155,190.61643981933597,-28.476768493652344,1.0,2.372557617036364e-07,0.7076919078826904,8.0,0.8535401225090026,0.002036202698945999,-47.43839263916016,9.999999747378752e-06,0.09686940908432007,1.0682198080758099e-05,-18.961622238159176,9.999999747378752e-06,0.005369740538299084,167.55384826660156,-90.88636779785155,190.61643981933597,-28.476768493652344
8.0,39667.96875,174.5192718505859,109.88938903808592,-109.88938903808592,206.2344665527344,-32.19735336303711,1.0,2.5707089434945374e-07,0.7234188914299011,8.0,0.8949463367462158,0.002162391319870949,-50.98092269897461,9.999999747378752e-06,0.03133223578333855,1.0485111488378607e-05,-18.7835693359375,9.999999747378752e-06,0.00546270702034235,174.5192718505859,-109.88938903808592,206.2344665527344,-32.19735336303711
9.0,31582.03125,184.41125488281247,131.55484008789062,-131.55484008789062,226.5263519287109,-35.50320816040039,1.0,2.284094478000043e-07,0.7335442900657655,8.0,0.925571858882904,0.0023427819833159447,25.337751388549805,9.999999747378752e-06,0.016125112771987915,1.0342205314373132e-05,60.84096145629882,9.999999747378752e-06,0.004826529417186976,184.41125488281247,-131.55484008789062,226.5263519287109,-35.50320816040039
10.0,25019.53125,193.8397674560547,158.98057556152344,-158.98057556152344,250.69639587402344,-39.35740280151367,1.0,2.370530012285599e-07,0.7401438355445863,8.0,0.9454314708709716,0.0025607547722756863,160.03802490234375,2.1307740098563958e-05,0.1019121930003166,1.0214565918431616e-05,-160.60458374023435,9.999999747378752e-06,0.006593945901840925,193.8397674560547,-158.98057556152344,250.69639587402344,-39.35740280151367
11.0,19863.28125,207.5682830810547,190.71548461914065,-190.71548461914065,281.88116455078125,-42.577056884765625,1.0,2.446563200919627e-07,0.7451582551002502,8.0,0.9585649371147155,0.0028579691424965854,167.87501525878906,1.344159863947425e-05,0.026261674240231517,1.0138915058632845e-05,-149.54794311523435,9.999999747378752e-06,0.002949431072920561,207.5682830810547,-190.71548461914065,281.88116455078125,-42.577056884765625
12.0,15682.8701171875,223.81398010253903,227.61021423339844,-227.61021423339844,319.2164001464844,-45.481815338134766,1.0,2.080610670418537e-07,0.7461761236190797,8.0,0.9688714742660521,0.0032264860346913338,67.56827545166016,9.999999747378752e-06,0.01891115680336952,1.0107520211022347e-05,113.05009460449217,9.999999747378752e-06,0.0025014583952724934,223.81398010253903,-227.61021423339844,319.2164001464844,-45.481815338134766
13.0,12597.65625,236.51177978515625,269.28826904296875,-269.28826904296875,358.40478515625,-48.70765686035156,1.0,2.500601397059654e-07,0.7552134394645691,8.0,0.9790959954261779,0.00362187041901052,-13.73194408416748,9.999999747378752e-06,0.026518354192376137,1.0105530236614868e-05,34.9757080078125,9.999999747378752e-06,0.004259243607521057,236.51177978515625,-269.28826904296875,358.40478515625,-48.70765686035156
14.0,9895.8330078125,259.411376953125,311.5514221191406,-311.5514221191406,405.41159057617193,-50.217750549316406,1.0,1.7776822858195374e-07,0.7973475456237794,8.0,0.9820954203605651,0.004066535737365484,-29.97010612487793,9.999999747378752e-06,0.07400548458099365,1.003063516691327e-05,20.24764442443848,9.999999747378752e-06,0.003979083150625229,259.411376953125,-311.5514221191406,405.41159057617193,-50.217750549316406
15.0,7910.15625,287.67822265625,363.94262695312494,-363.94262695312494,463.9105529785156,-51.67541503906249,1.0,2.421587907974754e-07,0.8089441657066345,8.0,0.9840579032897949,0.0046483753249049195,-8.43865966796875,8.590576180722563e-05,0.007416507229208945,1.0019982255471405e-05,43.23675537109375,9.999999747378752e-06,0.0022254972718656063,287.67822265625,-363.94262695312494,463.9105529785156,-51.67541503906249
16.0,6307.87060546875,314.3060607910156,423.3083190917969,-423.3083190917969,527.2364501953125,-53.40614318847656,1.0,2.145004458498079e-07,0.8242219686508178,8.0,0.987570345401764,0.005291183013468981,40.37040710449219,7.790056406520307e-05,0.01395590789616108,1.0035693776444532e-05,93.77655792236328,9.999999747378752e-06,0.0028063221834599967,314.3060607910156,-423.3083190917969,527.2364501953125,-53.40614318847656
17.0,4973.3232421875,350.4740905761719,491.3048095703125,-491.3048095703125,603.5001831054688,-54.49769592285156,1.0,1.3923433073159686e-07,0.8496453762054443,8.0,0.9623697400093079,0.005881002638489008,-66.41031646728516,9.999999747378752e-06,0.006235719658434391,9.74482190940762e-06,-11.912617683410645,9.999999747378752e-06,0.0006699167424812913,350.4740905761719,-491.3048095703125,603.5001831054688,-54.49769592285156
18.0,3944.3598632812495,392.2939453125,573.4874877929688,-573.4874877929688,694.8255004882812,-55.625930786132805,1.0,1.0486309776069903e-07,0.8579471707344054,8.0,0.980576992034912,0.00707970978692174,37.281761169433594,0.00013671057240571827,0.0019357294077053664,1.0189191925746854e-05,92.9076919555664,9.999999747378752e-06,0.0008146006730385124,392.2939453125,-573.4874877929688,694.8255004882812,-55.625930786132805
19.0,3144.054931640625,436.69778442382807,643.3662109375,-643.3662109375,777.576416015625,-55.83251190185546,1.0,1.7484313730165013e-07,0.8885893821716307,8.0,0.9902516007423402,0.00785248167812824,83.3113327026367,9.999999747378752e-06,0.008954321965575218,1.009866264212178e-05,139.14382934570312,9.999999747378752e-06,0.0008974864613264798,436.69778442382807,-643.3662109375,777.576416015625,-55.83251190185546
20.0,2488.426025390625,491.59497070312494,751.5659790039062,-751.5659790039062,898.0629272460938,-56.8115348815918,1.0,1.7938113217041973e-07,0.8949276804924011,8.0,0.9944583773612976,0.00901877973228693,137.6680450439453,9.999999747378752e-06,0.017566267400979996,1.0042481335403863e-05,-165.5204315185547,9.999999747378752e-06,0.0013979991199448705,491.59497070312494,-751.5659790039062,898.0629272460938,-56.8115348815918
21.0,1976.6566162109373,555.1663208007812,883.3673706054686,-883.3673706054686,1043.3348388671875,-57.8520393371582,1.0,1.7437950816656667e-07,0.8954094052314758,8.0,0.9968953132629393,0.01045891549438238,-155.8778076171875,7.911060674814507e-05,0.0038307008799165487,1.002450517262332e-05,-98.0257797241211,9.999999747378752e-06,0.0010785688646137714,555.1663208007812,-883.3673706054686,1043.3348388671875,-57.8520393371582
22.0,1582.03125,626.1932373046875,1027.8099365234375,-1027.8099365234375,1203.5411376953125,-58.648136138916016,1.0,1.8616930219650385e-07,0.8983374238014221,8.0,0.9988378882408142,0.012058863416314123,81.7327423095703,0.00030963539029471576,0.004684113897383213,1.0019486580858938e-05,140.38087463378906,9.999999747378752e-06,0.0012863853480666876,626.1932373046875,-1027.8099365234375,1203.5411376953125,-58.648136138916016
23.0,1253.6336669921875,696.9068603515625,1151.709228515625,-1151.709228515625,1346.1475830078125,-58.821590423583984,1.0,2.1592107657397722e-07,0.9254703521728516,8.0,1.0003751516342163,0.013482194393873215,112.392578125,9.999999747378752e-06,0.005542049650102854,1.0015390216722151e-05,171.21417236328125,9.999999747378752e-06,0.001431559445336461,696.9068603515625,-1151.709228515625,1346.1475830078125,-58.821590423583984
24.0,996.09375,768.9594726562499,1297.4959716796875,-1297.4959716796875,1508.2421875,-59.346946716308594,1.0,1.5699461641816015e-07,0.9475235342979432,8.0,1.0041420459747314,0.015139215625822544,-48.11851501464844,9.999999747378752e-06,0.0070464517921209335,1.0037654647021554e-05,11.22843551635742,9.999999747378752e-06,0.0015065062325447796,768.9594726562499,-1297.4959716796875,1508.2421875,-59.346946716308594
25.0,790.028076171875,859.9249267578125,1492.862548828125,-1492.862548828125,1722.8201904296875,-60.05702209472656,1.0,2.0080230456187564e-07,0.960150957107544,8.0,1.0040435791015625,0.017226513475179672,-167.06715393066406,0.00036486570024862885,0.009533068165183069,9.999020221584942e-06,-107.0101318359375,9.999999747378752e-06,0.001654492923989892,859.9249267578125,-1492.862548828125,1722.8201904296875,-60.05702209472656
26.0,628.8109741210938,981.0577392578125,1769.9735107421875,-1769.9735107421875,2023.6799316406248,-61.0013542175293,1.0,2.012874205092885e-07,0.9571762681007384,8.0,1.004616618156433,0.02024834789335728,43.97370529174805,0.00053763622418046,0.010743165388703346,1.0005706826632377e-05,104.97505950927734,9.999999747378752e-06,0.0016363486647605896,981.0577392578125,-1769.9735107421875,2023.6799316406248,-61.0013542175293
35.0,78.78150939941406,3208.501708984375,7592.60791015625,-7592.60791015625,8242.7041015625,-67.0919418334961,1.0,2.567803107922373e-07,1.0068722963333128,8.0,0.9956756830215454,0.0825800448656082,-161.67855834960935,0.005261689890176058,0.06276885420084,1.0018560715252532e-05,-94.58660888671875,9.999999747378752e-06,0.0010612830519676208,3208.501708984375,-7592.60791015625,8242.7041015625,-67.0919418334961
36.0,62.919464111328125,3690.6826171875,8789.767578125,-8789.767578125,9533.1611328125,-67.22325134277344,1.0,2.278143540479505e-07,1.0191144943237305,8.0,0.995573341846466,0.09532180428504944,-160.30433654785156,0.00718929897993803,0.07374801486730574,9.998972018365747e-06,-93.08108520507811,9.999999747378752e-06,0.0009670363506302236,3690.6826171875,-8789.767578125,9533.1611328125,-67.22325134277344
37.0,49.86701965332031,4402.529296875,10596.1962890625,-10596.1962890625,11474.390625,-67.43799591064453,1.0,1.761723069648724e-07,1.014652132987976,8.0,0.9957547187805176,0.11476480960845949,-160.7633514404297,0.010205195285379887,0.08755073696374893,1.0001822374761105e-05,-93.32535552978516,9.999999747378752e-06,0.0007000647601671517,4402.529296875,-10596.1962890625,11474.390625,-67.43799591064453
38.0,39.72457504272461,5226.880859375,12742.7568359375,-12742.7568359375,13773.0947265625,-67.69732666015625,1.0,2.3072033172866213e-07,1.0076454877853391,8.0,0.9958980083465576,0.1377507597208023,-160.05795288085935,0.014180145226418972,0.1016537994146347,1.0001438567996956e-05,-92.36064147949217,9.999999747378752e-06,0.0006668819114565849,5226.880859375,-12742.7568359375,13773.0947265625,-67.69732666015625
39.0,31.459732055664062,6248.01025390625,15307.3271484375,-15307.3271484375,16533.357421875,-67.79612731933594,1.0,2.445497671033081e-07,1.001382827758789,8.0,0.9959166049957277,0.16533666849136353,-159.38587951660156,0.019765984266996384,0.11798133701086044,1.0000187103287315e-05,-91.58974456787107,9.999999747378752e-06,0.0013334079412743447,6248.01025390625,-15307.3271484375,16533.357421875,-67.79612731933594
40.0,24.93350982666016,7523.91162109375,18232.291015625,-18232.291015625,19723.734375,-67.57554626464844,1.0,2.417488929040701e-07,0.9956026077270509,8.0,0.9967775344848634,0.1974078267812729,-158.6106719970703,0.02733822539448738,0.13679639995098114,1.0008644494519103e-05,-91.03511810302734,9.999999747378752e-06,0.001344101154245436,7523.91162109375,-18232.291015625,19723.734375,-67.57554626464844
41.0,19.862287521362305,8951.6240234375,21586.37109375,-21586.37109375,23368.845703125,-67.47676849365233,1.0,2.1349531209580166e-07,0.9885807037353517,8.0,0.9966042637825011,0.23364785313606265,-157.987060546875,0.036657411605119705,0.15496155619621277,9.998261703003664e-06,-90.51029205322264,9.999999747378752e-06,0.0012490070657804608,8951.6240234375,-21586.37109375,23368.845703125,-67.47676849365233
42.0,15.782828330993652,10392.568359375,24847.892578125,-24847.892578125,26933.68359375,-67.3030014038086,1.0,1.8035694893114848e-07,0.9950605630874632,8.0,0.996727705001831,0.2693701684474945,-157.4273223876953,0.047534648329019547,0.17435285449028015,1.0001238479162566e-05,-90.12432098388672,9.999999747378752e-06,0.0012829892802983522,10392.568359375,-24847.892578125,26933.68359375,-67.3030014038086
43.0,12.466754913330078,12452.580078125,29030.5,-29030.5,31588.552734375,-66.7831802368164,1.0,1.9972921450062128e-07,0.9894537329673768,8.0,0.9971891641616819,0.3160317838191986,-156.61402893066406,0.06243458390235901,0.19518299400806427,1.0004629984905476e-05,-89.83085632324217,9.999999747378752e-06,0.0012602636124938726,12452.580078125,-29030.5,31588.552734375,-66.7831802368164
44.0,9.973403930664062,15270.4873046875,34480.19140625,-34480.19140625,37710.359375,-66.11254119873047,1.0,1.645752547574375e-07,0.9565118551254272,8.0,0.9970931410789488,0.37706729769706726,-155.7089385986328,0.07930880784988403,0.20782749354839325,9.999036592489574e-06,-89.59639739990233,9.999999747378752e-06,0.0014571517240256071,15270.4873046875,-34480.19140625,37710.359375,-66.11254119873047
45.0,7.878151416778564,18653.869140625,40104.1015625,-40104.1015625,44230.14453125,-65.0551528930664,1.0,1.894256342893641e-07,0.9258878827095032,8.0,0.9974311590194702,0.44245144724845886,-154.4550628662109,0.09638766199350356,0.2152635157108307,1.000339034362696e-05,-89.39989471435545,9.999999747378752e-06,0.0012895825784653423,18653.869140625,-40104.1015625,44230.14453125,-65.0551528930664
46.0,6.275100231170654,22209.68359375,45192.609375,-45192.609375,50355.16015625,-63.828418731689446,1.0,2.1496941826626426e-07,0.899296224117279,8.0,0.9978375434875488,0.5037567615509033,-153.10000610351562,0.1099591851234436,0.21569350361824036,1.0004074283642694e-05,-89.27158355712889,9.999999747378752e-06,0.0010613289196044207,22209.68359375,-45192.609375,50355.16015625,-63.828418731689446
47.0,5.013369083404541,26800.501953125,50826.02734375,-50826.02734375,57459.1328125,-62.1973762512207,1.0,2.2908163543888807e-07,0.8438208699226379,8.0,0.9978153109550477,0.5745785832405089,-151.32879638671875,0.11758399009704588,0.20222344994544983,9.999776921176816e-06,-89.13142395019531,9.999999747378752e-06,0.0011076692026108503,26800.501953125,-50826.02734375,57459.1328125,-62.1973762512207
48.0,3.939075708389282,31910.576171875,56544.22265625,-56544.22265625,64927.140625,-60.561908721923835,1.0,2.1058917809568809e-07,0.7838812470436096,8.0,0.9984332919120787,0.6496735215187073,-149.58961486816406,0.12374291568994522,0.18821327388286593,1.0006193406297824e-05,-89.02770233154298,9.999999747378752e-06,0.0009955037385225296,31910.576171875,-56544.22265625,64927.140625,-60.561908721923835
49.0,3.137550115585327,36676.31640625,62069.046875,-62069.046875,72095.203125,-59.42135620117188,1.0,1.9913743187771613e-07,0.7274042367935181,8.0,0.9976201653480528,0.7203649282455444,-148.3247833251953,0.12886065244674683,0.17676827311515808,9.991856131819075e-06,-88.90343475341795,9.999999747378752e-06,0.0009213130688294768,36676.31640625,-62069.046875,72095.203125,-59.42135620117188
50.0,2.485418796539306,40840.58984375,67539.953125,-67539.953125,78927.8046875,-58.83915710449219,1.0,2.1259472759993517e-07,0.6802794933319092,8.0,0.9693106412887571,0.7668806314468383,168.9248809814453,0.0868535190820694,0.11190686374902724,9.716229214973282e-06,-132.23597717285156,9.999999747378752e-06,0.00033169431844726205,40840.58984375,-67539.953125,78927.8046875,-58.83915710449219
51.0,1.9955300092697144,46179.0859375,73011.4765625,-73011.4765625,86389.71875,-57.687026977539055,1.0,2.0193969874071627e-07,0.5880802273750305,8.0,0.9860639572143554,0.878828525543213,179.34132385253906,0.10672388225793839,0.11999151110649107,1.0172837392019572e-05,-122.9716567993164,9.999999747378752e-06,0.0006290418095886707,46179.0859375,-73011.4765625,86389.71875,-57.687026977539055
52.0,1.5836148262023924,52089.37109375,80159.65625,-80159.65625,95597.453125,-56.98337173461913,1.0,1.8585596706088841e-07,0.5021995306015015,8.0,0.9946981072425841,0.964345097541809,-172.41668701171875,0.11719100922346117,0.1200895309448242,1.0087562259286642e-05,-115.4333267211914,9.999999747378752e-06,0.0010634767822921276,52089.37109375,-80159.65625,95597.453125,-56.98337173461913
53.0,1.258051514625549,57942.26171875,85138.1796875,-85138.1796875,102984.5390625,-55.76207733154297,1.0,2.0656140975461315e-07,0.44537693262100214,8.0,0.9972169995307921,1.032453179359436,-165.42074584960935,0.1296352446079254,0.1240779310464859,1.0025322808360215e-05,-109.65867614746092,9.999999747378752e-06,0.0010764474282041192,57942.26171875,-85138.1796875,102984.5390625,-55.76207733154297
54.0,0.9977650046348573,64197.40625,88427.6484375,-88427.6484375,109273.765625,-54.02080535888672,1.0,1.9429916164881439e-07,0.40104684233665466,8.0,0.9990130066871645,1.094705820083618,-159.1813812255859,0.14854125678539276,0.13408921658992767,1.001801047095796e-05,-105.1605758666992,9.999999747378752e-06,0.0009757536463439463,64197.40625,-88427.6484375,109273.765625,-54.02080535888672
