# point,freq,zreal,reflected_zimag,zimag,zmod,zphz,zsig,Idc,Vdc,ie_range,gain,vmod,vphz,vsig,vthd,imod,iphz,isig,ithd,zreal_drift,zimag_drift,zmod_drift,zphz_drift
0.0,250019.53125,144.8329620361328,-2.7927138805389404,2.7927138805389404,144.85987854003906,1.1046580076217651,1.0,1.501340562981568e-08,0.19424085319042203,8.0,0.38413810729980474,0.0005564619787037373,-165.4134063720703,0.0008591791847720742,1.4011379480361938,3.841380930680316e-06,-166.51808166503906,9.999999747378752e-06,0.025495026260614395,144.8329620361328,2.7927138805389404,144.85987854003906,1.1046580076217651
1.0,198691.40625,144.62193298339844,7.194459915161133,-7.194459915161133,144.8007659912109,-2.8479266166687007,1.0,8.150522035066388e-08,0.38186073303222656,8.0,0.4395509660243988,0.0016568864230066536,91.74721527099608,0.0005981482099741697,0.1357920616865158,1.1442524737503844e-05,94.5951461791992,9.999999747378752e-06,0.009190879762172699,144.62193298339844,-7.194459915161133,144.8007659912109,-2.8479266166687007
2.0,157792.96875,142.31634521484375,18.7197380065918,-18.7197380065918,143.5422210693359,-7.493444919586181,1.0,1.3774814533462634e-07,0.522499680519104,8.0,0.506939172744751,0.0016554889734834433,-85.61160278320312,0.0006490694941021502,0.031387440860271454,1.1533114957273936e-05,-78.11815643310547,9.999999747378752e-06,0.00992340501397848,142.31634521484375,-18.7197380065918,143.5422210693359,-7.493444919586181
3.0,125332.03125,149.1974334716797,33.082672119140625,-33.082672119140625,152.82125854492188,-12.502342224121092,1.0,1.1619931683526374e-07,0.5410612225532532,8.0,0.5829485058784485,0.0017573494696989655,51.006256103515625,0.000583276676479727,0.050317227840423584,1.1499378160806373e-05,63.508594512939446,9.999999747378752e-06,0.0077160713262856,149.1974334716797,-33.082672119140625,152.82125854492188,-12.502342224121092
4.0,99550.78125,151.6262969970703,45.73734664916992,-45.73734664916992,158.37435913085935,-16.78568458557129,1.0,2.0721336113638245e-07,0.5452545285224915,8.0,0.6462776064872742,0.0017557948594912887,115.22262573242188,9.999999747378752e-06,0.016965992748737335,1.1086357517342549e-05,132.00833129882812,9.999999747378752e-06,0.0018254383467137811,151.6262969970703,-45.73734664916992,158.37435913085935,-16.78568458557129
5.0,79160.15625,155.87353515625,58.33357620239258,-58.33357620239258,166.43125915527344,-20.51768684387207,1.0,2.585660467957496e-07,0.5482898354530334,8.0,0.7291575074195863,0.0018777474761009216,32.822025299072266,9.999999747378752e-06,0.1680458039045334,1.1282420018687844e-05,53.33971405029297,9.999999747378752e-06,0.002091797534376383,155.87353515625,-58.33357620239258,166.43125915527344,-20.51768684387207
6.0,62871.09375,160.9044952392578,74.27491760253906,-74.27491760253906,177.2202606201172,-24.778459548950195,1.0,2.603630662179057e-07,0.5650604963302612,8.0,0.7984267473220825,0.0019405599450692532,-113.08335876464844,0.0004507369885686785,0.022612715139985085,1.094998970074812e-05,-88.30490112304686,9.999999747378752e-06,0.0018892365042120216,160.9044952392578,-74.27491760253906,177.2202606201172,-24.778459548950195
7.0,49980.46875,167.17124938964844,87.92137908935545,-87.92137908935545,188.88195800781247,-27.741498947143555,1.0,2.2243204966798658e-07,0.6265149712562561,8.0,0.854844331741333,0.0020222852472215887,152.15664672851562,9.999999747378752e-06,0.1784275621175766,1.0706609828048384e-05,179.89816284179688,9.999999747378752e-06,0.005076107569038868,167.17124938964844,-87.92137908935545,188.88195800781247,-27.741498947143555
8.0,39667.96875,174.01028442382812,106.70372009277344,-106.70372009277344,204.1206970214844,-31.516775131225582,1.0,2.0593958538484003e-07,0.6345609426498413,8.0,0.8977866172790526,0.0021437450777739286,-125.85574340820312,9.999999747378752e-06,0.017405735328793526,1.0502340046514291e-05,-94.33896636962889,9.999999747378752e-06,0.004630825947970152,174.01028442382812,-106.70372009277344,204.1206970214844,-31.516775131225582
9.0,31582.03125,183.72479248046875,127.50823974609376,-127.50823974609376,223.63619995117188,-34.761329650878906,1.0,1.7677371033641978e-07,0.6402860879898071,8.0,0.9256579279899597,0.0023057889193296432,-42.54501724243164,9.999999747378752e-06,0.014138578437268732,1.031044484989252e-05,-7.783687114715576,9.999999747378752e-06,0.005246497690677643,183.72479248046875,-127.50823974609376,223.63619995117188,-34.761329650878906
10.0,25019.53125,195.4647674560547,152.1452484130859,-152.1452484130859,247.6987152099609,-37.896366119384766,1.0,2.143156336842367e-07,0.6468631625175476,8.0,0.9467059373855591,0.0025333098601549864,75.12007141113281,0.00024770988966338336,0.12610934674739835,1.0227384336758403e-05,113.01644134521484,9.999999747378752e-06,0.0055440347641706475,195.4647674560547,-152.1452484130859,247.6987152099609,-37.896366119384766
11.0,19863.28125,207.8886260986328,182.5834503173828,-182.5834503173828,276.68463134765625,-41.292037963867195,1.0,2.3117493697100147e-07,0.6488569974899292,8.0,0.961721897125244,0.0028107324615120888,179.26449584960935,9.999999747378752e-06,0.009659449569880962,1.0158612894883843e-05,-139.44346618652344,9.999999747378752e-06,0.0031925539951771498,207.8886260986328,-182.5834503173828,276.68463134765625,-41.292037963867195
12.0,15682.8701171875,224.9742126464844,214.57904052734372,-214.57904052734372,310.89797973632807,-43.645240783691406,1.0,1.7325950807389745e-07,0.6558001041412354,8.0,0.9717988967895507,0.003141556167975068,41.87932968139648,9.999999747378752e-06,0.00785816926509142,1.0104780812980609e-05,85.52456665039062,9.999999747378752e-06,0.0027614408172667022,224.9742126464844,-214.57904052734372,310.89797973632807,-43.645240783691406
13.0,12597.65625,241.82481384277344,252.12437438964844,-252.12437438964844,349.3507385253906,-46.19452667236328,1.0,2.4975449264275085e-07,0.6657319664955139,8.0,0.9770518541336061,0.003512391354888677,-29.400245666503903,0.0005253164563328028,0.012571791186928747,1.0054053745989222e-05,16.794282913208008,9.999999747378752e-06,0.0021442677825689316,241.82481384277344,-252.12437438964844,349.3507385253906,-46.19452667236328
14.0,9895.8330078125,263.90643310546875,293.3187561035156,-293.3187561035156,394.5662231445313,-48.0214729309082,1.0,2.007857347052777e-07,0.6776745915412903,8.0,0.9840645790100097,0.003973981831222773,-42.502456665039055,9.999999747378752e-06,0.0948965772986412,1.0071774340758564e-05,5.519010066986084,9.999999747378752e-06,0.002919258549809456,263.90643310546875,-293.3187561035156,394.5662231445313,-48.0214729309082
15.0,7910.15625,289.25408935546875,340.55178833007807,-340.55178833007807,446.8147888183594,-49.65646362304688,1.0,2.227688753464463e-07,0.6866010427474976,8.0,0.9861778020858765,0.004477743059396744,-33.183258056640625,9.999999747378752e-06,0.006490828935056925,1.0021474736277014e-05,16.47319984436035,9.999999747378752e-06,0.002825502073392272,289.25408935546875,-340.55178833007807,446.8147888183594,-49.65646362304688
16.0,6307.87060546875,318.1226501464844,396.24633789062494,-396.24633789062494,508.1468200683594,-51.24108886718751,1.0,1.6950616554822773e-07,0.6940712928771973,8.0,0.9892362952232362,0.0050972276367247105,31.99444770812988,0.00014262519835028795,0.006995237432420254,1.0031013516709208e-05,83.23553466796875,9.999999747378752e-06,0.0028512063436210155,318.1226501464844,-396.24633789062494,508.1468200683594,-51.24108886718751
17.0,4973.3232421875,354.24517822265625,464.84423828125,-464.84423828125,584.4397583007812,-52.689956665039055,1.0,1.7193629275880085e-07,0.7004496455192566,8.0,0.9630565047264099,0.005689727608114481,-76.39189910888672,9.999999747378752e-06,0.0037786141037940975,9.73535316006746e-06,-23.701940536499023,9.999999747378752e-06,0.000629084650427103,354.24517822265625,-464.84423828125,584.4397583007812,-52.689956665039055
18.0,3944.3598632812495,394.6052856445313,540.6358642578125,-540.6358642578125,669.328369140625,-53.87462615966797,1.0,2.052201608648829e-07,0.7057622671127319,8.0,0.9823672175407407,0.006827494595199823,31.335790634155277,9.999999747378752e-06,0.001944101764820516,1.0200515134783927e-05,85.21041870117188,9.999999747378752e-06,0.0010335530387237668,394.6052856445313,-540.6358642578125,669.328369140625,-53.87462615966797
19.0,3144.054931640625,440.3528137207031,629.32861328125,-629.32861328125,768.0918579101561,-55.0188102722168,1.0,1.8223073539047618e-07,0.7092186808586121,8.0,0.990455687046051,0.00774416048079729,71.6400146484375,9.999999747378752e-06,0.032619670033454895,1.0082336302730255e-05,126.65882110595705,9.999999747378752e-06,0.0008203253382816911,440.3528137207031,-629.32861328125,768.0918579101561,-55.0188102722168
20.0,2488.426025390625,493.5324096679688,732.0377807617188,-732.0377807617188,882.8666992187501,-56.01255035400391,1.0,1.6435822658422694e-07,0.7152146100997925,8.0,0.9953649044036864,0.008872426114976406,126.27212524414062,9.999999747378752e-06,0.0418933629989624,1.0049565389635973e-05,-177.7153167724609,9.999999747378752e-06,0.0010717790573835373,493.5324096679688,-732.0377807617188,882.8666992187501,-56.01255035400391
21.0,1976.6566162109373,551.5780029296875,846.2337646484374,-846.2337646484374,1010.1237182617188,-56.90355682373047,1.0,1.5799898278601177e-07,0.7249305844306947,8.0,0.9985663890838624,0.010133726522326468,-157.7021942138672,9.999999747378752e-06,0.0035439338535070415,1.0032164027506951e-05,-100.79864501953124,9.999999747378752e-06,0.0015971361426636577,551.5780029296875,-846.2337646484374,1010.1237182617188,-56.90355682373047
22.0,1582.03125,617.2340698242188,980.1898193359376,-980.1898193359376,1158.33935546875,-57.80102157592773,1.0,1.576077153231381e-07,0.7303186058998109,8.0,0.9991748332977296,0.011590451933443546,79.74286651611328,9.999999747378752e-06,0.0042665996588766575,1.000609336188063e-05,137.5438995361328,9.999999747378752e-06,0.001260299002751708,617.2340698242188,-980.1898193359376,1158.33935546875,-57.80102157592773
23.0,1253.6336669921875,693.2943115234375,1137.2071533203125,-1137.2071533203125,1331.8773193359375,-58.63157272338867,1.0,1.5519817964104734e-07,0.7388653755187987,8.0,1.001044988632202,0.01334370207041502,110.08753204345705,0.00035015246248804033,0.004621947649866343,1.0018717148341238e-05,168.7191162109375,9.999999747378752e-06,0.0015502076130360365,693.2943115234375,-1137.2071533203125,1331.8773193359375,-58.63157272338867
24.0,996.09375,783.8364257812499,1333.735107421875,-1333.735107421875,1547.012939453125,-59.55723571777344,1.0,1.484261815676291e-07,0.7400668263435363,8.0,1.0024465322494507,0.015491788275539877,-51.07927703857422,0.0004000108456239104,0.006241777911782265,1.0014000508817844e-05,8.477961540222168,9.999999747378752e-06,0.0015053621027618647,783.8364257812499,-1333.735107421875,1547.012939453125,-59.55723571777344
25.0,790.028076171875,889.3032226562499,1573.864990234375,-1573.864990234375,1807.7364501953125,-60.531635284423835,1.0,1.6500877109137946e-07,0.7405412793159485,8.0,1.0046591758728027,0.0181172639131546,-170.5150146484375,0.0005336022586561739,0.007996582426130772,1.0022072274296079e-05,-109.98338317871092,9.999999747378752e-06,0.0016366088530048728,889.3032226562499,-1573.864990234375,1807.7364501953125,-60.531635284423835
26.0,628.8109741210938,1017.64599609375,1858.1955566406248,-1858.1955566406248,2118.606689453125,-61.29256057739258,1.0,1.4787183033604379e-07,0.7387747764587401,8.0,1.005111813545227,0.021195610985159877,42.40251922607422,0.000408780644647777,0.00922433380037546,1.0004505384131335e-05,103.69507598876952,9.999999747378752e-06,0.0012914742110297084,1017.64599609375,-1858.1955566406248,2118.606689453125,-61.29256057739258
27.0,496.3235168457031,1044.914306640625,2205.7841796875,-2205.7841796875,2440.76416015625,-64.65235900878906,1.0,1.6250771750492277e-07,0.7404291033744813,8.0,0.9744873046875,0.023663969710469242,71.52447509765625,9.999999747378752e-06,0.007430853322148323,9.695312655821907e-06,136.1768341064453,9.999999747378752e-06,0.0004715642717201263,1044.914306640625,-2205.7841796875,2440.76416015625,-64.65235900878906
28.0,395.3313293457031,1216.7518310546875,2601.887451171875,-2601.887451171875,2872.334228515625,-64.93724060058594,1.0,1.6570970728935208e-07,0.7431820034980774,8.0,0.9946084022521972,0.029316417872905728,35.55475997924805,0.00059532281011343,0.01132939662784338,1.0206478691543452e-05,100.49199676513672,9.999999747378752e-06,0.0005076542729511857,1216.7518310546875,-2601.887451171875,2872.334228515625,-64.93724060058594
29.0,315.5048217773437,1431.9791259765625,3108.32470703125,-3108.32470703125,3422.31591796875,-65.26487731933594,1.0,1.83889753202493e-07,0.7370392680168151,8.0,1.0013691186904907,0.034455787390470505,162.42205810546875,0.0009086492937058209,0.01529062632471323,1.0067973562399857e-05,-132.31307983398435,9.999999747378752e-06,0.0007119413930922747,1431.9791259765625,-3108.32470703125,3422.31591796875,-65.26487731933594
30.0,249.33511352539065,1662.9683837890625,3642.4575195312495,-3642.4575195312495,4004.117919921875,-65.46087646484375,1.0,2.0723476268358357e-07,0.7458067536354066,8.0,1.0037176609039307,0.040135089308023446,27.09012031555176,0.0007469267002306879,0.018847808241844177,1.0023453796748072e-05,92.55099487304688,9.999999747378752e-06,0.0009410781203769148,1662.9683837890625,-3642.4575195312495,4004.117919921875,-65.46087646484375
31.0,198.6228790283203,1923.99169921875,4266.7080078125,-4266.7080078125,4680.4423828125,-65.7279052734375,1.0,2.2259155230131003e-07,0.751511812210083,8.0,1.0034762620925903,0.04679316654801369,12.177794456481932,0.001103882910683751,0.023043787106871605,9.997594133892562e-06,77.90570068359375,9.999999747378752e-06,0.0011085133301094174,1923.99169921875,-4266.7080078125,4680.4423828125,-65.7279052734375
32.0,158.005615234375,2281.592529296875,5127.05322265625,-5127.05322265625,5611.80322265625,-66.01042938232422,1.0,2.3345494071236322e-07,0.743493378162384,8.0,0.9987615942955016,0.05585438013076782,69.77216339111328,0.0015705663245171309,0.02749431505799293,9.953017070074564e-06,135.78260803222656,9.999999747378752e-06,0.0012773809721693397,2281.592529296875,-5127.05322265625,5611.80322265625,-66.01042938232422
33.0,125.5580368041992,2593.5419921875,5922.26611328125,-5922.26611328125,6465.2685546875,-66.34991455078125,1.0,2.5455966579102096e-07,0.7591112852096557,8.0,0.9886428117752076,0.06399767845869064,-165.4835662841797,0.0020987007301300764,0.033197380602359765,9.898686585074755e-06,-99.13365173339844,9.999999747378752e-06,0.0011798256309702992,2593.5419921875,-5922.26611328125,6465.2685546875,-66.34991455078125
34.0,99.73403930664062,2936.71337890625,6525.04296875,-6525.04296875,7155.4501953125,-65.76901245117188,1.0,2.5944035542124766e-07,0.8012772798538208,8.0,0.9946834444999696,0.0719917044043541,-162.32997131347656,0.0030567566864192486,0.04130329191684722,1.0061100510938559e-05,-96.56094360351561,9.999999747378752e-06,0.0010559458751231432,2936.71337890625,-6525.04296875,7155.4501953125,-65.76901245117188
35.0,78.78150939941406,3403.38916015625,7645.918945312499,-7645.918945312499,8369.177734375,-66.00495910644531,1.0,2.763501072422514e-07,0.8111262917518615,8.0,0.9947349429130553,0.08369610458612442,-160.5727996826172,0.004153273534029721,0.04795651510357857,1.000051724986406e-05,-94.56783294677734,9.999999747378752e-06,0.0008905130671337248,3403.38916015625,-7645.918945312499,8369.177734375,-66.00495910644531
36.0,62.919464111328125,3938.261962890625,8885.4970703125,-8885.4970703125,9719.154296875,-66.095947265625,1.0,2.7637614152808965e-07,0.8193795680999757,8.0,0.994981050491333,0.09721559286117552,-159.2325439453125,0.005583736579865217,0.05609684437513352,1.0002474482462276e-05,-93.13658905029295,9.999999747378752e-06,0.0008685762295499443,3938.261962890625,-8885.4970703125,9719.154296875,-66.095947265625
37.0,49.86701965332031,4634.35693359375,10531.0908203125,-10531.0908203125,11505.7001953125,-66.24742126464844,1.0,2.7229279453422356e-07,0.8219218254089355,8.0,0.9953382015228271,0.11509829759597778,-159.5944366455078,0.007669544778764246,0.06584753841161728,1.0003589522966648e-05,-93.34700775146483,9.999999747378752e-06,0.0011333724251016974,4634.35693359375,-10531.0908203125,11505.7001953125,-66.24742126464844
38.0,39.72457504272461,5432.45166015625,12415.298828125,-12415.298828125,13551.7958984375,-66.36768341064453,1.0,2.480011289662798e-07,0.8240769505500793,8.0,0.9957960844039918,0.13558031618595123,-158.7316741943359,0.010611363686621187,0.07723522931337357,1.000459997158032e-05,-92.36398315429688,9.999999747378752e-06,0.0006436841213144362,5432.45166015625,-12415.298828125,13551.7958984375,-66.36768341064453
39.0,31.459732055664062,6390.61376953125,14634.693359375,-14634.693359375,15969.1640625,-66.4102783203125,1.0,2.1155723572974241e-07,0.82746422290802,8.0,0.9962470531463624,0.15976394712924957,-158.0076446533203,0.014543323777616024,0.0899617075920105,1.000452903099358e-05,-91.59736633300781,9.999999747378752e-06,0.0010492790024727583,6390.61376953125,-14634.693359375,15969.1640625,-66.4102783203125
40.0,24.93350982666016,7561.276367187501,17319.939453125,-17319.939453125,18898.49609375,-66.41561126708984,1.0,1.8162661774567826e-07,0.8292174339294434,8.0,0.9966186881065368,0.18905547261238095,-157.4067230224609,0.020031264051795002,0.1046229377388954,1.0003730494645424e-05,-90.99110412597656,9.999999747378752e-06,0.0007053075823932886,7561.276367187501,-17319.939453125,18898.49609375,-66.41561126708984
41.0,19.862287521362305,9033.3447265625,20417.48046875,-20417.48046875,22326.548828125,-66.13387298583984,1.0,1.9424250297106482e-07,0.8255698680877684,8.0,0.9963199496269226,0.22319857776165009,-156.659423828125,0.027467558160424232,0.1214778497815132,9.997002052841708e-06,-90.52554321289062,9.999999747378752e-06,0.001048188772983849,9033.3447265625,-20417.48046875,22326.548828125,-66.13387298583984
42.0,15.782828330993652,10809.4384765625,24168.607421875,-24168.607421875,26475.75390625,-65.90335845947266,1.0,1.974410110960889e-07,0.8166482448577882,8.0,0.9971988797187805,0.26499107480049133,-156.0371856689453,0.037501014769077294,0.13978563249111176,1.0008821845985947e-05,-90.13382720947264,9.999999747378752e-06,0.0014113358920440076,10809.4384765625,-24168.607421875,26475.75390625,-65.90335845947266
43.0,12.466754913330078,13049.046875,28612.6953125,-28612.6953125,31447.796875,-65.48426818847656,1.0,2.1895921520354025e-07,0.8063740730285645,8.0,0.9972127079963683,0.31448236107826233,-155.32290649414062,0.05078992620110512,0.15955066680908203,1.0000138900068121e-05,-89.83862304687501,9.999999747378752e-06,0.001240246114321053,13049.046875,-28612.6953125,31447.796875,-65.48426818847656
44.0,9.973403930664062,15558.2451171875,33425.24609375,-33425.24609375,36868.76953125,-65.03972625732422,1.0,2.3139688209994347e-07,0.7948623299598694,8.0,0.9973471760749818,0.3687373697757721,-154.63851928710935,0.06651559472084045,0.1782347559928894,1.000134852802148e-05,-89.59879302978516,9.999999747378752e-06,0.001255520270206034,15558.2451171875,-33425.24609375,36868.76953125,-65.03972625732422
45.0,7.878151416778564,18789.732421875,39173.0234375,-39173.0234375,43446.2890625,-64.37482452392578,1.0,2.1661253413185483e-07,0.7780407071113585,8.0,0.9976750016212464,0.43460565805435186,-153.78384399414062,0.08639635145664215,0.1964243650436401,1.000328666123096e-05,-89.4090118408203,9.999999747378752e-06,0.001284536556340754,18789.732421875,-39173.0234375,43446.2890625,-64.37482452392578
46.0,6.275100231170654,22844.501953125,45673.296875,-45673.296875,51067.8125,-63.427070617675774,1.0,2.0008641854474265e-07,0.7453875541687012,8.0,0.9981048107147216,0.5108981132507324,-152.6662139892578,0.10736244916915892,0.20764563977718356,1.000430802378105e-05,-89.23915100097656,9.999999747378752e-06,0.0011568596819415689,22844.501953125,-45673.296875,51067.8125,-63.427070617675774
