# point,freq,zreal,reflected_zimag,zimag,zmod,zphz,zsig,Idc,Vdc,ie_range,gain,vmod,vphz,vsig,vthd,imod,iphz,isig,ithd,zreal_drift,zimag_drift,zmod_drift,zphz_drift
0.0,250019.53125,143.44778442382812,-9.093236923217773,9.093236923217773,143.7357177734375,3.627159118652344,1.0,1.28821056932793e-07,0.4122371673583984,8.0,0.3856863379478455,0.0005543690058402717,2.32742977142334,0.0005047395243309438,0.8796508908271788,3.8568632589885965e-06,-1.2997292280197144,9.999999747378752e-06,0.025936035439372063,143.44778442382812,9.093236923217773,143.7357177734375,3.627159118652344
1.0,198691.40625,140.3660888671875,4.028994083404541,-4.028994083404541,140.4239044189453,-1.6441363096237183,1.0,3.3745102712146036e-08,0.559868574142456,8.0,0.44000175595283514,0.0016019948525354266,-43.653667449951165,9.999999747378752e-06,0.12668675184249875,1.1408279533497987e-05,-42.009525299072266,9.999999747378752e-06,0.004628400783985853,140.3660888671875,-4.028994083404541,140.4239044189453,-1.6441363096237183
2.0,157792.96875,142.8786468505859,15.85655403137207,-15.85655403137207,143.75582885742188,-6.332724571228027,1.0,-1.6682150771885063e-08,0.6245264410972595,8.0,0.5094740986824036,0.0016645359573885798,-20.61561393737793,9.999999747378752e-06,0.039130959659814835,1.157891074399231e-05,-14.282888412475584,9.999999747378752e-06,0.010828444734215736,142.8786468505859,-15.85655403137207,143.75582885742188,-6.332724571228027
3.0,125332.03125,145.83824157714844,29.41078186035156,-29.41078186035156,148.77427673339844,-11.401749610900877,1.0,-2.4455335534412367e-08,0.6387311220169067,8.0,0.5847077965736389,0.0017074368661269543,-6.131171226501465,9.999999747378752e-06,0.052423611283302314,1.1476693543954752e-05,5.270578384399414,9.999999747378752e-06,0.010625433176755903,145.83824157714844,-29.41078186035156,148.77427673339844,-11.401749610900877
4.0,99550.78125,148.1927490234375,38.67597198486328,-38.67597198486328,153.15652465820312,-14.627026557922363,1.0,2.236681950762432e-07,0.6974470019340515,8.0,0.6487914323806763,0.0016994239995256066,82.9573745727539,9.999999747378752e-06,0.03231928497552872,1.1095994523202535e-05,97.5844039916992,9.999999747378752e-06,0.002923175459727645,148.1927490234375,-38.67597198486328,153.15652465820312,-14.627026557922363
5.0,79160.15625,152.1193695068359,51.132057189941406,-51.132057189941406,160.4829864501953,-18.579099655151367,1.0,2.302535193621225e-07,0.7000223398208617,8.0,0.7321648001670836,0.0018110595410689712,-155.26600646972656,0.0004139690136071295,0.10529746115207672,1.1285055734333582e-05,-136.68690490722656,9.999999747378752e-06,0.0017605808097869156,152.1193695068359,-51.132057189941406,160.4829864501953,-18.579099655151367
6.0,62871.09375,155.25933837890625,63.68297958374024,-63.68297958374024,167.81234741210935,-22.302047729492188,1.0,2.387522783919849e-07,0.7102708220481873,8.0,0.8036457896232606,0.0018419582629576323,-73.89200592041014,9.999999747378752e-06,0.01931455545127392,1.09762968349969e-05,-51.5899543762207,9.999999747378752e-06,0.001913517131470144,155.25933837890625,-63.68297958374024,167.81234741210935,-22.302047729492188
7.0,49980.46875,160.17051696777344,79.81099700927734,-79.81099700927734,178.9535980224609,-26.486511230468754,1.0,2.345846752405123e-07,0.7159505486488342,8.0,0.8582795858383178,0.0019111927831545472,-158.557861328125,9.999999747378752e-06,0.19535277783870697,1.0679824299586471e-05,-132.07135009765625,9.999999747378752e-06,0.004653081763535738,160.17051696777344,-79.81099700927734,178.9535980224609,-26.486511230468754
8.0,39667.96875,167.1016845703125,97.50738525390624,-97.50738525390624,193.47006225585935,-30.264469146728516,1.0,2.3592683362494427e-07,0.7227228283882141,8.0,0.8996108174324036,0.0020278678275644775,-127.5648727416992,6.1823520809412e-05,0.029380619525909424,1.048155900207348e-05,-97.30039978027344,9.999999747378752e-06,0.0050112991593778125,167.1016845703125,-97.50738525390624,193.47006225585935,-30.264469146728516
9.0,31582.03125,176.5960693359375,116.72679901123045,-116.72679901123045,211.68682861328125,-33.4639778137207,1.0,2.647829546731373e-07,0.7296453118324279,8.0,0.9278990030288696,0.002183433156460524,-82.86511993408203,9.999999747378752e-06,0.029084833338856697,1.0314449355064424e-05,-49.40113830566406,9.999999747378752e-06,0.005698202643543482,176.5960693359375,-116.72679901123045,211.68682861328125,-33.4639778137207
10.0,25019.53125,188.36685180664065,135.9604339599609,-135.9604339599609,232.30865478515625,-35.82120132446289,1.0,2.6084654791702633e-07,0.7485170364379882,8.0,0.9493338465690612,0.0023767510429024696,108.0364761352539,0.00061955233104527,0.18291303515434265,1.023100412567146e-05,143.85768127441406,9.999999747378752e-06,0.0064257862977683535,188.36685180664065,-135.9604339599609,232.30865478515625,-35.82120132446289
11.0,19863.28125,198.6368560791016,162.59364318847656,-162.59364318847656,256.6968994140625,-39.301944732666016,1.0,2.483396031038865e-07,0.7597973942756653,8.0,0.9638158679008483,0.0026061278767883778,108.86966705322264,0.000624351145233959,0.01677722856402397,1.0152549293707123e-05,148.1716156005859,9.999999747378752e-06,0.0020258044824004173,198.6368560791016,-162.59364318847656,256.6968994140625,-39.301944732666016
12.0,15682.8701171875,212.06033325195312,188.7376251220703,-188.7376251220703,283.8863830566406,-41.669677734375,1.0,2.0287373558858238e-07,0.7669256329536438,8.0,0.9753094911575315,0.0028727175667881966,42.66881561279297,9.999999747378752e-06,0.018466861918568608,1.0119250873685814e-05,84.33848571777342,9.999999747378752e-06,0.00291089853271842,212.06033325195312,-188.7376251220703,283.8863830566406,-41.669677734375
13.0,12597.65625,230.91049194335935,220.89308166503903,-220.89308166503903,319.5518798828125,-43.72984313964844,1.0,2.5873518438856996e-07,0.7772835493087769,8.0,0.9803329110145568,0.00321197765879333,-39.39982604980469,9.999999747378752e-06,0.021661635488271717,1.0051506251329556e-05,4.33001708984375,9.999999747378752e-06,0.0039805546402931205,230.91049194335935,-220.89308166503903,319.5518798828125,-43.72984313964844
14.0,9895.8330078125,249.81224060058597,256.062744140625,-256.062744140625,357.7349548339844,-45.70790100097656,1.0,1.950566854702629e-07,0.7906488776206969,8.0,0.9863659739494324,0.003599364776164293,-50.090198516845696,9.999999747378752e-06,0.07965227216482161,1.0061540706374217e-05,-4.382298946380615,9.999999747378752e-06,0.003081083297729492,249.81224060058597,-256.062744140625,357.7349548339844,-45.70790100097656
15.0,7910.15625,273.59259033203125,295.1941833496094,-295.1941833496094,402.48294067382807,-47.17495727539063,1.0,2.4775383167252585e-07,0.8007688522338867,8.0,0.9891132116317747,0.0040360395796597,-36.3016471862793,9.999999747378752e-06,0.014401804655790327,1.0027852113125844e-05,10.873308181762695,9.999999747378752e-06,0.0039743101224303246,273.59259033203125,-295.1941833496094,402.48294067382807,-47.17495727539063
16.0,6307.87060546875,296.5802001953125,339.9006652832031,-339.9006652832031,451.1011962890625,-48.8936882019043,1.0,1.6264633018181485e-07,0.8089594244956969,8.0,0.9935421347618104,0.004531210754066706,42.98791503906249,9.999999747378752e-06,0.009218983352184296,1.0044776900031138e-05,91.88160705566406,9.999999747378752e-06,0.002794518135488033,296.5802001953125,-339.9006652832031,451.1011962890625,-48.8936882019043
17.0,4973.3232421875,328.4467468261719,397.1526794433594,-397.1526794433594,515.3712158203125,-50.40912628173828,1.0,1.885872364937313e-07,0.8159830570220947,8.0,0.9662451744079588,0.005012117326259613,-76.30621337890625,9.999999747378752e-06,0.004621866624802351,9.725255949888378e-06,-25.897085189819332,9.999999747378752e-06,0.0006932115647941828,328.4467468261719,-397.1526794433594,515.3712158203125,-50.40912628173828
18.0,3944.3598632812495,361.5916137695313,454.1926574707031,-454.1926574707031,580.551025390625,-51.47602081298828,1.0,1.8022220160673896e-07,0.8269674181938171,8.0,0.98456871509552,0.005915604066103697,37.69787597656249,9.999999747378752e-06,0.005588456057012081,1.018963666865602e-05,89.17389678955078,9.999999747378752e-06,0.0006890672375448048,361.5916137695313,-454.1926574707031,580.551025390625,-51.47602081298828
19.0,3144.054931640625,398.85247802734375,519.8091430664064,-519.8091430664064,655.1983032226562,-52.500770568847656,1.0,1.601726040689755e-07,0.8365768790245056,8.0,0.9934585690498352,0.006611141841858625,68.56951904296875,0.000676406139973551,0.03633617982268333,1.0090291652886663e-05,121.07029724121092,9.999999747378752e-06,0.0008097073878161609,398.85247802734375,-519.8091430664064,655.1983032226562,-52.500770568847656
20.0,2488.426025390625,440.38714599609375,595.9130249023438,-595.9130249023438,740.9812622070312,-53.53514099121094,1.0,1.5611055914632746e-07,0.8474476933479309,8.0,0.9990773797035216,0.007451721001416445,129.1046905517578,7.308943895623088e-05,0.0446847602725029,1.0056558494397905e-05,-177.3601837158203,9.999999747378752e-06,0.001034987741149962,440.38714599609375,-595.9130249023438,740.9812622070312,-53.53514099121094
21.0,1976.6566162109373,486.52297973632807,684.6484985351562,-684.6484985351562,839.9096069335938,-54.60174560546875,1.0,1.5841948197703462e-07,0.8566702604293822,8.0,1.0009108781814575,0.00841450970619917,-158.25636291503906,9.999999747378752e-06,0.0040077636949718,1.0018351531471124e-05,-103.65460968017578,9.999999747378752e-06,0.0011841414961963892,486.52297973632807,-684.6484985351562,839.9096069335938,-54.60174560546875
22.0,1582.03125,534.8181762695312,778.9327392578125,-778.9327392578125,944.86328125,-55.526363372802734,1.0,1.6130884716858418e-07,0.8684650063514708,8.0,1.0024454593658447,0.009463119320571423,81.76020812988281,9.999999747378752e-06,0.003849571337923408,1.001533200906124e-05,137.2865753173828,9.999999747378752e-06,0.0011515893274918199,534.8181762695312,-778.9327392578125,944.86328125,-55.526363372802734
23.0,1253.6336669921875,595.8464965820312,905.0074462890624,-905.0074462890624,1083.5457763671875,-56.63955307006836,1.0,1.436267353938092e-07,0.8742266893386842,8.0,1.0051968097686768,0.010865197516977789,111.7097396850586,9.999999747378752e-06,0.005015923175960779,1.0027446478488857e-05,168.3492889404297,9.999999747378752e-06,0.0010112366871908307,595.8464965820312,-905.0074462890624,1083.5457763671875,-56.63955307006836
24.0,996.09375,645.1696166992188,1008.3142700195312,-1008.3142700195312,1197.0552978515625,-57.38686752319336,1.0,1.7153632825284149e-07,0.9001129269599913,8.0,1.0048203468322752,0.011966071091592312,-46.55923461914063,9.999999747378752e-06,0.007846819236874579,9.996255357691552e-06,10.827629089355469,9.999999747378752e-06,0.0016783217433840036,645.1696166992188,-1008.3142700195312,1197.0552978515625,-57.38686752319336
25.0,790.028076171875,708.120361328125,1149.31005859375,-1149.31005859375,1349.9437255859375,-58.36167907714844,1.0,1.3188912362238625e-07,0.91777104139328,8.0,1.0054757595062256,0.013508240692317484,-169.6731414794922,9.999999747378752e-06,0.006836961023509502,1.0006521733885164e-05,-111.3114547729492,9.999999747378752e-06,0.0015924874460324645,708.120361328125,-1149.31005859375,1349.9437255859375,-58.36167907714844
26.0,628.8109741210938,800.425048828125,1351.8084716796875,-1351.8084716796875,1571.008056640625,-59.369625091552734,1.0,1.3725190228797146e-07,0.9184232950210572,8.0,1.006271243095398,0.015722511336207386,45.054386138916016,9.999999747378752e-06,0.007310825400054455,1.0007912351284176e-05,104.4240036010742,9.999999747378752e-06,0.0013423016062006354,800.425048828125,-1351.8084716796875,1571.008056640625,-59.369625091552734
27.0,496.3235168457031,800.855224609375,1561.023193359375,-1561.023193359375,1754.46923828125,-62.84071350097656,1.0,1.3858900160812482e-07,0.9341503381729125,8.0,0.9782617092132568,0.017056336626410484,73.05521392822266,0.00021072603703942147,0.005929365288466215,9.721649803395849e-06,135.8959197998047,9.999999747378752e-06,0.0004972557653672993,800.855224609375,-1561.023193359375,1754.46923828125,-62.84071350097656
28.0,395.3313293457031,932.326171875,1848.56103515625,-1848.56103515625,2070.36474609375,-63.23579788208008,1.0,1.644509239895342e-07,0.9337260723114013,8.0,0.9967960715293884,0.02109590172767639,37.1381721496582,9.999999747378752e-06,0.008782288990914822,1.018946204567328e-05,100.37397003173828,9.999999747378752e-06,0.0004591479082591832,932.326171875,-1848.56103515625,2070.36474609375,-63.23579788208008
29.0,315.5048217773437,1069.677001953125,2160.0029296875,-2160.0029296875,2410.357177734375,-63.654460906982415,1.0,1.683441865907298e-07,0.9386895895004272,8.0,1.0040535926818848,0.024279065430164337,163.7956085205078,0.0001099988294299692,0.011738396249711512,1.007280843623448e-05,-132.5499267578125,9.999999747378752e-06,0.0006530386162921785,1069.677001953125,-2160.0029296875,2410.357177734375,-63.654460906982415
30.0,249.33511352539065,1260.829833984375,2591.167724609375,-2591.167724609375,2881.638671875,-64.05302429199219,1.0,1.570823400243171e-07,0.9324457049369811,8.0,1.0070905685424805,0.028903547674417492,28.377523422241207,0.0006630115094594657,0.014704720117151735,1.0030246812675612e-05,92.43054962158205,9.999999747378752e-06,0.0009069213992916048,1260.829833984375,-2591.167724609375,2881.638671875,-64.05302429199219
31.0,198.6228790283203,1438.7587890625,3015.416259765625,-3015.416259765625,3341.072021484375,-64.49258422851562,1.0,1.4625770461407228e-07,0.9408323168754577,8.0,1.0041406154632568,0.033312853425741196,13.504753112792969,0.0005037822993472219,0.017515718936920166,9.970708561013453e-06,77.9973373413086,9.999999747378752e-06,0.001167764188721776,1438.7587890625,-3015.416259765625,3341.072021484375,-64.49258422851562
32.0,158.005615234375,1727.2650146484375,3673.091064453125,-3673.091064453125,4058.9458007812495,-64.8148193359375,1.0,1.4679882553991774e-07,0.9244517683982848,8.0,1.001617431640625,0.040487468242645264,71.03412628173828,0.0010975472396239638,0.021457357332110405,9.974872227758167e-06,135.8489532470703,9.999999747378752e-06,0.0011466376017779112,1727.2650146484375,-3673.091064453125,4058.9458007812495,-64.8148193359375
33.0,125.5580368041992,1952.5061035156248,4229.875,-4229.875,4658.76806640625,-65.22200012207031,1.0,1.6164074168045772e-07,0.9398225545883178,8.0,0.9913034439086914,0.046107955276966095,-164.29698181152344,0.0011067948071286082,0.02561258338391781,9.897026757244019e-06,-99.07498168945312,9.999999747378752e-06,0.001267166226170957,1952.5061035156248,-4229.875,4658.76806640625,-65.22200012207031
34.0,99.73403930664062,2218.0361328125,4786.986328125,-4786.986328125,5275.88134765625,-65.13948822021484,1.0,1.8877373975101366e-07,0.9657542109489442,8.0,0.996432900428772,0.0530318059027195,-161.6925048828125,0.0016232123598456383,0.0322820246219635,1.005174453894142e-05,-96.55300903320312,9.999999747378752e-06,0.0010428447276353836,2218.0361328125,-4786.986328125,5275.88134765625,-65.13948822021484
35.0,78.78150939941406,2577.873046875,5649.32080078125,-5649.32080078125,6209.6904296875,-65.4720458984375,1.0,2.088905404207253e-07,0.9713367819786072,8.0,0.9959513545036318,0.06206689774990082,-160.02011108398435,0.0024590527173131704,0.03786541149020195,9.995167602028232e-06,-94.54805755615233,9.999999747378752e-06,0.0007210978073999285,2577.873046875,-5649.32080078125,6209.6904296875,-65.4720458984375
36.0,62.919464111328125,2989.800048828125,6615.9052734375,-6615.9052734375,7260.10400390625,-65.6812744140625,1.0,1.882259965668709e-07,0.9759499430656432,8.0,0.9965449571609496,0.07264430820941925,-158.7843017578125,0.0033069602213799958,0.044168494641780846,1.0005959666159468e-05,-93.10303497314452,9.999999747378752e-06,0.0005800771177746356,2989.800048828125,-6615.9052734375,7260.10400390625,-65.6812744140625
37.0,49.86701965332031,3464.469970703125,7814.47607421875,-7814.47607421875,8548.0166015625,-66.09037017822266,1.0,1.9674243389999901e-07,0.9798750877380371,8.0,0.9972314834594727,0.08553905040025711,-159.40415954589844,0.004498657770454884,0.05127798393368721,1.000688916974468e-05,-93.31378173828125,9.999999747378752e-06,0.0003937997680623084,3464.469970703125,-7814.47607421875,8548.0166015625,-66.09037017822266
38.0,39.72457504272461,3985.6059570312495,9146.7294921875,-9146.7294921875,9977.3603515625,-66.45526123046875,1.0,2.221560322368532e-07,0.9869374632835389,8.0,0.9968746304512026,0.09973789751529692,-158.79757690429688,0.00591783970594406,0.058646678924560554,9.996421795221977e-06,-92.34232330322264,9.999999747378752e-06,0.0007190556498244405,3985.6059570312495,-9146.7294921875,9977.3603515625,-66.45526123046875
39.0,31.459732055664062,4563.66845703125,10595.830078125,-10595.830078125,11536.8408203125,-66.69824981689453,1.0,2.3751783828629414e-07,1.0020105838775635,8.0,0.997595965862274,0.115451879799366,-158.26722717285156,0.007912205532193184,0.06758934259414673,1.0007235687226055e-05,-91.56897735595705,9.999999747378752e-06,0.0009443531744182109,4563.66845703125,-10595.830078125,11536.8408203125,-66.69824981689453
40.0,24.93350982666016,5222.67529296875,12191.921875,-12191.921875,13263.45703125,-66.81107330322266,1.0,2.5703721462377876e-07,1.0204464197158811,8.0,0.9972010850906371,0.1325820684432983,-157.77540588378906,0.010304631665349007,0.07681087404489517,9.996041626436638e-06,-90.96432495117188,9.999999747378752e-06,0.0007915385649539529,5222.67529296875,-12191.921875,13263.45703125,-66.81107330322266
41.0,19.862287521362305,6141.24853515625,14215.109375,-14215.109375,15484.96875,-66.63456726074219,1.0,1.8352341157878982e-07,1.0278334617614746,8.0,0.9978684782981871,0.15495333075523376,-157.13087463378906,0.01438748650252819,0.09168320894241332,1.0006692718889099e-05,-90.4963150024414,9.999999747378752e-06,0.0004953983589075506,6141.24853515625,-14215.109375,15484.96875,-66.63456726074219
42.0,15.782828330993652,7564.665039062499,17713.791015625,-17713.791015625,19261.42578125,-66.8751220703125,1.0,1.7978646837946147e-07,0.9961495995521544,8.0,0.9976327419281005,0.192568764090538,-157.00094604492188,0.020932605490088463,0.107332706451416,9.997637789638247e-06,-90.1258316040039,9.999999747378752e-06,0.0007512980955652893,7564.665039062499,-17713.791015625,19261.42578125,-66.8751220703125
43.0,12.466754913330078,8871.1533203125,20762.77734375,-20762.77734375,22578.53515625,-66.86480712890625,1.0,2.434464363432199e-07,1.000698447227478,8.0,0.9983093142509459,0.22593849897384644,-156.6656951904297,0.028634246438741684,0.1251680552959442,1.0006781849369872e-05,-89.80088043212889,9.999999747378752e-06,0.0005999933346174656,8871.1533203125,-20762.77734375,22578.53515625,-66.86480712890625
44.0,9.973403930664062,10523.5107421875,24334.796875,-24334.796875,26512.763671875,-66.61407470703125,1.0,2.2170603131144162e-07,0.9973532557487488,8.0,0.9980400800704957,0.26505613327026367,-156.18092346191406,0.03900156170129776,0.14539101719856262,9.997303095587995e-06,-89.56685638427734,9.999999747378752e-06,0.0006717430660501121,10523.5107421875,-24334.796875,26512.763671875,-66.61407470703125
45.0,7.878151416778564,12967.3212890625,29277.39453125,-29277.39453125,32020.576171875,-66.11085510253906,1.0,1.996334901832597e-07,0.9770737290382384,8.0,0.9983915090560912,0.3203184902667999,-155.4877471923828,0.055142588913440704,0.17007052898406982,1.0003521310864016e-05,-89.37688446044922,9.999999747378752e-06,0.0008132726652547717,12967.3212890625,-29277.39453125,32020.576171875,-66.11085510253906
46.0,6.275100231170654,15851.76953125,34930.078125,-34930.078125,38358.6875,-65.59077453613281,1.0,1.8792242428844477e-07,0.9517881274223328,8.0,0.9982718229293824,0.38354089856147766,-154.81869506835935,0.07450696825981139,0.19193932414054873,9.998801033361817e-06,-89.22792053222656,9.999999747378752e-06,0.0006726268911734223,15851.76953125,-34930.078125,38358.6875,-65.59077453613281
