# point,freq,zreal,reflected_zimag,zimag,zmod,zphz,zsig,Idc,Vdc,ie_range,gain,vmod,vphz,vsig,vthd,imod,iphz,isig,ithd,zreal_drift,zimag_drift,zmod_drift,zphz_drift
0.0,250019.53125,137.97271728515625,-4.139400482177734,4.139400482177734,138.03480529785156,1.7184488773345947,1.0,7.799790324725107e-08,0.3105125427246094,8.0,0.385781466960907,0.0005325126112438737,-10.7109375,0.0005718995817005633,0.8528403043746947,3.85781459044665e-06,-12.429384231567383,9.999999747378752e-06,0.02103110589087009,137.97271728515625,4.139400482177734,138.03480529785156,1.7184488773345947
1.0,198691.40625,139.56918334960935,6.571341037750244,-6.571341037750244,139.72378540039062,-2.6956686973571777,1.0,5.890705878641711e-08,0.465088427066803,8.0,0.43967747688293457,0.001592440763488412,67.90330505371094,0.0005717338062822819,0.117735855281353,1.139706091635162e-05,70.59896850585938,9.999999747378752e-06,0.007430320605635643,139.56918334960935,-6.571341037750244,139.72378540039062,-2.6956686973571777
2.0,157792.96875,139.1482391357422,20.320499420166012,-20.320499420166012,140.62416076660156,-8.308453559875488,1.0,1.0370845160423416e-07,0.6021566987037659,8.0,0.5098025798797609,0.0016305262688547373,-126.74571990966795,0.0005688702804036438,0.06039295345544815,1.159492148872232e-05,-118.437255859375,9.999999747378752e-06,0.008866490796208382,139.1482391357422,-20.320499420166012,140.62416076660156,-8.308453559875488
3.0,125332.03125,148.7772674560547,23.52980613708496,-23.52980613708496,150.6264495849609,-8.987152099609375,1.0,9.724736571570249e-08,0.7033872008323668,8.0,0.5848081707954407,0.0017278762534260748,-104.59154510498045,0.0005353604210540652,0.08805345743894577,1.1471267498563977e-05,-95.60439300537107,9.999999747378752e-06,0.009867272339761255,148.7772674560547,-23.52980613708496,150.6264495849609,-8.987152099609375
4.0,99550.78125,146.47018432617188,36.57185745239258,-36.57185745239258,150.96693420410156,-14.019420623779297,1.0,2.717042093536293e-07,0.7437893748283385,8.0,0.6496321558952332,0.001677011023275554,28.344871520996094,9.999999747378752e-06,0.05576834455132485,1.1108465514553243e-05,42.36429214477539,9.999999747378752e-06,0.004030431155115366,146.47018432617188,-36.57185745239258,150.96693420410156,-14.019420623779297
5.0,79160.15625,151.9871368408203,49.80583572387695,-49.80583572387695,159.93971252441406,-18.14385223388672,1.0,2.0797972410946386e-07,0.7576885223388672,8.0,0.7326000332832336,0.0018036643741652367,-72.97820281982422,9.999999747378752e-06,0.10879209637641905,1.1277151315880472e-05,-54.83435058593751,9.999999747378752e-06,0.002046585315838456,151.9871368408203,-49.80583572387695,159.93971252441406,-18.14385223388672
6.0,62871.09375,156.25531005859375,61.923770904541016,-61.923770904541016,168.07818603515625,-21.618356704711918,1.0,1.9257127803484766e-07,0.7718561291694641,8.0,0.803384244441986,0.0018431798089295624,-168.4180908203125,9.999999747378752e-06,0.03007727675139904,1.096620599128073e-05,-146.79974365234375,9.999999747378752e-06,0.0029372514691203833,156.25531005859375,-61.923770904541016,168.07818603515625,-21.618356704711918
7.0,49980.46875,162.4479217529297,75.73484802246092,-75.73484802246092,179.23475646972656,-24.995405197143555,1.0,2.124217530763417e-07,0.792623221874237,8.0,0.8593643903732301,0.0019172388128936289,-119.73255157470705,9.999999747378752e-06,0.1627676635980606,1.0696803656173868e-05,-94.73715209960936,9.999999747378752e-06,0.005750343203544617,162.4479217529297,-75.73484802246092,179.23475646972656,-24.995405197143555
8.0,39667.96875,169.0941162109375,89.87844085693358,-89.87844085693358,191.49661254882807,-27.991945266723633,1.0,1.7033841004376882e-07,0.8035872578620911,8.0,0.9016746282577514,0.0020092483609914775,-122.44913482666016,9.999999747378752e-06,0.010972257703542708,1.0492343790247103e-05,-94.45718383789062,9.999999747378752e-06,0.005264731124043465,169.0941162109375,-89.87844085693358,191.49661254882807,-27.991945266723633
9.0,31582.03125,177.39390563964844,107.56647491455078,-107.56647491455078,207.45877075195312,-31.23139953613281,1.0,1.898045809411997e-07,0.8135634064674377,8.0,0.9320973753929137,0.002144584897905588,-52.289180755615234,9.999999747378752e-06,0.01875866763293743,1.0337402272853067e-05,-21.05778312683105,9.999999747378752e-06,0.00727131450548768,177.39390563964844,-107.56647491455078,207.45877075195312,-31.23139953613281
10.0,25019.53125,188.04296875,126.17957305908205,-126.17957305908205,226.4540557861328,-33.862186431884766,1.0,2.273628467719391e-07,0.821226179599762,8.0,0.9503239393234254,0.0023088227026164527,155.63302612304688,9.999999747378752e-06,0.12258601188659668,1.0195543836744037e-05,-170.50479125976562,9.999999747378752e-06,0.007126860320568085,188.04296875,-126.17957305908205,226.4540557861328,-33.862186431884766
11.0,19863.28125,199.9629821777344,146.89122009277344,-146.89122009277344,248.11737060546875,-36.30070877075195,1.0,2.9022095304753753e-07,0.8364242315292358,8.0,0.9670006036758423,0.0025247144512832165,-173.3600921630859,0.0007413353305310011,0.025094838812947277,1.0175484021601733e-05,-137.05938720703125,9.999999747378752e-06,0.003292200388386845,199.9629821777344,-146.89122009277344,248.11737060546875,-36.30070877075195
12.0,15682.8701171875,214.91613769531247,171.2768402099609,-171.2768402099609,274.8175964355469,-38.553001403808594,1.0,2.2857577164359097e-07,0.8429767489433287,8.0,0.9755361080169677,0.002772432984784245,34.7298698425293,9.999999747378752e-06,0.027145877480506897,1.0088268027175216e-05,73.28286743164062,9.999999747378752e-06,0.0035937135107815266,214.91613769531247,-171.2768402099609,274.8175964355469,-38.553001403808594
13.0,12597.65625,226.1484375,200.69573974609372,-200.69573974609372,302.36053466796875,-41.587493896484375,1.0,2.4919157226577227e-07,0.8491069078445433,8.0,0.9847745299339294,0.0030522390734404325,-35.87451171875,9.999999747378752e-06,0.008947229944169521,1.0094700883200856e-05,5.712988376617432,9.999999747378752e-06,0.002767026424407959,226.1484375,-200.69573974609372,302.36053466796875,-41.587493896484375
14.0,9895.8330078125,246.21234130859372,229.5143585205078,-229.5143585205078,336.59674072265625,-42.98974609375,1.0,1.7212789771292594e-07,0.8567802309989929,8.0,0.9887719750404357,0.00337963062338531,-36.403316497802734,9.999999747378752e-06,0.06794119626283646,1.004059231490828e-05,6.586430549621582,9.999999747378752e-06,0.0032043540850281715,246.21234130859372,-229.5143585205078,336.59674072265625,-42.98974609375
15.0,7910.15625,266.93975830078125,262.9000549316406,-262.9000549316406,374.66421508789057,-44.56316375732422,1.0,2.072935956221045e-07,0.8640830516815186,8.0,0.9927263855934144,0.003761625848710537,-26.154586791992188,9.999999747378752e-06,0.006158224307000637,1.0039992957899813e-05,18.40857696533203,9.999999747378752e-06,0.0019254720536991956,266.93975830078125,-262.9000549316406,374.66421508789057,-44.56316375732422
16.0,6307.87060546875,289.0220642089844,306.2225036621094,-306.2225036621094,421.0771484375,-46.655181884765625,1.0,1.5210339654458949e-07,0.8675774335861206,8.0,0.994211494922638,0.004217070993036032,32.612667083740234,9.999999747378752e-06,0.00800897367298603,1.0014960025728215e-05,79.26785278320312,9.999999747378752e-06,0.002814766252413392,289.0220642089844,-306.2225036621094,421.0771484375,-46.655181884765625
17.0,4973.3232421875,317.1597900390625,357.8653259277344,-357.8653259277344,478.1819152832031,-48.45088577270508,1.0,1.7867454005227046e-07,0.8701768517494202,8.0,0.9683209061622621,0.004657294135540724,-69.7654800415039,9.999999747378752e-06,0.0021266348194330926,9.739586857904214e-06,-21.314594268798828,9.999999747378752e-06,0.0009942598408088088,317.1597900390625,-357.8653259277344,478.1819152832031,-48.45088577270508
18.0,3944.3598632812495,348.5645446777344,416.54348754882807,-416.54348754882807,543.144287109375,-50.07732772827149,1.0,1.7550115671838284e-07,0.8715773224830627,8.0,0.9856256842613219,0.005528507288545369,38.06534576416016,9.999999747378752e-06,0.0021749569568783045,1.017870908981422e-05,88.14266967773438,9.999999747378752e-06,0.000684171449393034,348.5645446777344,-416.54348754882807,543.144287109375,-50.07732772827149
19.0,3144.054931640625,383.5823059082031,482.69036865234375,-482.69036865234375,616.5430908203125,-51.52668762207031,1.0,1.893486114568077e-07,0.8740867376327514,8.0,0.9956480264663696,0.006228124257177114,80.71652984619139,9.999999747378752e-06,0.035369422286748886,1.0101684893015772e-05,132.24322509765625,9.999999747378752e-06,0.0009483755566179752,383.5823059082031,-482.69036865234375,616.5430908203125,-51.52668762207031
20.0,2488.426025390625,422.5718994140625,555.6935424804688,-555.6935424804688,698.1134033203125,-52.74916839599609,1.0,2.073754075126999e-07,0.8832100033760071,8.0,1.000044822692871,0.007011963054537773,132.5306854248047,9.999999747378752e-06,0.027404289692640305,1.0044160262623336e-05,-174.72015380859375,9.999999747378752e-06,0.0011535227531567216,422.5718994140625,-555.6935424804688,698.1134033203125,-52.74916839599609
21.0,1976.6566162109373,466.0196228027344,642.2211303710938,-642.2211303710938,793.4874267578125,-54.03396224975586,1.0,2.1898830482314227e-07,0.8896241784095763,8.0,1.002649188041687,0.007955539040267467,-155.60595703125,9.999999747378752e-06,0.00434029893949628,1.002604312816402e-05,-101.57200622558592,9.999999747378752e-06,0.0015330110909417272,466.0196228027344,-642.2211303710938,793.4874267578125,-54.03396224975586
22.0,1582.03125,514.1100463867188,738.4467773437501,-738.4467773437501,899.7848510742188,-55.1541862487793,1.0,2.7695031690200267e-07,0.8966866135597229,8.0,1.004546284675598,0.009014872834086418,80.9582290649414,9.999999747378752e-06,0.005451546981930733,1.0018919965659732e-05,136.11241149902344,9.999999747378752e-06,0.0013326735934242606,514.1100463867188,-738.4467773437501,899.7848510742188,-55.1541862487793
23.0,1253.6336669921875,571.7399291992188,859.2222900390626,-859.2222900390626,1032.060791015625,-56.35958480834961,1.0,2.7000720592695876e-07,0.9018426537513733,8.0,1.0052306652069092,0.010327639989554882,112.56512451171876,0.00015613551659043878,0.004177938215434551,1.0006812772189733e-05,168.92469787597656,9.999999747378752e-06,0.0015121938195079565,571.7399291992188,-859.2222900390626,1032.060791015625,-56.35958480834961
24.0,996.09375,637.5170288085938,1000.179931640625,-1000.179931640625,1186.0809326171875,-57.48646545410156,1.0,2.8625623826883384e-07,0.9058236479759216,8.0,1.0052498579025269,0.011861036531627178,-49.252071380615234,9.999999747378752e-06,0.006398727186024189,1.0000191650760824e-05,8.234397888183594,9.999999747378752e-06,0.0018263090169057248,637.5170288085938,-1000.179931640625,1186.0809326171875,-57.48646545410156
25.0,790.028076171875,714.1805419921875,1170.024658203125,-1170.024658203125,1370.7705078125,-58.600196838378906,1.0,2.829007712534804e-07,0.9117349982261655,8.0,1.0050530433654783,0.01370501983910799,-167.93751525878906,9.999999747378752e-06,0.00808621197938919,9.998041605285833e-06,-109.33731079101562,9.999999747378752e-06,0.002251944039016962,714.1805419921875,-1170.024658203125,1370.7705078125,-58.600196838378906
26.0,628.8109741210938,806.385986328125,1369.8896484375,-1369.8896484375,1589.6087646484375,-59.51679229736328,1.0,2.665593115125376e-07,0.9134485721588135,8.0,1.0059832334518433,0.0159108005464077,43.32914352416992,0.0004973822506144643,0.007403392344713211,1.0009255674958695e-05,102.84593963623045,9.999999747378752e-06,0.0012101528700441122,806.385986328125,-1369.8896484375,1589.6087646484375,-59.51679229736328
27.0,496.3235168457031,824.453857421875,1616.1224365234375,-1616.1224365234375,1814.2701416015625,-62.97190475463867,1.0,2.2075910521834885e-07,0.9179909825325011,8.0,0.977420687675476,0.01762758009135723,72.76495361328125,9.999999747378752e-06,0.005614499561488628,9.716072781884575e-06,135.7368621826172,9.999999747378752e-06,0.00038886815309524536,824.453857421875,-1616.1224365234375,1814.2701416015625,-62.97190475463867
28.0,395.3313293457031,939.0043334960936,1868.4964599609373,-1868.4964599609373,2091.173828125,-63.31839370727539,1.0,2.293212730819505e-07,0.9301735162734984,8.0,0.9980916976928712,0.021353989839553836,37.95072555541992,0.00033877536770887673,0.008768660947680473,1.0211485459876712e-05,101.26911926269533,9.999999747378752e-06,0.0004271841316949576,939.0043334960936,-1868.4964599609373,2091.173828125,-63.31839370727539
29.0,315.5048217773437,1087.753662109375,2213.886962890625,-2213.886962890625,2466.6787109375,-63.83363723754882,1.0,2.0814782430989e-07,0.9278280735015869,8.0,1.0053099393844604,0.0248451791703701,163.1493682861328,9.999999747378752e-06,0.01260155625641346,1.0072320947074331e-05,-133.01699829101562,9.999999747378752e-06,0.0005994459497742355,1087.753662109375,-2213.886962890625,2466.6787109375,-63.83363723754882
30.0,249.33511352539065,1261.4154052734375,2605.966552734375,-2605.966552734375,2895.208251953125,-64.17074584960938,1.0,1.995400822352167e-07,0.9320429563522339,8.0,1.005661129951477,0.028962193056941032,28.360855102539062,9.999999747378752e-06,0.014842736534774303,1.000349311652826e-05,92.53160095214845,9.999999747378752e-06,0.0009854749077931046,1261.4154052734375,-2605.966552734375,2895.208251953125,-64.17074584960938
31.0,198.6228790283203,1476.20556640625,3092.135498046875,-3092.135498046875,3426.439208984375,-64.47988891601562,1.0,1.9660569705592934e-07,0.928802490234375,8.0,1.0049412250518799,0.03423985838890076,14.059185981750488,0.0008397159981541334,0.018137274309992794,9.992841114581097e-06,78.53907775878906,9.999999747378752e-06,0.0008193787070922554,1476.20556640625,-3092.135498046875,3426.439208984375,-64.47988891601562
32.0,158.005615234375,1725.39794921875,3692.1958007812495,-3692.1958007812495,4075.451904296875,-64.95287322998047,1.0,1.853311033528371e-07,0.9246443510055541,8.0,1.0000240802764893,0.04055510833859444,70.99120330810547,0.0008998825796879829,0.02112703211605549,9.951070751412772e-06,135.9440765380859,9.999999747378752e-06,0.0011399653740227222,1725.39794921875,-3692.1958007812495,4075.451904296875,-64.95287322998047
33.0,125.5580368041992,1948.2482910156248,4252.904296875,-4252.904296875,4677.91259765625,-65.38756561279297,1.0,1.7899901649798267e-07,0.9396756291389464,8.0,0.991534948348999,0.04638201370835304,-164.4575958251953,0.001287989318370819,0.02574977651238441,9.915110240399374e-06,-99.07003784179688,9.999999747378752e-06,0.0012917560525238512,1948.2482910156248,-4252.904296875,4677.91259765625,-65.38756561279297
34.0,99.73403930664062,2203.769775390625,4766.17138671875,-4766.17138671875,5250.9990234375,-65.18524932861328,1.0,1.7231974425158114e-07,0.9711100459098818,8.0,0.9956753849983216,0.05272926762700081,-161.7033233642578,0.0016889988910406828,0.03308723494410515,1.0041758287115952e-05,-96.51808166503906,9.999999747378752e-06,0.000580485153477639,2203.769775390625,-4766.17138671875,5250.9990234375,-65.18524932861328
35.0,78.78150939941406,2553.6484375,5640.4033203125,-5640.4033203125,6191.54833984375,-65.64173126220703,1.0,1.584594997439126e-07,0.975395381450653,8.0,0.9963502287864685,0.06195744127035141,-160.18521118164062,0.002400591736659408,0.038016460835933685,1.0006777301896363e-05,-94.54347229003906,9.999999747378752e-06,0.0005547514883801341,2553.6484375,-5640.4033203125,6191.54833984375,-65.64173126220703
36.0,62.919464111328125,2903.186279296875,6543.5908203125,-6543.5908203125,7158.7060546875,-66.07463836669922,1.0,1.8810939650393266e-07,0.9859617352485656,8.0,0.9965246915817261,0.07159959524869919,-159.15467834472656,0.0032218010164797306,0.04360681027173996,1.0001751434174366e-05,-93.08003997802734,9.999999747378752e-06,0.0007898687617853283,2903.186279296875,-6543.5908203125,7158.7060546875,-66.07463836669922
37.0,49.86701965332031,3322.536376953125,7562.77392578125,-7562.77392578125,8260.435546875,-66.28278350830078,1.0,1.829445466228208e-07,1.003035306930542,8.0,0.9971755146980285,0.0826583132147789,-159.5722503662109,0.004217291716486216,0.05022496357560158,1.0006530828832185e-05,-93.28945922851561,9.999999747378752e-06,0.00042876708903349936,3322.536376953125,-7562.77392578125,8260.435546875,-66.28278350830078
38.0,39.72457504272461,3823.46484375,8872.4326171875,-8872.4326171875,9661.2080078125,-66.68697357177734,1.0,1.9929808559027154e-07,1.0094467401504517,8.0,0.997182548046112,0.09661276638507843,-158.99977111816406,0.005606736056506634,0.057278044521808624,1.0000070687965488e-05,-92.31279754638672,9.999999747378752e-06,0.0008341512293554841,3823.46484375,-8872.4326171875,9661.2080078125,-66.68697357177734
39.0,31.459732055664062,4376.85498046875,10279.1298828125,-10279.1298828125,11172.169921875,-66.9356918334961,1.0,2.4456392111460445e-07,1.0252360105514526,8.0,0.9973641037940979,0.1117420345544815,-158.49679565429688,0.007500292267650365,0.06626725196838379,1.00018205557717e-05,-91.56110382080078,9.999999747378752e-06,0.0008070938638411462,4376.85498046875,-10279.1298828125,11172.169921875,-66.9356918334961
40.0,24.93350982666016,5110.609375,12004.5927734375,-12004.5927734375,13047.1669921875,-66.93952178955078,1.0,2.2764183427170795e-07,1.0354423522949219,8.0,0.9978450536727904,0.13053458929061887,-157.91671752929688,0.01026821881532669,0.07769269496202467,1.0004821888287552e-05,-90.97720336914062,9.999999747378752e-06,0.0005503072170540689,5110.609375,-12004.5927734375,13047.1669921875,-66.93952178955078
41.0,19.862287521362305,5902.884765625,14018.283203125,-14018.283203125,15210.4013671875,-67.16477966308594,1.0,2.457630330354732e-07,1.0433719158172607,8.0,0.9974281787872313,0.1520404815673828,-157.6488800048828,0.013607829809188843,0.08831800520420073,9.995822438213507e-06,-90.48409271240233,9.999999747378752e-06,0.0008778310730122029,5902.884765625,-14018.283203125,15210.4013671875,-67.16477966308594
42.0,15.782828330993652,6953.77685546875,16459.009765625,-16459.009765625,17867.681640625,-67.09639739990233,1.0,2.3251131153756435e-07,1.047462821006775,8.0,0.9977892637252808,0.17874149978160858,-157.19189453125,0.018924964591860768,0.1045653149485588,1.0003620445786508e-05,-90.09548950195312,9.999999747378752e-06,0.0006629477138631046,6953.77685546875,-16459.009765625,17867.681640625,-67.09639739990233
43.0,12.466754913330078,8278.826171875,19617.974609375,-19617.974609375,21293.283203125,-67.12015533447266,1.0,2.3757063161156114e-07,1.0441582202911377,8.0,0.9979329109191895,0.21296346187591553,-156.9059600830078,0.026543954387307167,0.12309354543685912,1.0001439477491658e-05,-89.78581237792967,9.999999747378752e-06,0.00047150676255114377,8278.826171875,-19617.974609375,21293.283203125,-67.12015533447266
44.0,9.973403930664062,9721.2939453125,22891.83984375,-22891.83984375,24870.462890625,-66.99091339111328,1.0,2.2753313544399134e-07,1.0468493700027464,8.0,0.9982975125312803,0.2487954795360565,-156.56329345703125,0.03632070496678352,0.14425072073936462,1.0003653187595772e-05,-89.5723876953125,9.999999747378752e-06,0.000633201387245208,9721.2939453125,-22891.83984375,24870.462890625,-66.99091339111328
45.0,7.878151416778564,11999.1005859375,27563.568359375,-27563.568359375,30062.080078125,-66.4753189086914,1.0,2.129485068280701e-07,1.0323586463928223,8.0,0.9982695579528807,0.3006124198436737,-155.85093688964844,0.05263279005885124,0.17294582724571228,9.999720532505309e-06,-89.37561798095702,9.999999747378752e-06,0.00062987842829898,11999.1005859375,-27563.568359375,30062.080078125,-66.4753189086914
46.0,6.275100231170654,15233.02734375,34000.76171875,-34000.76171875,37257.17578125,-65.86665344238281,1.0,2.220754424797633e-07,0.9889470934867859,8.0,0.998454511165619,0.3726407289505005,-155.10888671875,0.07486200332641602,0.19848786294460297,1.0001852388086265e-05,-89.24222564697266,9.999999747378752e-06,0.0008506723679602145,15233.02734375,-34000.76171875,37257.17578125,-65.86665344238281
