# point,freq,zreal,reflected_zimag,zimag,zmod,zphz,zsig,Idc,Vdc,ie_range,gain,vmod,vphz,vsig,vthd,imod,iphz,isig,ithd,zreal_drift,zimag_drift,zmod_drift,zphz_drift
0.0,250019.53125,142.86070251464844,-7.768221378326416,7.768221378326416,143.07174682617188,3.1124613285064697,1.0,9.96730520341771e-08,0.4362316429615021,8.0,0.38683074712753296,0.0005534454830922185,159.23681640625,0.0005625719204545021,0.7889052629470825,3.868307430821004e-06,156.12435913085935,9.999999747378752e-06,0.02904464863240719,142.86070251464844,7.768221378326416,143.07174682617188,3.1124613285064697
1.0,198691.40625,142.03546142578125,5.020972728729248,-5.020972728729248,142.12417602539062,-2.02457046508789,1.0,7.582352878898747e-08,0.6275912523269653,8.0,0.43947607278823847,0.0016146644484251735,152.182373046875,9.999999747378752e-06,0.06607252359390259,1.1360939424776006e-05,154.20693969726562,9.999999747378752e-06,0.005558751989156008,142.03546142578125,-5.020972728729248,142.12417602539062,-2.02457046508789
2.0,157792.96875,139.4347381591797,20.502517700195312,-20.502517700195312,140.93402099609375,-8.364844322204588,1.0,1.0016808715818116e-07,0.6416832804679872,8.0,0.5089436173439026,0.0016321133589372039,-124.452880859375,9.999999747378752e-06,0.04100343957543373,1.158069062512368e-05,-116.08804321289062,9.999999747378752e-06,0.007692887447774409,139.4347381591797,-20.502517700195312,140.93402099609375,-8.364844322204588
3.0,125332.03125,145.0814208984375,27.716848373413082,-27.716848373413082,147.70526123046875,-10.815655708312988,1.0,1.3369842122301634e-07,0.704557240009308,8.0,0.5858295559883118,0.0017001902451738715,18.686899185180664,9.999999747378752e-06,0.05511578917503357,1.1510695912875237e-05,29.50255584716797,9.999999747378752e-06,0.012210648506879807,145.0814208984375,-27.716848373413082,147.70526123046875,-10.815655708312988
4.0,99550.78125,148.7916717529297,39.01642990112305,-39.01642990112305,153.82211303710935,-14.693394660949709,1.0,2.3995806941456976e-07,0.7209842205047606,8.0,0.6479840874671936,0.0017014211043715477,-3.8114504814147945,9.999999747378752e-06,0.02727273292839527,1.1060966244258452e-05,10.88194465637207,9.999999747378752e-06,0.003519904799759388,148.7916717529297,-39.01642990112305,153.82211303710935,-14.693394660949709
5.0,79160.15625,151.8994598388672,51.97869873046875,-51.97869873046875,160.54666137695312,-18.8905086517334,1.0,2.3484545863539097e-07,0.7385914921760558,8.0,0.7322677373886108,0.001814290531910956,-79.64017486572266,9.999999747378752e-06,0.07882753759622572,1.1300705409666987e-05,-60.74967193603516,9.999999747378752e-06,0.002246723510324955,151.8994598388672,-51.97869873046875,160.54666137695312,-18.8905086517334
6.0,62871.09375,158.03736877441406,64.0282974243164,-64.0282974243164,170.51519775390625,-22.055160522460938,1.0,2.4649193619552534e-07,0.7599766850471495,8.0,0.803081214427948,0.001870047766715288,-179.31338500976562,9.999999747378752e-06,0.018449047580361366,1.0967043635901064e-05,-157.2582244873047,9.999999747378752e-06,0.002677253214642405,158.03736877441406,-64.0282974243164,170.51519775390625,-22.055160522460938
7.0,49980.46875,163.95941162109375,78.15077209472656,-78.15077209472656,181.63214111328125,-25.48466682434082,1.0,2.243000665202999e-07,0.7670955061912536,8.0,0.8582547307014465,0.0019411067478358743,-167.40213012695312,9.999999747378752e-06,0.13431139290332794,1.0687022950151004e-05,-141.9174652099609,9.999999747378752e-06,0.006508265156298876,163.95941162109375,-78.15077209472656,181.63214111328125,-25.48466682434082
8.0,39667.96875,171.9197235107422,94.5380401611328,-94.5380401611328,196.19845581054688,-28.80623817443848,1.0,2.4352939931304723e-07,0.7683005332946777,8.0,0.8989214301109315,0.002054949291050434,-146.3691253662109,9.999999747378752e-06,0.013632405549287796,1.0473830116097815e-05,-117.56288146972656,9.999999747378752e-06,0.005872374866157769,171.9197235107422,-94.5380401611328,196.19845581054688,-28.80623817443848
9.0,31582.03125,180.0747833251953,112.72084045410156,-112.72084045410156,212.4450836181641,-32.045204162597656,1.0,2.513138781523594e-07,0.7754575014114381,8.0,0.9285075664520264,0.0021943727042526007,-54.94029235839844,9.999999747378752e-06,0.013906839303672312,1.0329129509045742e-05,-22.895095825195312,9.999999747378752e-06,0.0050921421498060235,180.0747833251953,-112.72084045410156,212.4450836181641,-32.045204162597656
10.0,25019.53125,189.89817810058597,132.42230224609375,-132.42230224609375,231.51022338867188,-34.88934326171875,1.0,2.489177006737009e-07,0.7829170823097229,8.0,0.9493796825408936,0.002367143984884024,92.43622589111328,9.999999747378752e-06,0.13604676723480225,1.0224792276858352e-05,127.32557678222656,9.999999747378752e-06,0.00683441199362278,189.89817810058597,-132.42230224609375,231.51022338867188,-34.88934326171875
11.0,19863.28125,202.16964721679688,156.6729736328125,-156.6729736328125,255.77134704589844,-37.7741813659668,1.0,2.693019780508621e-07,0.7889964580535888,8.0,0.9637717008590697,0.0025964868254959583,-176.90956115722656,9.999999747378752e-06,0.010261159390211104,1.015159341477556e-05,-139.1353759765625,9.999999747378752e-06,0.0038953146431595087,202.16964721679688,-156.6729736328125,255.77134704589844,-37.7741813659668
12.0,15682.8701171875,217.05253601074216,182.11143493652344,-182.11143493652344,283.33087158203125,-39.9973258972168,1.0,2.196585313640753e-07,0.8038246035575866,8.0,0.9759036302566528,0.0028689743485301733,72.36885070800781,0.00013466864766087383,0.010604158975183964,1.0125880180567036e-05,112.36618041992188,9.999999747378752e-06,0.002562076784670353,217.05253601074216,-182.11143493652344,283.33087158203125,-39.9973258972168
13.0,12597.65625,230.88253784179688,211.57891845703125,-211.57891845703125,313.1651306152344,-42.501895904541016,1.0,2.262966916077858e-07,0.8103849291801453,8.0,0.9839339852333069,0.003157420549541712,-34.3980598449707,9.999999747378752e-06,0.013732691295444964,1.0082286280521656e-05,8.103836059570312,9.999999747378752e-06,0.002535593695938587,230.88253784179688,-211.57891845703125,313.1651306152344,-42.501895904541016
14.0,9895.8330078125,252.71243286132807,245.68258666992188,-245.68258666992188,352.4535522460937,-44.19189834594727,1.0,1.894080412512267e-07,0.8138111829757689,8.0,0.9878641963005066,0.0035386139061301942,-52.67480850219727,9.999999747378752e-06,0.07521267980337144,1.0039943845185915e-05,-8.48291015625,9.999999747378752e-06,0.003024921286851168,252.71243286132807,-245.68258666992188,352.4535522460937,-44.19189834594727
15.0,7910.15625,273.3221130371094,285.3105163574219,-285.3105163574219,395.1038513183594,-46.22939300537109,1.0,2.3548143701646043e-07,0.8168027997016906,8.0,0.9932267069816588,0.0039724865928292274,-32.05323791503906,9.999999747378752e-06,0.005775812081992625,1.005428384814877e-05,14.176156997680664,9.999999747378752e-06,0.0030804299749433994,273.3221130371094,-285.3105163574219,395.1038513183594,-46.22939300537109
16.0,6307.87060546875,297.47216796875,327.2701416015625,-327.2701416015625,442.26171875,-47.730735778808594,1.0,1.942759553230644e-07,0.8274220824241638,8.0,0.9943543076515197,0.004427638370543718,32.6346549987793,9.999999747378752e-06,0.007636289577931165,1.0011352969740985e-05,80.36538696289062,9.999999747378752e-06,0.0030553906690329318,297.47216796875,-327.2701416015625,442.26171875,-47.730735778808594
17.0,4973.3232421875,326.8815002441406,383.6242065429688,-383.6242065429688,504.0030212402344,-49.56608963012695,1.0,2.1503230129837905e-07,0.8345689773559569,8.0,0.9652296304702759,0.004892407450824976,-73.27973175048828,9.999999747378752e-06,0.0038148523308336735,9.707099707156884e-06,-23.713642120361328,9.999999747378752e-06,0.0007979614310897887,326.8815002441406,-383.6242065429688,504.0030212402344,-49.56608963012695
18.0,3944.3598632812495,360.1268615722656,445.0946044921875,-445.0946044921875,572.5386962890625,-51.02361297607422,1.0,2.0635478392705409e-07,0.8382924795150756,8.0,0.9857533574104307,0.00584712577983737,28.627443313598633,9.999999747378752e-06,0.0021157802548259497,1.0212630513706245e-05,79.65105438232422,9.999999747378752e-06,0.001011607586406171,360.1268615722656,-445.0946044921875,572.5386962890625,-51.02361297607422
19.0,3144.054931640625,399.1758728027344,519.7366333007812,-519.7366333007812,655.3377075195312,-52.47447967529297,1.0,1.9665159811665947e-07,0.838317036628723,8.0,0.9947109222412108,0.006612928118556738,73.48534393310547,9.999999747378752e-06,0.03633119910955429,1.009087009151699e-05,125.95982360839844,9.999999747378752e-06,0.0008275845902971923,399.1758728027344,-519.7366333007812,655.3377075195312,-52.47447967529297
20.0,2488.426025390625,442.1617126464844,600.7537841796875,-600.7537841796875,745.9303588867188,-53.64650344848633,1.0,2.1145604023331546e-07,0.8474263548851013,8.0,0.9977406859397888,0.007482023444026707,129.9138946533203,9.999999747378752e-06,0.040369883179664605,1.0030458724941129e-05,-176.43960571289062,9.999999747378752e-06,0.0011723926290869713,442.1617126464844,-600.7537841796875,745.9303588867188,-53.64650344848633
21.0,1976.6566162109373,490.5348815917969,696.0380249023438,-696.0380249023438,851.524169921875,-54.82561874389648,1.0,2.011297226545139e-07,0.8532634377479553,8.0,1.001244068145752,0.008545140735805033,-157.13856506347656,0.0002082363498630002,0.0032166612800210714,1.00351126093301e-05,-102.31295013427734,9.999999747378752e-06,0.0009757789084687827,490.5348815917969,-696.0380249023438,851.524169921875,-54.82561874389648
22.0,1582.03125,546.93603515625,807.2160034179686,-807.2160034179686,975.0573120117188,-55.88006591796875,1.0,2.0673633116530254e-07,0.8561776876449586,8.0,1.0019972324371336,0.009757908061146736,80.71627807617188,9.999999747378752e-06,0.003841894213110209,1.0007523087551816e-05,136.5963592529297,9.999999747378752e-06,0.0013609980233013628,546.93603515625,-807.2160034179686,975.0573120117188,-55.88006591796875
23.0,1253.6336669921875,614.0844116210938,945.2431640625,-945.2431640625,1127.201904296875,-56.98992919921875,1.0,2.4345567339878476e-07,0.8589326739311217,8.0,1.0041518211364746,0.011296257376670836,111.1756591796875,0.00020647571363952008,0.0044943466782569885,1.0021502021118067e-05,168.16558837890625,9.999999747378752e-06,0.001525923958979547,614.0844116210938,-945.2431640625,1127.201904296875,-56.98992919921875
24.0,996.09375,690.1968383789064,1102.7315673828125,-1102.7315673828125,1300.9183349609375,-57.95766067504882,1.0,1.5614702419952664e-07,0.8622921109199525,8.0,1.0050034523010252,0.013020218349993227,-46.93693923950195,9.999999747378752e-06,0.005982783623039722,1.0008481694967484e-05,11.020713806152344,9.999999747378752e-06,0.0019173962064087393,690.1968383789064,-1102.7315673828125,1300.9183349609375,-57.95766067504882
25.0,790.028076171875,776.0706787109374,1279.9229736328125,-1279.9229736328125,1496.826171875,-58.76981735229492,1.0,1.5494700278395612e-07,0.8702392578125,8.0,1.0048449039459229,0.014965898357331753,-169.9264984130859,0.0002689705288503319,0.006783964112401009,9.998421774071176e-06,-111.15668487548828,9.999999747378752e-06,0.0023317160084843636,776.0706787109374,-1279.9229736328125,1496.826171875,-58.76981735229492
26.0,628.8109741210938,878.851318359375,1495.7149658203125,-1495.7149658203125,1734.803466796875,-59.56238555908203,1.0,1.7815648334362777e-07,0.8739847540855407,8.0,1.0046194791793823,0.017344145104289055,43.701335906982415,9.999999747378752e-06,0.007861100137233734,9.99775693344418e-06,103.26371765136717,9.999999747378752e-06,0.0019497725879773495,878.851318359375,-1495.7149658203125,1734.803466796875,-59.56238555908203
27.0,496.3235168457031,899.042724609375,1762.000732421875,-1762.000732421875,1978.111328125,-62.96752166748047,1.0,1.9324095035244682e-07,0.8788245916366577,8.0,0.9778907299041747,0.01925481855869293,73.72054290771484,0.0002367660636082292,0.006180138792842627,9.733941624290306e-06,136.6880645751953,9.999999747378752e-06,0.0004002258647233248,899.042724609375,-1762.000732421875,1978.111328125,-62.96752166748047
28.0,395.3313293457031,1037.0904541015625,2055.700927734375,-2055.700927734375,2302.49072265625,-63.22929382324219,1.0,2.031464703122765e-07,0.8854132890701294,8.0,0.9977906346321106,0.023493459448218346,38.00308227539063,0.0004330314113758504,0.009415693581104279,1.0203498277405743e-05,101.2323760986328,9.999999747378752e-06,0.0004922987427562475,1037.0904541015625,-2055.700927734375,2302.49072265625,-63.22929382324219
29.0,315.5048217773437,1210.7105712890625,2425.4111328125,-2425.4111328125,2710.800537109375,-63.47266006469727,1.0,2.2089611206865809e-07,0.8836404085159301,8.0,1.004068613052368,0.02727856859564781,163.7258148193359,9.999999747378752e-06,0.0122104836627841,1.0062919500342105e-05,-132.80152893066406,9.999999747378752e-06,0.0006347019225358963,1210.7105712890625,-2425.4111328125,2710.800537109375,-63.47266006469727
30.0,249.33511352539065,1414.0535888671875,2862.892578125,-2862.892578125,3193.071044921875,-63.71409606933594,1.0,2.760303345894499e-07,0.8864100575447081,8.0,1.00638210773468,0.032004281878471375,28.57777214050293,0.0008538641850464046,0.015367205254733562,1.0023040886153469e-05,92.2918701171875,9.999999747378752e-06,0.0007052162545733154,1414.0535888671875,-2862.892578125,3193.071044921875,-63.71409606933594
31.0,198.6228790283203,1646.0072021484375,3370.079833984375,-3370.079833984375,3750.5703125,-63.96828842163086,1.0,2.611431284549326e-07,0.8867286443710326,8.0,1.0055017471313477,0.037472892552614205,14.357583999633787,0.0010303197195753455,0.01937015913426876,9.991252227337101e-06,78.32587432861328,9.999999747378752e-06,0.0010386136127635837,1646.0072021484375,-3370.079833984375,3750.5703125,-63.96828842163086
32.0,158.005615234375,1878.0355224609373,3921.7509765625,-3921.7509765625,4348.23486328125,-64.41132354736328,1.0,2.4233685280705686e-07,0.8965927362442015,8.0,1.0004217624664307,0.04326266795396805,71.58748626708984,0.0010469050612300634,0.022135360166430477,9.949477316695264e-06,135.99880981445312,9.999999747378752e-06,0.0012277927016839385,1878.0355224609373,-3921.7509765625,4348.23486328125,-64.41132354736328
33.0,125.5580368041992,2141.721923828125,4565.81689453125,-4565.81689453125,5043.17919921875,-64.86978149414062,1.0,2.3804591364751107e-07,0.9051841497421264,8.0,0.9918841123580932,0.05000140890479088,-163.64564514160156,0.001289654173888266,0.02643478102982044,9.914660040521994e-06,-98.77586364746092,9.999999747378752e-06,0.0013056013267487288,2141.721923828125,-4565.81689453125,5043.17919921875,-64.86978149414062
34.0,99.73403930664062,2411.0478515625,5083.39208984375,-5083.39208984375,5626.19140625,-64.62506103515625,1.0,2.396645015778631e-07,0.9405519366264344,8.0,0.9955292344093322,0.0564686730504036,-161.17153930664062,0.0020353188738226886,0.032737404108047485,1.003674969979329e-05,-96.54647827148435,9.999999747378752e-06,0.0011761620407924056,2411.0478515625,-5083.39208984375,5626.19140625,-64.62506103515625
35.0,78.78150939941406,2772.2861328125,5922.16796875,-5922.16796875,6538.93310546875,-64.91476440429688,1.0,2.064652022681912e-07,0.9527830481529235,8.0,0.9963632822036744,0.06544411182403564,-159.45989990234375,0.0025659054517745967,0.038025129586458206,1.0008378012571484e-05,-94.5451431274414,9.999999747378752e-06,0.0009645209065638481,2772.2861328125,-5922.16796875,6538.93310546875,-64.91476440429688
36.0,62.919464111328125,3179.087646484375,6858.95654296875,-6858.95654296875,7559.88623046875,-65.13253784179688,1.0,1.6265798308268134e-07,0.9651604294776915,8.0,0.9965039491653441,0.07560953497886658,-158.23406982421875,0.0034680592361837626,0.04488299414515495,1.0001411283155903e-05,-93.1015167236328,9.999999747378752e-06,0.0005068450118415058,3179.087646484375,-6858.95654296875,7559.88623046875,-65.13253784179688
37.0,49.86701965332031,3683.546875,8047.03466796875,-8047.03466796875,8850.044921875,-65.40396881103516,1.0,1.5822386956187986e-07,0.9710506200790403,8.0,0.9971683025360109,0.08855944871902467,-158.6938323974609,0.004663942381739616,0.051785781979560845,1.0006667253037447e-05,-93.28987121582033,9.999999747378752e-06,0.000537338200956583,3683.546875,-8047.03466796875,8850.044921875,-65.40396881103516
38.0,39.72457504272461,4245.9208984375,9378.8359375,-9378.8359375,10295.1640625,-65.64311981201172,1.0,2.365426325923181e-07,0.9798225164413453,8.0,0.9969598650932312,0.10293012112379074,-157.99917602539062,0.006188278552144766,0.05943609774112701,9.997909728554077e-06,-92.35604858398435,9.999999747378752e-06,0.0004673958464991301,4245.9208984375,-9378.8359375,10295.1640625,-65.64311981201172
39.0,31.459732055664062,4992.482421875,11077.6650390625,-11077.6650390625,12150.7021484375,-65.73986053466797,1.0,2.2896915652381722e-07,0.9822794198989869,8.0,0.9969845414161682,0.12151001393795012,-157.32125854492188,0.0084941852837801,0.06870845705270767,1.0000247129937632e-05,-91.58140563964845,9.999999747378752e-06,0.0010019064648076892,4992.482421875,-11077.6650390625,12150.7021484375,-65.73986053466797
40.0,24.93350982666016,5859.92333984375,13024.134765625,-13024.134765625,14281.6943359375,-65.77568817138672,1.0,2.021102005755893e-07,0.9868605136871338,8.0,0.9975162148475648,0.14289309084415436,-156.74749755859375,0.011743219569325449,0.08114029467105865,1.0005333024309948e-05,-90.97180938720705,9.999999747378752e-06,0.000639035424683243,5859.92333984375,-13024.134765625,14281.6943359375,-65.77568817138672
41.0,19.862287521362305,6755.99560546875,15079.142578125,-15079.142578125,16523.439453125,-65.86591339111328,1.0,2.1065349642412914e-07,0.9973708391189576,8.0,0.9976203441619872,0.16525162756443024,-156.35861206054688,0.015500064939260483,0.09260270744562148,1.0001043847296385e-05,-90.49270629882812,9.999999747378752e-06,0.0008048390736803411,6755.99560546875,-15079.142578125,16523.439453125,-65.86591339111328
42.0,15.782828330993652,7915.50927734375,17589.0625,-17589.0625,19288.08984375,-65.77108764648438,1.0,1.6352106513295442e-07,1.0033992528915403,8.0,0.9977677464485168,0.19290940463542935,-155.88571166992188,0.02108033001422882,0.10793464630842207,1.0001477676269133e-05,-90.1146240234375,9.999999747378752e-06,0.000773715495597571,7915.50927734375,-17589.0625,19288.08984375,-65.77108764648438
43.0,12.466754913330078,9465.3857421875,20942.1015625,-20942.1015625,22981.84375,-65.67803955078125,1.0,1.929896313868085e-07,0.9970146417617796,8.0,0.9980309009552002,0.2298790067434311,-155.486572265625,0.02946874313056469,0.1265820264816284,1.0002637282013891e-05,-89.80852508544922,9.999999747378752e-06,0.0006328201270662248,9465.3857421875,-20942.1015625,22981.84375,-65.67803955078125
44.0,9.973403930664062,11450.671875,25019.560546875,-25019.560546875,27515.3828125,-65.40790557861328,1.0,2.4755556182753935e-07,0.9792184233665465,8.0,0.9979842901229857,0.27514100074768066,-154.9928741455078,0.0410761572420597,0.14746619760990143,9.999533176596742e-06,-89.58496856689453,9.999999747378752e-06,0.0010112838353961706,11450.671875,-25019.560546875,27515.3828125,-65.40790557861328
45.0,7.878151416778564,14079.0341796875,30194.669921875,-30194.669921875,33315.72265625,-65.00151824951172,1.0,1.9118095906378585e-07,0.9544969201087952,8.0,0.9979016780853271,0.3331296443939209,-154.3756561279297,0.057614073157310486,0.17086587846279144,9.999172107200138e-06,-89.37412261962889,9.999999747378752e-06,0.0009051989181898534,14079.0341796875,-30194.669921875,33315.72265625,-65.00151824951172
46.0,6.275100231170654,17392.892578125,36359.98828125,-36359.98828125,40305.84765625,-64.43576049804688,1.0,2.366792983821142e-07,0.9173742532730103,8.0,0.9975370168685912,0.40291118621826166,-153.64491271972656,0.07789862155914305,0.19102968275547028,9.996345397667028e-06,-89.20915222167967,9.999999747378752e-06,0.0013777208514511583,17392.892578125,-36359.98828125,40305.84765625,-64.43576049804688
