# point,freq,zreal,reflected_zimag,zimag,zmod,zphz,zsig,Idc,Vdc,ie_range,gain,vmod,vphz,vsig,vthd,imod,iphz,isig,ithd,zreal_drift,zimag_drift,zmod_drift,zphz_drift
0.0,250019.53125,4224.8388671875,-589.5463256835938,589.5463256835938,4265.77392578125,7.943923473358153,1.0,5.12678809627687e-07,0.3816844820976257,8.0,0.041671741753816605,0.01672171987593174,83.97488403320312,0.0028119287453591824,0.15751755237579343,3.91997355109197e-06,76.03096008300781,9.999999747378752e-06,0.15213477611541748,4224.8388671875,589.5463256835938,4265.77392578125,7.943923473358153
1.0,198691.40625,4188.642578125,-439.10571289062494,439.10571289062494,4211.595703125,5.984598159790039,1.0,4.881131303591247e-07,0.48990836739540095,8.0,0.05001245066523552,0.019813731312751767,-75.78325653076173,0.0037740538828074928,0.177152082324028,4.704566435975721e-06,-81.76785278320312,9.999999747378752e-06,0.1468839794397354,4188.642578125,439.10571289062494,4211.595703125,5.984598159790039
2.0,157792.96875,4172.8291015625,-323.52911376953125,323.52911376953125,4185.3525390625,4.43340539932251,1.0,5.100557700643549e-07,0.5514408946037292,8.0,0.0608711950480938,0.02396543323993683,-175.7654266357422,0.0038613060023635626,0.1535874456167221,5.7260258472524575e-06,179.80116271972656,9.999999747378752e-06,0.1354655474424362,4172.8291015625,323.52911376953125,4185.3525390625,4.43340539932251
3.0,125332.03125,4171.76904296875,-248.4255523681641,248.4255523681641,4179.1591796875,3.4078941345214844,1.0,5.187462193134706e-07,0.59322190284729,8.0,0.07472045719623564,0.02937445975840092,77.32296752929686,0.003964741714298725,0.13061916828155515,7.028796517261071e-06,73.91506958007811,9.112885663853377e-07,0.12528330087661743,4171.76904296875,248.4255523681641,4179.1591796875,3.4078941345214844
4.0,99550.78125,4150.40478515625,-142.31529235839844,142.31529235839844,4152.84423828125,1.9638741016387935,1.0,3.685120759655547e-07,0.6028738021850586,8.0,0.09039028733968735,0.035310905426740646,-96.62401580810547,0.002006295369938016,0.04573039710521697,8.502825039613526e-06,-98.587890625,9.999999747378752e-06,0.04617316648364067,4150.40478515625,142.31529235839844,4152.84423828125,1.9638741016387935
5.0,79160.15625,4158.3115234375,-78.93528747558594,78.93528747558594,4159.060546875,1.0874884128570557,1.0,3.2801852967168093e-07,0.6299115419387816,8.0,0.1139700412750244,0.04458896815776825,-172.3712158203125,0.0028447988443076606,0.06283598393201828,1.0720922546170186e-05,-173.45870971679688,9.999999747378752e-06,0.05873909965157509,4158.3115234375,78.93528747558594,4159.060546875,1.0874884128570557
6.0,62871.09375,4163.44580078125,-23.701025009155277,23.701025009155277,4163.51318359375,0.32616108655929565,1.0,2.7731891805160563e-07,0.6642497777938843,8.0,0.1533408910036087,0.05601795017719269,-95.94938659667967,0.0040813712403178215,0.0707472488284111,1.3454491636366583e-05,-96.27555084228516,9.525357995698868e-07,0.06975135952234268,4163.44580078125,23.701025009155277,4163.51318359375,0.32616108655929565
7.0,49980.46875,4172.5185546875,30.21083641052246,-30.21083641052246,4172.6279296875,-0.41483893990516657,1.0,1.9871725953635178e-07,0.6685540676116943,8.0,0.24360889196395877,0.0662895143032074,-132.47109985351562,0.004038797225803137,0.05984581634402275,1.5886753317317925e-05,-132.0562744140625,1.0665449963198623e-06,0.06631159037351608,4172.5185546875,-30.21083641052246,4172.6279296875,-0.41483893990516657
8.0,39667.96875,4183.12060546875,79.96302032470702,-79.96302032470702,4183.884765625,-1.0951119661331177,1.0,1.4303412854133057e-07,0.6562983393669128,8.0,0.41222837567329407,0.07079856097698212,14.901742935180664,0.0025501654017716646,0.034382980316877365,1.692172918410506e-05,15.996854782104492,9.999999747378752e-06,0.034777991473674774,4183.12060546875,-79.96302032470702,4183.884765625,-1.0951119661331177
9.0,31582.03125,4196.693359375,133.54428100585935,-133.54428100585935,4198.81787109375,-1.8226116895675657,1.0,1.3708185520044938e-07,0.6407073140144348,8.0,0.5628540515899657,0.0573303960263729,168.08071899414062,0.0005176702397875488,0.0025885039940476418,1.3653937458002474e-05,169.90333557128906,9.999999747378752e-06,0.009683635085821152,4196.693359375,-133.54428100585935,4198.81787109375,-1.8226116895675657
10.0,25019.53125,4214.32763671875,185.84289550781247,-185.84289550781247,4218.42333984375,-2.524986267089844,1.0,1.4881221943596756e-07,0.6355786323547363,8.0,0.6498757600784302,0.04870625212788582,-6.8702802658081055,0.0006737573421560228,0.012773821130394936,1.154607980424771e-05,-4.345293998718262,9.999999747378752e-06,0.013483965769410132,4214.32763671875,-185.84289550781247,4218.42333984375,-2.524986267089844
11.0,19863.28125,4230.1162109375,241.90252685546875,-241.90252685546875,4237.02734375,-3.272939682006836,1.0,1.333316674845264e-07,0.6275936961174011,8.0,0.7286793589591981,0.047508060932159424,75.06105804443358,0.0006475942209362984,0.001124095870181918,1.1212594472453928e-05,78.33399200439453,9.999999747378752e-06,0.0021353655029088254,4230.1162109375,-241.90252685546875,4237.02734375,-3.272939682006836
12.0,15682.8701171875,4258.43359375,315.80084228515625,-315.80084228515625,4270.126953125,-4.24122953414917,1.0,1.317601743267005e-07,0.6201884746551514,8.0,0.7968809604644774,0.0466979444026947,-25.706495285034176,0.000748680206015706,0.0014048792654648423,1.0935961654467972e-05,-21.465265274047848,9.999999747378752e-06,0.0035035936161875725,4258.43359375,-315.80084228515625,4270.126953125,-4.24122953414917
13.0,12597.65625,4255.181640625,387.8607177734375,-387.8607177734375,4272.82177734375,-5.208130836486816,1.0,1.5929785490698123e-07,0.6219049692153931,8.0,0.852901518344879,0.04573200643062592,-79.11676788330078,0.0005317559698596597,0.0018017463153228164,1.0702998224587644e-05,-73.90863800048828,9.999999747378752e-06,0.002065960085019469,4255.181640625,-387.8607177734375,4272.82177734375,-5.208130836486816
14.0,9895.8330078125,4312.29443359375,464.3787841796875,-464.3787841796875,4337.22607421875,-6.1463351249694815,1.0,1.8014830516221994e-07,0.631911039352417,8.0,0.8915974497795106,0.045340050011873245,-66.49755096435547,0.0006451967637985945,0.010594813153147696,1.0453697541379368e-05,-60.35121917724609,9.999999747378752e-06,0.0023541341070085764,4312.29443359375,-464.3787841796875,4337.22607421875,-6.1463351249694815
15.0,7910.15625,4354.0888671875,549.5162353515625,-549.5162353515625,4388.62841796875,-7.1930952072143555,1.0,1.6889995890778667e-07,0.6378344893455504,8.0,0.9208412766456605,0.04532572254538536,-36.612014770507805,0.000794414256233722,0.0012107607908546925,1.0327993550163228e-05,-29.41891860961914,9.999999747378752e-06,0.0035918515641242266,4354.0888671875,-549.5162353515625,4388.62841796875,-7.1930952072143555
16.0,6307.87060546875,4397.61376953125,653.9091796875,-653.9091796875,4445.96484375,-8.45770263671875,1.0,1.7983552424993834e-07,0.6379024386405945,8.0,0.9420397281646729,0.045483142137527466,29.939270019531246,0.00047516563790850336,0.0014831265434622765,1.0230207408312708e-05,38.39697265625,9.999999747378752e-06,0.002245343290269375,4397.61376953125,-653.9091796875,4445.96484375,-8.45770263671875
17.0,4973.3232421875,4464.408203125,791.0548095703125,-791.0548095703125,4533.95068359375,-10.048027992248535,1.0,1.7681827557680663e-07,0.6412519216537476,8.0,0.9273127913475037,0.04463071376085281,-55.42121505737305,0.0003850926586892456,0.0005258850287646055,9.843669431575107e-06,-45.37318801879882,9.999999747378752e-06,0.0008529273327440022,4464.408203125,-791.0548095703125,4533.95068359375,-10.048027992248535
18.0,3944.3598632812495,4531.69140625,931.7238159179688,-931.7238159179688,4626.482421875,-11.61821174621582,1.0,1.8523023470606859e-07,0.6465101838111876,8.0,0.9546267986297609,0.047627557069063194,54.75664520263672,9.999999747378752e-06,0.0009280700469389556,1.0294550520484336e-05,66.3748550415039,9.999999747378752e-06,0.0008297948515973985,4531.69140625,-931.7238159179688,4626.482421875,-11.61821174621582
19.0,3144.054931640625,4610.48876953125,1087.87158203125,-1087.87158203125,4737.09521484375,-13.276437759399414,1.0,1.9968717879237374e-07,0.6554616689682007,8.0,0.968394458293915,0.04805413633584976,97.07595825195312,0.0003504077030811459,0.009385143406689169,1.0144220141228288e-05,110.3523941040039,9.999999747378752e-06,0.0008792307926341891,4610.48876953125,-1087.87158203125,4737.09521484375,-13.276437759399414
20.0,2488.426025390625,4707.23046875,1273.162353515625,-1273.162353515625,4876.36767578125,-15.134645462036133,1.0,2.0124247157582434e-07,0.6630837917327881,8.0,0.9773329496383667,0.04921377822756767,147.80653381347656,0.0006788690225221217,0.012388174422085283,1.0092302545672283e-05,162.94119262695312,9.999999747378752e-06,0.0009508680086582899,4707.23046875,-1273.162353515625,4876.36767578125,-15.134645462036133
21.0,1976.6566162109373,4818.93408203125,1483.6578369140625,-1483.6578369140625,5042.15869140625,-17.112600326538082,1.0,2.024977163728181e-07,0.6702752113342285,8.0,0.9838495850563048,0.050757791846990585,-132.25927734375,9.999999747378752e-06,0.0014937559608370064,1.006667753244983e-05,-115.14667510986328,9.999999747378752e-06,0.0011327757965773344,4818.93408203125,-1483.6578369140625,5042.15869140625,-17.112600326538082
22.0,1582.03125,4946.2587890625,1722.590576171875,-1722.590576171875,5237.63232421875,-19.201250076293945,1.0,1.8214589658782643e-07,0.6739934086799622,8.0,0.9880831837654112,0.05260170623660088,106.46239471435545,0.0007189516327343881,0.001776580000296235,1.0043030670203734e-05,125.66363525390624,9.999999747378752e-06,0.00143412291072309,4946.2587890625,-1722.590576171875,5237.63232421875,-19.201250076293945
23.0,1253.6336669921875,5094.81640625,1993.4470214843752,-1993.4470214843752,5470.921875,-21.368898391723633,1.0,1.8362618448009013e-07,0.6843247413635254,8.0,0.989495813846588,0.05478743463754654,140.3538818359375,9.999999747378752e-06,0.002374487230554223,1.0014297004090622e-05,161.7227783203125,9.999999747378752e-06,0.0013751924270763991,5094.81640625,-1993.4470214843752,5470.921875,-21.368898391723633
24.0,996.09375,5267.93896484375,2311.328125,-2311.328125,5752.68798828125,-23.689645767211918,1.0,2.0958606228305146e-07,0.6912018656730652,8.0,0.9929718375205993,0.05772896483540535,-21.830837249755856,0.0008228661608882248,0.003185092005878687,1.003512898023473e-05,1.858808636665344,9.999999747378752e-06,0.00163136248011142,5267.93896484375,-2311.328125,5752.68798828125,-23.689645767211918
25.0,790.028076171875,5467.369140625,2719.003173828125,-2719.003173828125,6106.15283203125,-26.441835403442383,1.0,1.686410797674398e-07,0.6896615028381348,8.0,0.9946563839912415,0.06116511300206184,-143.68829345703125,0.0005258949822746217,0.005045775324106216,1.0016964552050922e-05,-117.24645233154295,9.999999747378752e-06,0.0015769280726090071,5467.369140625,-2719.003173828125,6106.15283203125,-26.441835403442383
26.0,628.8109741210938,5694.7841796875,3136.9384765625,-3136.9384765625,6501.611328125,-28.8479118347168,1.0,1.8198289808424306e-07,0.6973883509635925,8.0,0.9956026673316957,0.06507797539234161,69.75918579101562,0.0005781546933576465,0.006803139578551054,1.0009513971453998e-05,98.60710144042967,9.999999747378752e-06,0.001232231967151165,5694.7841796875,-3136.9384765625,6501.611328125,-28.8479118347168
27.0,496.3235168457031,5684.98193359375,3858.353271484375,-3858.353271484375,6870.65576171875,-34.16443634033203,1.0,1.7461732682022557e-07,0.7006250023841858,8.0,0.9688860774040222,0.06686284393072128,97.99012756347656,0.0007252250798046589,0.006015854422003031,9.731654245115353e-06,132.15457153320312,9.999999747378752e-06,0.0005288699176162481,5684.98193359375,-3858.353271484375,6870.65576171875,-34.16443634033203
28.0,395.3313293457031,6024.27294921875,4410.150390625,-4410.150390625,7466.008789062499,-36.206497192382805,1.0,1.5594790170325726e-07,0.7084102034568787,8.0,0.98917418718338,0.0762234479188919,62.48270034790039,0.0009656371548771857,0.010295508429408072,1.020939635054674e-05,98.68919372558592,9.999999747378752e-06,0.000620744249317795,6024.27294921875,-4410.150390625,7466.008789062499,-36.206497192382805
29.0,315.5048217773437,6416.3076171875,5129.2529296875,-5129.2529296875,8214.513671875,-38.6391487121582,1.0,1.5601297320699814e-07,0.7062686085700989,8.0,0.9968259930610656,0.08278057724237442,-173.6584320068359,0.0012007153127342463,0.014727206900715828,1.0077355000248645e-05,-135.019287109375,9.999999747378752e-06,0.0008732482092455028,6416.3076171875,-5129.2529296875,8214.513671875,-38.6391487121582
30.0,249.33511352539065,6858.01025390625,5943.06640625,-5943.06640625,9074.8193359375,-40.91179656982422,1.0,1.441513290956209e-07,0.7110984921455383,8.0,0.9988490343093872,0.09093236923217773,49.93347930908203,0.0019150960724800823,0.019914422184228897,1.0020295121648815e-05,90.84527587890624,9.999999747378752e-06,0.0011522137792780995,6858.01025390625,-5943.06640625,9074.8193359375,-40.91179656982422
31.0,198.6228790283203,7418.03955078125,7041.70751953125,-7041.70751953125,10228.0478515625,-43.509143829345696,1.0,1.4465354070125613e-07,0.7001314163208008,8.0,0.9980968236923216,0.10220345109701157,33.11820983886719,0.0027592426631599665,0.026057338342070576,9.992469131248072e-06,76.62734985351561,9.999999747378752e-06,0.0012704734690487385,7418.03955078125,-7041.70751953125,10228.0478515625,-43.509143829345696
32.0,158.005615234375,7920.42041015625,7998.24853515625,-7998.24853515625,11256.3330078125,-45.28012466430664,1.0,1.346473936791881e-07,0.7164841294288635,8.0,0.9958027601242064,0.11230461299419404,89.55224609375,0.0036860869731754065,0.032639503479003906,9.97701590677025e-06,134.83236694335935,9.999999747378752e-06,0.0013448052341118455,7920.42041015625,-7998.24853515625,11256.3330078125,-45.28012466430664
33.0,125.5580368041992,8612.0693359375,9341.369140625,-9341.369140625,12705.4677734375,-47.32617568969727,1.0,1.4544272630701016e-07,0.7163030505180359,8.0,0.9860441088676452,0.12580956518650055,-147.26925659179688,0.005084177944809198,0.03994345292448997,9.902001693262719e-06,-99.94308471679688,9.999999747378752e-06,0.0013642134144902227,8612.0693359375,-9341.369140625,12705.4677734375,-47.32617568969727
34.0,99.73403930664062,9250.791015625,10272.84375,-10272.84375,13824.1982421875,-47.996673583984375,1.0,1.5597348124174462e-07,0.7526136636734008,8.0,0.9911158084869384,0.13895303010940552,-144.8855743408203,0.007170688826590776,0.05033061280846596,1.0051435310742816e-05,-96.88890075683592,9.999999747378752e-06,0.0012934458209201691,9250.791015625,-10272.84375,13824.1982421875,-47.996673583984375
35.0,78.78150939941406,10221.169921875,12065.89453125,-12065.89453125,15813.2255859375,-49.73165130615234,1.0,1.4767881850730194e-07,0.7503243684768676,8.0,0.9917342066764832,0.15823091566562653,-144.5858612060547,0.009833105839788912,0.060525644570589066,1.0006238881032912e-05,-94.85420989990233,9.999999747378752e-06,0.0010442824568599463,10221.169921875,-12065.89453125,15813.2255859375,-49.73165130615234
36.0,62.919464111328125,11309.8466796875,14049.57421875,-14049.57421875,18036.162109375,-51.16608428955078,1.0,1.5623595572833437e-07,0.7487398982048034,8.0,0.9924662709236144,0.18049477040767667,-144.4894866943359,0.0132468668743968,0.07161802053451538,1.0007382115873042e-05,-93.32340240478516,9.999999747378752e-06,0.0012734318152070043,11309.8466796875,-14049.57421875,18036.162109375,-51.16608428955078
37.0,49.86701965332031,12637.841796875,16252.84765625,-16252.84765625,20588.10546875,-52.13217926025391,1.0,1.7695124654437677e-07,0.7481655478477478,8.0,0.9929398894309996,0.20597928762435916,-145.6376190185547,0.01741473376750946,0.08350829780101776,1.0004771866078954e-05,-93.50542449951172,9.999999747378752e-06,0.0014431200688704848,12637.841796875,-16252.84765625,20588.10546875,-52.13217926025391
38.0,39.72457504272461,14135.6259765625,18647.84375,-18647.84375,23399.95703125,-52.836780548095696,1.0,1.720776907632171e-07,0.7481664419174193,8.0,0.9940947294235228,0.23427170515060425,-145.36865234375,0.02276536077260971,0.09599489718675613,1.0011630365625024e-05,-92.53187561035155,9.999999747378752e-06,0.0018174365395680068,14135.6259765625,-18647.84375,23399.95703125,-52.836780548095696
39.0,31.459732055664062,15928.8046875,21388.51171875,-21388.51171875,26668.244140625,-53.32360076904297,1.0,1.8831765657978397e-07,0.7473748922348022,8.0,0.9943976402282714,0.26676374673843384,-145.06948852539062,0.0294673889875412,0.10913486778736115,1.0003047464124393e-05,-91.74588775634764,9.999999747378752e-06,0.0015213077422231436,15928.8046875,-21388.51171875,26668.244140625,-53.32360076904297
40.0,24.93350982666016,17952.896484375,24280.4921875,-24280.4921875,30196.833984375,-53.52093124389648,1.0,1.911439113655433e-07,0.7496790885925294,8.0,0.995396077632904,0.3022715449333191,-144.61878967285156,0.03779341280460358,0.1235140785574913,1.0010040568886325e-05,-91.09786224365233,9.999999747378752e-06,0.0017021386884152887,17952.896484375,-24280.4921875,30196.833984375,-53.52093124389648
41.0,19.862287521362305,20232.416015625,27472.12890625,-27472.12890625,34118.44921875,-53.62944793701172,1.0,2.034715151921773e-07,0.7485389709472656,8.0,0.9954592585563661,0.3412061333656311,-144.26077270507812,0.047201767563819885,0.13667868077754974,1.0000634574680587e-05,-90.6313247680664,9.999999747378752e-06,0.0016464573564007878,20232.416015625,-27472.12890625,34118.44921875,-53.62944793701172
42.0,15.782828330993652,22900.087890625,31112.236328125,-31112.236328125,38631.40234375,-53.64516448974609,1.0,1.8911522658981997e-07,0.7438077330589294,8.0,0.996133804321289,0.38657584786415106,-143.88278198242188,0.05864402651786804,0.14988712966442108,1.000677639240166e-05,-90.23761749267578,9.999999747378752e-06,0.0015141668263822792,22900.087890625,-31112.236328125,38631.40234375,-53.64516448974609
43.0,12.466754913330078,26229.78125,35542.55859375,-35542.55859375,44173.23828125,-53.57332992553711,1.0,1.6108864997477212e-07,0.7296571135520934,8.0,0.996475636959076,0.4418839514255524,-143.47772216796875,0.0726221352815628,0.16239109635353088,1.000343127088854e-05,-89.90438842773438,9.999999747378752e-06,0.001463749911636114,26229.78125,-35542.55859375,44173.23828125,-53.57332992553711
44.0,9.973403930664062,29933.248046875,40378.35546875,-40378.35546875,50263.41796875,-53.449752807617195,1.0,1.555071804659747e-07,0.7094571590423584,8.0,0.9968899488449096,0.5028431415557861,-143.11996459960935,0.08764100819826126,0.1722185909748077,1.0004157957155256e-05,-89.67021179199217,9.999999747378752e-06,0.0013924402883276343,29933.248046875,-40378.35546875,50263.41796875,-53.449752807617195
45.0,7.878151416778564,34444.69921875,46124.91796875,-46124.91796875,57566.87890625,-53.248733520507805,1.0,1.6276759140509967e-07,0.6792558431625366,8.0,0.9972018003463744,0.5758488774299622,-142.7157440185547,0.10389517992734908,0.17828133702278137,1.000312840915285e-05,-89.46700286865233,9.999999747378752e-06,0.0015396963572129607,34444.69921875,-46124.91796875,57566.87890625,-53.248733520507805
46.0,6.275100231170654,39371.76953125,52072.6875,-52072.6875,65281.70703125,-52.907344818115234,1.0,1.6922795964546822e-07,0.6403065919876099,8.0,0.9973647594451904,0.6529237627983093,-142.2102508544922,0.11755071580410004,0.17790287733078003,1.0001634109357836e-05,-89.30290222167967,9.999999747378752e-06,0.0013753393432125447,39371.76953125,-52072.6875,65281.70703125,-52.907344818115234
47.0,5.013369083404541,44381.8125,57746.41796875,-57746.41796875,72831.2734375,-52.45542144775391,1.0,1.8948902891224861e-07,0.6002184152603148,8.0,0.9976808428764344,0.7285435199737549,-141.63735961914062,0.1277458369731903,0.17326779663562775,1.000316933641443e-05,-89.18193817138672,9.999999747378752e-06,0.001166880363598466,44381.8125,-57746.41796875,72831.2734375,-52.45542144775391
