# point,freq,zreal,reflected_zimag,zimag,zmod,zphz,zsig,Idc,Vdc,ie_range,gain,vmod,vphz,vsig,vthd,imod,iphz,isig,ithd,zreal_drift,zimag_drift,zmod_drift,zphz_drift
0.0,250019.53125,4289.74560546875,-600.2014770507812,600.2014770507812,4331.53076171875,7.964856147766113,1.0,5.365786250877137e-07,0.3797089755535126,8.0,0.04110398516058922,0.01674814708530903,117.75447082519533,0.003401304828003049,0.19661438465118408,3.86656574846711e-06,109.78961944580078,9.999999747378752e-06,0.15331847965717316,4289.74560546875,600.2014770507812,4331.53076171875,7.964856147766113
1.0,198691.40625,4219.83251953125,-448.1436462402344,448.1436462402344,4243.56201171875,6.0620551109313965,1.0,6.031448265275685e-07,0.4618103802204132,8.0,0.04967011883854865,0.0198274664580822,-32.1523323059082,0.0037081176415085793,0.17919780313968658,4.672363957070047e-06,-38.214385986328125,9.999999747378752e-06,0.1422148197889328,4219.83251953125,448.1436462402344,4243.56201171875,6.0620551109313965
2.0,157792.96875,4235.52099609375,-309.9706115722656,309.9706115722656,4246.84814453125,4.185648918151856,1.0,5.845735699949729e-07,0.5258668065071106,8.0,0.06015101820230484,0.02402985841035843,-176.38099670410156,0.003815207863226533,0.15311384201049805,5.658280315401497e-06,179.43336486816406,9.999999747378752e-06,0.1334211528301239,4235.52099609375,309.9706115722656,4246.84814453125,4.185648918151856
3.0,125332.03125,4218.787109375,-259.6817932128906,259.6817932128906,4226.771484375,3.5223212242126465,1.0,5.628688199976751e-07,0.5704166889190674,8.0,0.07396622002124785,0.029409233480691906,114.9135055541992,0.00396534288302064,0.13158676028251648,6.957847290323116e-06,111.39118957519533,9.016359854285839e-07,0.1243765503168106,4218.787109375,259.6817932128906,4226.771484375,3.5223212242126465
4.0,99550.78125,4194.0927734375,-157.8319549560547,157.8319549560547,4197.0615234375,2.1551358699798584,1.0,3.7867042124162253e-07,0.5959088802337646,8.0,0.08954300731420517,0.03535236790776253,97.37518310546876,0.0017279913881793618,0.04706529527902603,8.42312329041306e-06,95.22004699707033,9.999999747378752e-06,0.04508201777935028,4194.0927734375,157.8319549560547,4197.0615234375,2.1551358699798584
5.0,79160.15625,4199.68310546875,-93.83403015136719,93.83403015136719,4200.73095703125,1.2799537181854248,1.0,3.495898113214935e-07,0.5941166281700134,8.0,0.11292539536952972,0.04462292045354843,114.74141693115234,0.002820220543071628,0.06138413399457932,1.0622655281622428e-05,113.46145629882812,9.999999747378752e-06,0.05874905735254288,4199.68310546875,93.83403015136719,4200.73095703125,1.2799537181854248
6.0,62871.09375,4203.859375,-34.46004867553711,34.46004867553711,4204.00048828125,0.469656765460968,1.0,3.233666632240784e-07,0.6262452602386475,8.0,0.15058588981628415,0.0560603067278862,-64.63613891601562,0.003996456041932106,0.07041610032320023,1.3334989489521831e-05,-65.10579681396484,9.461783179176564e-07,0.06995144486427307,4203.859375,34.46004867553711,4204.00048828125,0.469656765460968
7.0,49980.46875,4213.53369140625,18.361316680908203,-18.361316680908203,4213.57373046875,-0.2496762573719025,1.0,2.688780398329982e-07,0.6261196732521057,8.0,0.23826827108860013,0.06667031347751617,-128.410888671875,0.004873403813689947,0.0718483105301857,1.5822748537175357e-05,-128.16122436523435,1.0716365750340628e-06,0.066844142973423,4213.53369140625,-18.361316680908203,4213.57373046875,-0.2496762573719025
8.0,39667.96875,4224.74755859375,71.09296417236328,-71.09296417236328,4225.345703125,-0.9640676379203795,1.0,2.1394879468061845e-07,0.611592710018158,8.0,0.40430134534835815,0.07169703394174576,-58.16862869262695,0.0026650943327695127,0.03652918338775634,1.696832441666629e-05,-57.20455551147461,9.999999747378752e-06,0.036987293511629105,4224.74755859375,-71.09296417236328,4225.345703125,-0.9640676379203795
9.0,31582.03125,4246.70263671875,120.49839782714844,-120.49839782714844,4248.412109375,-1.625307559967041,1.0,1.897890200552865e-07,0.5928978323936462,8.0,0.5595130920410156,0.05879382416605949,-40.47065353393555,0.0004541278176475316,0.003053083317354321,1.3839011444360947e-05,-38.84534454345703,9.999999747378752e-06,0.008669932372868061,4246.70263671875,-120.49839782714844,4248.412109375,-1.625307559967041
10.0,25019.53125,4258.60205078125,170.11880493164062,-170.11880493164062,4261.99853515625,-2.287584066390991,1.0,1.771748827650299e-07,0.5882156491279602,8.0,0.6479517221450806,0.049356654286384576,100.76615142822264,0.0006224389071576297,0.012147318571805952,1.1580636055441572e-05,103.0537338256836,9.999999747378752e-06,0.01509091444313526,4258.60205078125,-170.11880493164062,4261.99853515625,-2.287584066390991
11.0,19863.28125,4280.78857421875,223.4825592041016,-223.4825592041016,4286.6181640625,-2.988466739654541,1.0,1.8576612603737885e-07,0.5907288193702698,8.0,0.7267700433731078,0.04808052256703377,173.96778869628906,0.000750747334677726,0.0011559851700440047,1.1216422535653692e-05,176.9562530517578,9.999999747378752e-06,0.0025685441214591265,4280.78857421875,-223.4825592041016,4286.6181640625,-2.988466739654541
12.0,15682.8701171875,4300.8359375,279.19830322265625,-279.19830322265625,4309.888671875,-3.7142710685729985,1.0,1.8968859194501417e-07,0.5925796031951904,8.0,0.7974535822868347,0.047290559858083725,47.806255340576165,0.000737934955395758,0.001520978519693017,1.0972570635203736e-05,51.520523071289055,9.999999747378752e-06,0.0037813889794051647,4300.8359375,-279.19830322265625,4309.888671875,-3.7142710685729985
13.0,12597.65625,4356.4794921875,375.5318908691406,-375.5318908691406,4372.63525390625,-4.926761627197266,1.0,1.994958864770524e-07,0.5953507423400879,8.0,0.8453476428985596,0.04635249823331833,-11.525617599487305,0.0006596316234208643,0.0012191184796392915,1.060058730217861e-05,-6.598855018615723,9.999999747378752e-06,0.003150282194837928,4356.4794921875,-375.5318908691406,4372.63525390625,-4.926761627197266
14.0,9895.8330078125,4364.17041015625,418.5353393554688,-418.5353393554688,4384.19384765625,-5.4780616760253915,1.0,1.9913731819087846e-07,0.5968405604362488,8.0,0.8922607898712158,0.046274978667497635,-25.42143440246582,0.0005324280937202275,0.012381352484226227,1.055495704349596e-05,-19.943374633789062,9.999999747378752e-06,0.0024508035276085134,4364.17041015625,-418.5353393554688,4384.19384765625,-5.4780616760253915
15.0,7910.15625,4400.56201171875,493.44479370117193,-493.44479370117193,4428.14111328125,-6.397976875305176,1.0,1.8638888832356318e-07,0.5973196029663086,8.0,0.9213481545448304,0.04572497308254242,5.6965675354003915,0.0005986176547594368,0.0010447654640302062,1.0325996299798135e-05,12.094544410705566,9.999999747378752e-06,0.002981612691655755,4400.56201171875,-493.44479370117193,4428.14111328125,-6.397976875305176
16.0,6307.87060546875,4444.3916015625,588.6390380859375,-588.6390380859375,4483.203125,-7.544649124145507,1.0,1.8154709380269201e-07,0.5951652526855469,8.0,0.9426116347312928,0.045866698026657104,59.368667602539055,0.00044538103975355625,0.0014032020699232817,1.0230786756437736e-05,66.91331481933594,9.999999747378752e-06,0.0025255633518099785,4444.3916015625,-588.6390380859375,4483.203125,-7.544649124145507
17.0,4973.3232421875,4499.46826171875,707.8734130859375,-707.8734130859375,4554.810546875,-8.940706253051756,1.0,1.840696057797686e-07,0.5951052904129028,8.0,0.9308434128761293,0.04497944563627243,-35.78595733642578,0.00031906855292618275,0.0005036111106164753,9.87515250017168e-06,-26.84524726867676,9.999999747378752e-06,0.0007280220161192118,4499.46826171875,-707.8734130859375,4554.810546875,-8.940706253051756
18.0,3944.3598632812495,4559.1796875,830.2706298828125,-830.2706298828125,4634.16357421875,-10.321010589599608,1.0,1.864888474756299e-07,0.5994645953178406,8.0,0.9572573900222777,0.04765664041042328,70.69554901123047,0.0006193669978529215,0.0006551150581799448,1.0283763913321309e-05,81.01656341552734,9.999999747378752e-06,0.00083034741692245,4559.1796875,-830.2706298828125,4634.16357421875,-10.321010589599608
19.0,3144.054931640625,4627.478515625,973.6622924804688,-973.6622924804688,4728.802734375,-11.882211685180664,1.0,1.9531483985701925e-07,0.6031822562217712,8.0,0.9717566370964049,0.048004284501075745,116.19833374023436,0.0005554400268010795,0.009662977419793602,1.0151466995012017e-05,128.08053588867188,9.999999747378752e-06,0.001064683310687542,4627.478515625,-973.6622924804688,4728.802734375,-11.882211685180664
20.0,2488.426025390625,4709.01513671875,1148.172119140625,-1148.172119140625,4846.970703125,-13.702733039855955,1.0,1.818230686012612e-07,0.6068020462989807,8.0,0.9811412692070008,0.04893779382109641,168.92665100097656,0.0007956137997098267,0.011631089262664318,1.0096573532791808e-05,-177.37062072753906,9.999999747378752e-06,0.001129399286583066,4709.01513671875,-1148.172119140625,4846.970703125,-13.702733039855955
21.0,1976.6566162109373,4801.6845703125,1353.0810546875,-1353.0810546875,4988.6875,-15.737464904785156,1.0,1.7943636976269772e-07,0.6069568395614624,8.0,0.9861079454421997,0.0501394085586071,-120.39085388183592,0.00031531022978015244,0.0012499131262302399,1.0050621312984733e-05,-104.65338897705078,9.999999747378752e-06,0.0010075976606458423,4801.6845703125,-1353.0810546875,4988.6875,-15.737464904785156
22.0,1582.03125,4909.52880859375,1583.19482421875,-1583.19482421875,5158.486328125,-17.87315559387207,1.0,1.925663042356973e-07,0.6110932230949402,8.0,0.9882961511611937,0.051699329167604446,114.79234313964844,0.0006644931854680181,0.0015425197780132292,1.0022190508607308e-05,132.66549682617188,9.999999747378752e-06,0.001113808830268681,4909.52880859375,-1583.19482421875,5158.486328125,-17.87315559387207
23.0,1253.6336669921875,5039.62646484375,1870.2171630859373,-1870.2171630859373,5375.45751953125,-20.360008239746094,1.0,1.9171211818047598e-07,0.61255943775177,8.0,0.99137145280838,0.05392184853553772,146.2665557861328,0.0004070637805853039,0.0019038375467062,1.003111719910521e-05,166.62657165527344,9.999999747378752e-06,0.001200682483613491,5039.62646484375,-1870.2171630859373,5375.45751953125,-20.360008239746094
24.0,996.09375,5185.8759765625,2202.04931640625,-2202.04931640625,5634.033203125,-23.007259368896484,1.0,1.8969701898186034e-07,0.6167520880699158,8.0,0.9947800040245056,0.05653404071927071,-16.62014389038086,0.0005417501670308411,0.0027281595394015312,1.0034382285084575e-05,6.387117385864258,9.999999747378752e-06,0.0008821518858894706,5185.8759765625,-2202.04931640625,5634.033203125,-23.007259368896484
25.0,790.028076171875,5368.5947265625,2596.06982421875,-2596.06982421875,5963.3369140625,-25.80683135986328,1.0,1.8003970581048634e-07,0.6206043362617493,8.0,0.9951335787773132,0.059654563665390015,-138.41473388671875,0.00035142683191224927,0.0034191978629678488,1.000355405267328e-05,-112.60789489746092,9.999999747378752e-06,0.0014500427059829235,5368.5947265625,-2596.06982421875,5963.3369140625,-25.80683135986328
26.0,628.8109741210938,5587.46435546875,3070.14306640625,-3070.14306640625,6375.38525390625,-28.78746795654297,1.0,1.8100479337590516e-07,0.6190853118896484,8.0,0.9962011575698851,0.06382223963737488,74.3736801147461,0.0005220272578299046,0.004270437639206648,1.0010728146880863e-05,103.16114044189452,9.999999747378752e-06,0.001540974830277264,5587.46435546875,-3070.14306640625,6375.38525390625,-28.78746795654297
27.0,496.3235168457031,5561.44970703125,3795.279541015625,-3795.279541015625,6733.04296875,-34.3106575012207,1.0,1.9295399056318277e-07,0.6269626617431641,8.0,0.9696320295333862,0.06553469598293304,101.04347229003906,0.0006137600285001099,0.0037902703043073416,9.733295883052051e-06,135.3541259765625,9.999999747378752e-06,0.00043005330371670414,5561.44970703125,-3795.279541015625,6733.04296875,-34.3106575012207
28.0,395.3313293457031,5895.5537109375,4410.9072265625,-4410.9072265625,7362.9921875,-36.802928924560554,1.0,1.8032960724667646e-07,0.6319571733474731,8.0,0.9901022315025328,0.07518433779478073,62.64435958862305,0.0008431869209744035,0.006275874096900225,1.0211112567048984e-05,99.44728088378906,9.999999747378752e-06,0.0006215425673872232,5895.5537109375,-4410.9072265625,7362.9921875,-36.802928924560554
29.0,315.5048217773437,6282.25048828125,5138.97900390625,-5138.97900390625,8116.38916015625,-39.2837028503418,1.0,1.840466268276941e-07,0.6340370774269104,8.0,0.9978954195976256,0.08180274069309233,-172.79847717285156,0.0007638129754923283,0.008869001641869545,1.0078711056848988e-05,-133.5147705078125,9.999999747378752e-06,0.000707517727278173,6282.25048828125,-5138.97900390625,8116.38916015625,-39.2837028503418
30.0,249.33511352539065,6753.55126953125,6064.88134765625,-6064.88134765625,9077.072265625,-41.92474365234375,1.0,1.974469086007957e-07,0.6310383677482605,8.0,0.9995946288108823,0.09092529118061064,49.77068328857422,0.0011975340312346816,0.012448938563466072,1.0017028216680046e-05,91.69542694091795,9.999999747378752e-06,0.0009384183795191348,6753.55126953125,-6064.88134765625,9077.072265625,-41.92474365234375
31.0,198.6228790283203,7255.14306640625,7015.5380859375,-7015.5380859375,10092.3173828125,-44.03809356689453,1.0,1.796904314232961e-07,0.6413253545761108,8.0,0.9986844062805176,0.1008312702178955,33.52107238769531,0.0016226813895627856,0.016131576150655746,9.9908938864246e-06,77.55916595458984,9.999999747378752e-06,0.0010362821631133556,7255.14306640625,-7015.5380859375,10092.3173828125,-44.03809356689453
32.0,158.005615234375,7937.47998046875,8364.6201171875,-8364.6201171875,11531.2822265625,-46.50089645385742,1.0,1.7869292889827193e-07,0.6252346634864807,8.0,0.9941699504852296,0.11479155719280242,89.00579071044922,0.0024171648547053337,0.020759554579854008,9.954796041711232e-06,135.50668334960935,9.999999747378752e-06,0.0013536905171349645,7937.47998046875,-8364.6201171875,11531.2822265625,-46.50089645385742
33.0,125.5580368041992,8737.017578125,9938.515625,-9938.515625,13232.8974609375,-48.68107604980469,1.0,1.9532130579591467e-07,0.6129814386367798,8.0,0.9855319261550904,0.13117919862270355,-147.96099853515625,0.003454982303082943,0.025907136499881744,9.913112990034278e-06,-99.27991485595705,9.999999747378752e-06,0.001189868082292378,8737.017578125,-9938.515625,13232.8974609375,-48.68107604980469
34.0,99.73403930664062,9583.1396484375,10977.54296875,-10977.54296875,14571.994140625,-48.87979888916016,1.0,1.9509896276304062e-07,0.6574527621269226,8.0,0.9909687042236328,0.1465238332748413,-145.7971038818359,0.005288317799568176,0.03504657372832298,1.005516605800949e-05,-96.91731262207033,9.999999747378752e-06,0.0008692944538779556,9583.1396484375,-10977.54296875,14571.994140625,-48.87979888916016
35.0,78.78150939941406,10655.638671875,12751.498046875,-12751.498046875,16617.560546875,-50.116580963134766,1.0,1.975053862679488e-07,0.6606943011283875,8.0,0.9915221333503724,0.16626842319965363,-144.9853363037109,0.007285913452506065,0.042762499302625656,1.000558495434234e-05,-94.86875152587889,9.999999747378752e-06,0.001283099642023444,10655.638671875,-12751.498046875,16617.560546875,-50.116580963134766
36.0,62.919464111328125,11842.796875,14582.638671875,-14582.638671875,18785.771484375,-50.91939163208008,1.0,1.974280081640245e-07,0.6642478704452515,8.0,0.9920889735221863,0.1879651099443436,-144.2569580078125,0.009927846491336823,0.05151340365409851,1.0005716831074096e-05,-93.33757019042967,9.999999747378752e-06,0.0011078785173594952,11842.796875,-14582.638671875,18785.771484375,-50.91939163208008
37.0,49.86701965332031,13349.0126953125,16811.779296875,-16811.779296875,21467.0,-51.54946517944336,1.0,1.9593068145695725e-07,0.6646296381950377,8.0,0.992948830127716,0.21485602855682373,-145.09423828125,0.013528206385672092,0.06214143335819244,1.0008667231886648e-05,-93.54478454589844,9.999999747378752e-06,0.0009618200710974632,13349.0126953125,-16811.779296875,21467.0,-51.54946517944336
38.0,39.72457504272461,15048.1748046875,19244.740234375,-19244.740234375,24429.646484375,-51.97683334350586,1.0,1.9591355737702545e-07,0.6626744866371155,8.0,0.9934636950492858,0.24442313611507413,-144.53689575195312,0.01808108761906624,0.07303422689437866,1.000518477667356e-05,-92.56006622314452,9.999999747378752e-06,0.0012148981913924215,15048.1748046875,-19244.740234375,24429.646484375,-51.97683334350586
39.0,31.459732055664062,17078.4296875,22044.65234375,-22044.65234375,27886.1875,-52.23434829711913,1.0,1.9366497383543901e-07,0.6584761142730713,8.0,0.9941293001174927,0.27904871106147766,-143.99766540527344,0.023933483287692073,0.08474543690681458,1.0006699994846713e-05,-91.76332855224608,9.999999747378752e-06,0.001521059894002974,17078.4296875,-22044.65234375,27886.1875,-52.23434829711913
40.0,24.93350982666016,19407.66796875,24944.123046875,-24944.123046875,31604.853515625,-52.115455627441406,1.0,2.0315573578955082e-07,0.6585896611213684,8.0,0.9950360655784608,0.3163368105888366,-143.26441955566406,0.031915884464979165,0.09965083748102188,1.0009121069742832e-05,-91.14897155761719,9.999999747378752e-06,0.0010140477679669857,19407.66796875,-24944.123046875,31604.853515625,-52.115455627441406
41.0,19.862287521362305,22130.4453125,28416.8359375,-28416.8359375,36017.67578125,-52.08927536010742,1.0,1.947469172591809e-07,0.6475880146026611,8.0,0.9954137802124025,0.36031350493431086,-142.72689819335935,0.041513796895742416,0.1138145551085472,1.0003795978263952e-05,-90.63761901855469,9.999999747378752e-06,0.0013125198893249035,22130.4453125,-28416.8359375,36017.67578125,-52.08927536010742
42.0,15.782828330993652,25343.6484375,32344.33203125,-32344.33203125,41090.83203125,-51.919258117675774,1.0,1.9240449944391003e-07,0.63381028175354,8.0,0.9960476160049438,0.4111699461936951,-142.1678466796875,0.05385890603065491,0.12941470742225647,1.0006368029280564e-05,-90.24859619140624,9.999999747378752e-06,0.001328406506218016,25343.6484375,-32344.33203125,41090.83203125,-51.919258117675774
43.0,12.466754913330078,29327.970703125,37156.16015625,-37156.16015625,47336.140625,-51.71538543701172,1.0,1.9573630538616274e-07,0.6095945239067078,8.0,0.996484875679016,0.4735692143440247,-141.6495361328125,0.06940143555402756,0.14479541778564453,1.0004389878304208e-05,-89.93414306640625,9.999999747378752e-06,0.0014561755815520883,29327.970703125,-37156.16015625,47336.140625,-51.71538543701172
44.0,9.973403930664062,33823.265625,42564.71484375,-42564.71484375,54366.9765625,-51.52824020385742,1.0,1.908735640654413e-07,0.5764381885528564,8.0,0.9968007802963258,0.5438421368598938,-141.21588134765625,0.08664102107286453,0.1574098169803619,1.0003170245909132e-05,-89.68765258789062,9.999999747378752e-06,0.00145529443398118,33823.265625,-42564.71484375,54366.9765625,-51.52824020385742
45.0,7.878151416778564,39257.55078125,49001.76953125,-49001.76953125,62787.96875,-51.30019378662109,1.0,1.8801911494392698e-07,0.5316158533096313,8.0,0.9968793988227843,0.6279292106628418,-140.77862548828125,0.1046319380402565,0.16464483737945557,1.0000788279285189e-05,-89.47843933105469,9.999999747378752e-06,0.0014499437529593706,39257.55078125,-49001.76953125,62787.96875,-51.30019378662109
46.0,6.275100231170654,44847.58984375,55398.78515625,-55398.78515625,71276.4453125,-51.0084114074707,1.0,1.8924556854926777e-07,0.4815799593925476,8.0,0.9973785877227784,0.7131213545799255,-140.33840942382812,0.11706668883562088,0.16221286356449127,1.0005007425206712e-05,-89.33000183105469,9.999999747378752e-06,0.0012222337536513803,44847.58984375,-55398.78515625,71276.4453125,-51.0084114074707
47.0,5.013369083404541,50416.984375,61215.53125,-61215.53125,79304.5625,-50.52519989013672,1.0,1.875617527957729e-07,0.42766696214675903,8.0,0.9977133274078368,0.793311834335327,-139.72592163085935,0.1219201236963272,0.1518656313419342,1.0003356692322996e-05,-89.20071411132812,9.999999747378752e-06,0.001223280094563961,50416.984375,-61215.53125,79304.5625,-50.52519989013672
