# point,freq,zreal,reflected_zimag,zimag,zmod,zphz,zsig,Idc,Vdc,ie_range,gain,vmod,vphz,vsig,vthd,imod,iphz,isig,ithd,zreal_drift,zimag_drift,zmod_drift,zphz_drift
0.0,250019.53125,4270.8408203125,114.81812286376952,-114.81812286376952,4272.38427734375,-1.5399800539016724,1.0,4.693391417731618e-07,0.20738327503204343,8.0,0.04080553725361824,0.016798339784145355,128.67684936523435,0.0035560193937271838,0.19751134514808652,3.838491466012783e-06,120.63951873779295,9.999999747378752e-06,0.16100873053073883,4270.8408203125,-114.81812286376952,4272.38427734375,-1.5399800539016724
1.0,198691.40625,4241.42822265625,63.93319320678711,-63.93319320678711,4241.91015625,-0.8635828495025634,1.0,5.029602903050545e-07,0.31610363721847534,8.0,0.049130961298942566,0.01991459168493748,86.41197204589844,0.004256558604538441,0.1833314597606659,4.6216464397730314e-06,79.6023941040039,9.999999747378752e-06,0.1399637907743454,4241.42822265625,-63.93319320678711,4241.91015625,-0.8635828495025634
2.0,157792.96875,4267.6318359375,119.23920440673828,-119.23920440673828,4269.29736328125,-1.600448727607727,1.0,4.5465736775440746e-07,0.4354023039340973,8.0,0.05943972244858742,0.02411849983036518,165.78414916992188,0.0038510814774781466,0.15317468345165253,5.5913701544341166e-06,161.25506591796875,9.999999747378752e-06,0.14137104153633115,4267.6318359375,-119.23920440673828,4269.29736328125,-1.600448727607727
3.0,125332.03125,4257.35546875,97.1593551635742,-97.1593551635742,4258.4638671875,-1.3073502779006958,1.0,4.449690038654808e-07,0.4943646192550659,8.0,0.07300200313329697,0.029444387182593346,116.68055725097656,0.004056189209222794,0.13250336050987244,6.867145657452056e-06,113.0967025756836,9.999999747378752e-06,0.12287234514951705,4257.35546875,-97.1593551635742,4258.4638671875,-1.3073502779006958
4.0,99550.78125,4266.0908203125,107.72272491455078,-107.72272491455078,4267.45068359375,-1.4464638233184814,1.0,3.376825361556257e-07,0.5438934564590454,8.0,0.08817366510629654,0.03541221097111701,106.60372924804688,0.0019097040640190244,0.04704834893345833,8.294311555800958e-06,104.39707946777344,9.999999747378752e-06,0.044900335371494286,4266.0908203125,-107.72272491455078,4267.45068359375,-1.4464638233184814
5.0,79160.15625,4263.4931640625,114.1350326538086,-114.1350326538086,4265.0205078125,-1.5334595441818235,1.0,3.072990466534975e-07,0.5374308228492737,8.0,0.1113373264670372,0.04468800872564316,123.59735870361328,0.002968292217701673,0.06347890198230743,1.047326895786682e-05,122.24565124511717,9.999999747378752e-06,0.058742400258779526,4263.4931640625,-114.1350326538086,4265.0205078125,-1.5334595441818235
6.0,62871.09375,4266.470703125,130.3894805908203,-130.3894805908203,4268.462890625,-1.7504966259002683,1.0,3.029929018794064e-07,0.6089485287666321,8.0,0.14627815783023834,0.05610353872179985,-68.10409545898438,0.0041322847828269005,0.07095512002706528,1.3138285794411784e-05,-68.63969421386719,9.420243145541464e-07,0.06976189464330673,4266.470703125,-130.3894805908203,4268.462890625,-1.7504966259002683
7.0,49980.46875,4277.005859375,148.47491455078125,-148.47491455078125,4279.58203125,-1.9882066249847408,1.0,2.531929226279317e-07,0.6337385773658752,8.0,0.22948361933231357,0.06716340780258179,-106.17051696777344,0.004997744224965572,0.07328802347183228,1.568816696817521e-05,-106.00019073486328,1.0985135077135055e-06,0.0691339522600174,4277.005859375,-148.47491455078125,4279.58203125,-1.9882066249847408
8.0,39667.96875,4283.66357421875,170.5330047607422,-170.5330047607422,4287.056640625,-2.279746055603028,1.0,2.050647793794269e-07,0.6404810547828673,8.0,0.39069116115570074,0.07300791144371031,63.056396484375,0.003036112291738391,0.040185727179050446,1.7024794942699373e-05,63.89113235473633,9.999999747378752e-06,0.04150485247373581,4283.66357421875,-170.5330047607422,4287.056640625,-2.279746055603028
9.0,31582.03125,4298.00048828125,197.39747619628903,-197.39747619628903,4302.53125,-2.629618167877197,1.0,1.7437079691262625e-07,0.6402923464775084,8.0,0.5549783110618591,0.061131305992603295,-82.03273773193358,0.0007701853173784911,0.004024149384349585,1.4205039406078868e-05,-80.55571746826173,9.999999747378752e-06,0.011866304092109203,4298.00048828125,-197.39747619628903,4302.53125,-2.629618167877197
10.0,25019.53125,4311.78662109375,233.35459899902344,-233.35459899902344,4318.0966796875,-3.097834825515747,1.0,1.6536235136754843e-07,0.6411544680595398,8.0,0.6442815065383911,0.05013730749487877,137.7738494873047,0.0008048498420976102,0.014133458957076073,1.1609128705458716e-05,139.95700073242188,9.999999747378752e-06,0.015019640326499937,4311.78662109375,-233.35459899902344,4318.0966796875,-3.097834825515747
11.0,19863.28125,4332.3466796875,277.44097900390625,-277.44097900390625,4341.22119140625,-3.664185285568237,1.0,1.76350013703086e-07,0.6478738188743591,8.0,0.7233058810234071,0.04874223843216896,-99.18611145019533,0.0006834193482063711,0.00107720959931612,1.1226550668652637e-05,-96.24909973144531,9.999999747378752e-06,0.0022846520878374577,4332.3466796875,-277.44097900390625,4341.22119140625,-3.664185285568237
12.0,15682.8701171875,4352.20947265625,325.2200012207031,-325.2200012207031,4364.34375,-4.273499965667725,1.0,1.5296933497666032e-07,0.652514398097992,8.0,0.7942975759506226,0.04793042689561844,-102.746337890625,0.0004551766032818705,0.001305811572819948,1.0981489140249325e-05,-99.04756164550781,9.999999747378752e-06,0.002348148263990879,4352.20947265625,-325.2200012207031,4364.34375,-4.273499965667725
13.0,12597.65625,4374.8076171875,380.0377807617188,-380.0377807617188,4391.283203125,-4.9647979736328125,1.0,1.3578349467024966e-07,0.6590775847434998,8.0,0.8468360900878905,0.04681966453790665,-137.40126037597656,0.0005762960063293576,0.0013332717353478074,1.0661446140147744e-05,-132.8984222412109,9.999999747378752e-06,0.002088770503178239,4374.8076171875,-380.0377807617188,4391.283203125,-4.9647979736328125
14.0,9895.8330078125,4409.33984375,452.45318603515625,-452.45318603515625,4432.49267578125,-5.858755111694336,1.0,1.1616238282385893e-07,0.6645021438598633,8.0,0.8909507989883424,0.046635374426841736,-144.25628662109375,0.0006296745850704609,0.013798043131828308,1.052093557518674e-05,-138.76058959960935,9.999999747378752e-06,0.003626415040344,4409.33984375,-452.45318603515625,4432.49267578125,-5.858755111694336
15.0,7910.15625,4442.7939453125,529.237060546875,-529.237060546875,4474.205078125,-6.793209552764893,1.0,1.1545798628276317e-07,0.6731515526771545,8.0,0.9206749200820922,0.046235650777816766,-100.95378112792967,0.0006413049413822591,0.0011691071558743715,1.03336224128725e-05,-94.45086669921875,9.999999747378752e-06,0.0023638082202523942,4442.7939453125,-529.237060546875,4474.205078125,-6.793209552764893
16.0,6307.87060546875,4489.7314453125,616.2120361328125,-616.2120361328125,4531.8212890625,-7.814972877502441,1.0,1.1672951671926057e-07,0.6809239983558655,8.0,0.9426134824752808,0.04639867320656776,-14.793692588806152,0.0007222602143883705,0.001572424778714776,1.023828826873796e-05,-7.2102575302124015,9.999999747378752e-06,0.0013994112377986312,4489.7314453125,-616.2120361328125,4531.8212890625,-7.814972877502441
17.0,4973.3232421875,4540.38720703125,731.7332763671875,-731.7332763671875,4598.97265625,-9.15512466430664,1.0,1.1232961583118595e-07,0.6806719303131104,8.0,0.9295476675033568,0.0454128086566925,-102.7681655883789,0.0005472236662171781,0.0007748971693217753,9.861387297860345e-06,-93.71302032470705,9.999999747378752e-06,0.0005482836277224123,4540.38720703125,-731.7332763671875,4598.97265625,-9.15512466430664
18.0,3944.3598632812495,4602.16259765625,861.0825195312499,-861.0825195312499,4682.025390625,-10.597729682922363,1.0,1.2319345898959e-07,0.6835127472877502,8.0,0.9570634961128234,0.048253923654556274,16.60279655456543,0.000375373667338863,0.000449178769486025,1.0296012987964787e-05,27.100292205810543,9.999999747378752e-06,0.0007110529695637524,4602.16259765625,-861.0825195312499,4682.025390625,-10.597729682922363
19.0,3144.054931640625,4675.1884765625,1004.4200439453124,-1004.4200439453124,4781.86669921875,-12.125147819519041,1.0,1.4177159357586788e-07,0.6911943554878235,8.0,0.9705822467803955,0.04852739349007607,66.79163360595703,0.0005359984934329987,0.011718026362359524,1.0141252460016403e-05,78.82567596435545,9.999999747378752e-06,0.0008125852909870445,4675.1884765625,-1004.4200439453124,4781.86669921875,-12.125147819519041
20.0,2488.426025390625,4761.5185546875,1180.297119140625,-1180.297119140625,4905.62548828125,-13.921999931335447,1.0,1.311913422341604e-07,0.6940152645111084,8.0,0.9794824719429016,0.04952847957611084,131.62416076660156,0.0004309618088882416,0.0101672550663352,1.0091699550685009e-05,145.4680633544922,9.999999747378752e-06,0.0012139950413256884,4761.5185546875,-1180.297119140625,4905.62548828125,-13.921999931335447
21.0,1976.6566162109373,4863.20703125,1394.1912841796875,-1394.1912841796875,5059.10595703125,-15.996615409851074,1.0,1.2469003252135738e-07,0.6889976263046265,8.0,0.9853944182395936,0.050911370664834976,-147.8510284423828,0.0004887692630290985,0.0013178938534110785,1.0060358363261912e-05,-131.9194183349609,9.999999747378752e-06,0.0009579925681464374,4863.20703125,-1394.1912841796875,5059.10595703125,-15.996615409851074
22.0,1582.03125,4977.890625,1640.9053955078125,-1640.9053955078125,5241.37060546875,-18.244220733642575,1.0,1.352310619040509e-07,0.6842288970947266,8.0,0.9888982176780701,0.052610144019126885,99.4152374267578,0.00067322637187317,0.0019017765298485756,1.0035557352239266e-05,117.60594177246092,9.999999747378752e-06,0.0014045945135876536,4977.890625,-1640.9053955078125,5241.37060546875,-18.244220733642575
23.0,1253.6336669921875,5116.75732421875,1926.7047119140625,-1926.7047119140625,5467.4853515625,-20.633764266967773,1.0,1.470144326276568e-07,0.6864311695098877,8.0,0.9910602569580078,0.054801058024168015,133.90382385253906,9.999999747378752e-06,0.00253539951518178,1.0021863090514673e-05,154.49440002441406,9.999999747378752e-06,0.001397067098878324,5116.75732421875,-1926.7047119140625,5467.4853515625,-20.633764266967773
24.0,996.09375,5271.69287109375,2248.172119140625,-2248.172119140625,5731.0576171875,-23.096363067626957,1.0,1.7581407973921162e-07,0.6911022067070007,8.0,0.9938281774520874,0.057475075125694275,-25.612749099731445,0.0008592917583882808,0.003369117621332407,1.0027928510680795e-05,-2.5510857105255127,9.999999747378752e-06,0.0012894304236397147,5271.69287109375,-2248.172119140625,5731.0576171875,-23.096363067626957
25.0,790.028076171875,5458.10546875,2623.50341796875,-2623.50341796875,6055.88037109375,-25.67182159423828,1.0,1.8809291191246305e-07,0.6959288120269775,8.0,0.9960327148437501,0.06069609895348549,-146.3279266357422,0.000769101083278656,0.005225213244557381,1.0022182323154992e-05,-120.6838150024414,9.999999747378752e-06,0.0012636322062462568,5458.10546875,-2623.50341796875,6055.88037109375,-25.67182159423828
26.0,628.8109741210938,5661.32421875,3025.51806640625,-3025.51806640625,6419.0615234375,-28.12088394165039,1.0,1.8265454571064765e-07,0.7055332660675049,8.0,0.9977774024009703,0.06430505216121674,65.90237426757812,0.0008027735748328269,0.00687538692727685,1.0017516615334898e-05,94.0010986328125,9.999999747378752e-06,0.0010538744973018763,5661.32421875,-3025.51806640625,6419.0615234375,-28.12088394165039
27.0,496.3235168457031,5903.3525390625,3538.184814453125,-3538.184814453125,6882.46484375,-30.93644142150879,1.0,1.819728510099594e-07,0.7109873294830321,8.0,0.9695218801498413,0.06555086374282837,96.13345336914062,0.0008333746809512376,0.006399170961230992,9.716814929561226e-06,129.59800720214844,9.999999747378752e-06,0.00038450185093097383,5903.3525390625,-3538.184814453125,6882.46484375,-30.93644142150879
28.0,395.3313293457031,6155.203125,4077.425537109375,-4077.425537109375,7383.21923828125,-33.52191162109375,1.0,1.896153776215215e-07,0.7210519313812256,8.0,0.9902262687683104,0.07451730966567993,59.078289031982415,0.0010458797914907336,0.010490894317626951,1.0213552741333842e-05,94.68711853027344,9.999999747378752e-06,0.0006300190580077468,6155.203125,-4077.425537109375,7383.21923828125,-33.52191162109375
29.0,315.5048217773437,6470.62109375,4819.42236328125,-4819.42236328125,8068.19482421875,-36.6793327331543,1.0,1.9126517258882814e-07,0.7176225185394287,8.0,0.9963324069976807,0.0806025043129921,-174.8914794921875,0.0013283583102747796,0.015591890551149843,1.0061664397653656e-05,-136.52896118164062,9.999999747378752e-06,0.0007959905778989197,6470.62109375,-4819.42236328125,8068.19482421875,-36.6793327331543
30.0,249.33511352539065,6817.84619140625,5586.86181640625,-5586.86181640625,8814.5361328125,-39.33279037475586,1.0,1.783733978300006e-07,0.7281422615051268,8.0,1.0008602142333984,0.08817106485366821,48.405609130859375,0.0018329742597416043,0.020804537460207936,1.004544446914224e-05,89.07059478759764,9.999999747378752e-06,0.0011086848098784683,6817.84619140625,-5586.86181640625,8814.5361328125,-39.33279037475586
31.0,198.6228790283203,7141.66552734375,6334.31640625,-6334.31640625,9546.0439453125,-41.57149505615234,1.0,1.9097829806469238e-07,0.7490699887275696,8.0,0.998612344264984,0.09499835968017578,32.830780029296875,0.002519692061468959,0.026606064289808277,9.977540685213171e-06,75.46218872070312,9.999999747378752e-06,0.0012274776818230748,7141.66552734375,-6334.31640625,9546.0439453125,-41.57149505615234
32.0,158.005615234375,7696.880859375,7656.147460937501,-7656.147460937501,10856.2685546875,-44.8479881286621,1.0,1.8776330534819865e-07,0.7353639006614685,8.0,0.9943724870681762,0.10792778432369232,88.17262268066406,0.0037080131005495782,0.033858511596918106,9.95754271571059e-06,133.8623809814453,9.999999747378752e-06,0.0013381390599533916,7696.880859375,-7656.147460937501,10856.2685546875,-44.8479881286621
33.0,125.5580368041992,8134.35009765625,8725.599609375,-8725.599609375,11929.11328125,-47.00844192504882,1.0,1.7123255702244933e-07,0.7543433308601379,8.0,0.9848723411560057,0.11803314089775084,-148.12451171875,0.0049899620935320846,0.0415390059351921,9.904460966936313e-06,-100.44808959960936,9.999999747378752e-06,0.0013391083339229226,8134.35009765625,-8725.599609375,11929.11328125,-47.00844192504882
34.0,99.73403930664062,8538.21484375,9352.1337890625,-9352.1337890625,12663.4716796875,-47.6048698425293,1.0,1.4649185686721466e-07,0.8056131601333617,8.0,0.9920954108238221,0.12748363614082336,-144.99346923828125,0.006555378902703524,0.05012231320142745,1.0073339581140315e-05,-96.85855102539062,9.999999747378752e-06,0.0011083008721470833,8538.21484375,-9352.1337890625,12663.4716796875,-47.6048698425293
35.0,78.78150939941406,9219.681640625,10923.6455078125,-10923.6455078125,14294.3544921875,-49.835254669189446,1.0,1.4998165909219097e-07,0.8134791851043701,8.0,0.99282968044281,0.14299382269382477,-145.07614135742188,0.008799451403319836,0.06010353937745094,1.000740121526178e-05,-94.82249450683592,9.999999747378752e-06,0.0011685460340231657,9219.681640625,-10923.6455078125,14294.3544921875,-49.835254669189446
36.0,62.919464111328125,10022.7861328125,12639.376953125,-12639.376953125,16131.029296875,-51.586250305175774,1.0,1.3521689368189982e-07,0.8205711245536803,8.0,0.993233323097229,0.16133609414100647,-145.1988067626953,0.011791338212788103,0.07127615809440613,1.0004066098190378e-05,-93.27855682373047,9.999999747378752e-06,0.0009596197633072733,10022.7861328125,-12639.376953125,16131.029296875,-51.586250305175774
37.0,49.86701965332031,10980.080078125,14796.4658203125,-14796.4658203125,18425.458984375,-53.42183303833008,1.0,1.221275169882574e-07,0.8236495852470398,8.0,0.9939959049224851,0.18436758220195767,-147.15594482421875,0.015688637271523476,0.0840471014380455,1.0007677701651119e-05,-93.46949005126952,9.999999747378752e-06,0.001259335782378912,10980.080078125,-14796.4658203125,18425.458984375,-53.42183303833008
38.0,39.72457504272461,12163.552734375,17378.123046875,-17378.123046875,21212.052734375,-55.0104866027832,1.0,1.1607890826326185e-07,0.8205670118331909,8.0,0.9944050908088685,0.21218709647655487,-147.72018432617188,0.021141599863767624,0.09840609878301619,1.0004116120398976e-05,-92.4990463256836,9.999999747378752e-06,0.0014640692388638854,12163.552734375,-17378.123046875,21212.052734375,-55.0104866027832
39.0,31.459732055664062,13594.9169921875,20366.443359375,-20366.443359375,24487.01171875,-56.276275634765625,1.0,1.2671667093400174e-07,0.8186429142951965,8.0,0.9946532845497132,0.24491626024246213,-148.14210510253906,0.028429966419935223,0.11469633877277374,1.0002496310335118e-05,-91.69902801513673,9.999999747378752e-06,0.001641379203647375,13594.9169921875,-20366.443359375,24487.01171875,-56.276275634765625
40.0,24.93350982666016,15300.1748046875,23651.921875,-23651.921875,28169.2890625,-57.10160446166992,1.0,1.3474446802774764e-07,0.8190993666648864,8.0,0.9950686693191528,0.28179964423179626,-148.30657958984375,0.03798240795731544,0.13314327597618103,1.0004176147049291e-05,-91.07278442382812,9.999999747378752e-06,0.0014843727694824336,15300.1748046875,-23651.921875,28169.2890625,-57.10160446166992
41.0,19.862287521362305,17300.6640625,27501.068359375,-27501.068359375,32490.333984375,-57.82638931274414,1.0,1.4372098178228046e-07,0.8139959573745726,8.0,0.9954426288604736,0.32501745223999023,-148.53213500976562,0.04984145238995552,0.1515071392059326,1.0003757779486476e-05,-90.60045623779295,9.999999747378752e-06,0.0018371472833678129,17300.6640625,-27501.068359375,32490.333984375,-57.82638931274414
42.0,15.782828330993652,19605.419921875,31714.828125,-31714.828125,37285.42578125,-58.27653884887695,1.0,1.6846686889948614e-07,0.813259720802307,8.0,0.9960607290267944,0.3730800151824951,-148.56651306152344,0.06499330699443817,0.17211869359016418,1.0006209777202455e-05,-90.20630645751952,9.999999747378752e-06,0.0017532088095322251,19605.419921875,-31714.828125,37285.42578125,-58.27653884887695
43.0,12.466754913330078,22930.205078125,37393.671875,-37393.671875,43864.34765625,-58.4829216003418,1.0,1.498238759722881e-07,0.7944399118423462,8.0,0.9964008927345277,0.43878901004791254,-148.43841552734375,0.08642363548278809,0.19460034370422363,1.0003414899983907e-05,-89.88941192626953,9.999999747378752e-06,0.001467981724999845,22930.205078125,-37393.671875,43864.34765625,-58.4829216003418
44.0,9.973403930664062,27085.388671875,43918.90625,-43918.90625,51599.30859375,-58.33730316162109,1.0,1.5573846212646458e-07,0.7613751292228698,8.0,0.9965806603431699,0.5160830020904541,-148.05186462402344,0.11001381278038024,0.210638090968132,1.0001804184867067e-05,-89.66168975830078,9.999999747378752e-06,0.0018018970731645825,27085.388671875,-43918.90625,51599.30859375,-58.33730316162109
45.0,7.878151416778564,32159.517578125,50723.859375,-50723.859375,60059.5078125,-57.624824523925774,1.0,1.1630314844524037e-07,0.7272921204566956,8.0,0.9969834089279175,0.6008354425430298,-147.12110900878906,0.13159115612506866,0.21641452610492704,1.000404154183343e-05,-89.45452117919923,9.999999747378752e-06,0.0018581316107884047,32159.517578125,-50723.859375,60059.5078125,-57.624824523925774
46.0,6.275100231170654,37926.84375,57372.703125,-57372.703125,68775.5234375,-56.53287506103516,1.0,1.7476693869866722e-07,0.675868809223175,8.0,0.9969292879104614,0.6877162456512451,-145.86962890625,0.14419110119342804,0.20718641579151156,9.999456779041792e-06,-89.3034896850586,9.999999747378752e-06,0.0017160671995952723,37926.84375,-57372.703125,68775.5234375,-56.53287506103516
47.0,5.013369083404541,43218.49609375,62920.1328125,-62920.1328125,76333.359375,-55.51565933227539,1.0,1.3527019859793654e-07,0.6389374732971193,8.0,0.9979052543640136,0.7640796303749084,-144.72305297851562,0.15242533385753632,0.19712564349174497,1.0009789548348635e-05,-89.18081665039062,9.999999747378752e-06,0.0014145865570753813,43218.49609375,-62920.1328125,76333.359375,-55.51565933227539
