# point,freq,zreal,zimag,zmod,zphz,zsig,Idc,Vdc,ie_range,gain,vmod,vphz,vsig,vthd,imod,iphz,isig,ithd,zreal_drift,zimag_drift,zmod_drift,zphz_drift
0.000000000000000000e+00,2.500195312500000000e+05,4.147071289062500000e+03,5.592448730468750000e+02,4.184609375000000000e+03,7.680173873901367188e+00,1.000000000000000000e+00,3.164677764289081097e-07,1.249305903911590576e-01,8.000000000000000000e+00,1.020525619387626648e-01,4.270501434803009033e-03,1.538496017456054688e+00,8.774512098170816898e-04,1.650536805391311646e-01,1.020525587591691874e-06,-6.141677856445312500e+00,9.999999747378751636e-06,1.972149759531021118e-01,4.147071289062500000e+03,5.592448730468750000e+02,4.184609375000000000e+03,7.680173873901367188e+00
1.000000000000000000e+00,1.986914062500000000e+05,4.069364501953125000e+03,4.698965759277343750e+02,4.096404296875000000e+03,6.586870670318603516e+00,1.000000000000000000e+00,5.254444204183528200e-07,2.689892947673797607e-01,8.000000000000000000e+00,5.116192996501922607e-02,1.971474662423133850e-02,4.857984924316406250e+01,3.941219300031661987e-03,1.823537945747375488e-01,4.812695351574802771e-06,4.199297714233398438e+01,9.999999747378751636e-06,1.469933241605758667e-01,4.069364501953125000e+03,4.698965759277343750e+02,4.096404296875000000e+03,6.586870670318603516e+00
2.000000000000000000e+00,1.577929687500000000e+05,4.057460937500000000e+03,3.321879577636718750e+02,4.071036376953125000e+03,4.680418014526367188e+00,1.000000000000000000e+00,4.802960802408051677e-07,3.696724176406860352e-01,8.000000000000000000e+00,6.255983561277389526e-02,2.395753376185894012e-02,9.136209106445312500e+01,3.823798615485429764e-03,1.513447016477584839e-01,5.884872734895907342e-06,8.668167877197265625e+01,9.999999747378751636e-06,1.384746879339218140e-01,4.057460937500000000e+03,3.321879577636718750e+02,4.071036376953125000e+03,4.680418014526367188e+00
3.000000000000000000e+00,1.253320312500000000e+05,4.018964599609375000e+03,2.489954223632812500e+02,4.026670410156250000e+03,3.545235395431518555e+00,1.000000000000000000e+00,4.531658248652092880e-07,4.243271946907043457e-01,8.000000000000000000e+00,7.693612575531005859e-02,2.914189919829368591e-02,9.167114257812500000e+01,4.033769015222787857e-03,1.333734393119812012e-01,7.237219961098162457e-06,8.812590026855468750e+01,9.515020451544842217e-07,1.248314827680587769e-01,4.018964599609375000e+03,2.489954223632812500e+02,4.026670410156250000e+03,3.545235395431518555e+00
4.000000000000000000e+00,9.955078125000000000e+04,4.006372802734375000e+03,1.503028106689453125e+02,4.009191162109375000e+03,2.148497104644775391e+00,1.000000000000000000e+00,3.046829135655571008e-07,4.519394636154174805e-01,8.000000000000000000e+00,9.286943823099136353e-02,3.502442687749862671e-02,-7.734793853759765625e+01,1.720524625852704048e-03,4.678132012486457825e-02,8.736033123568631709e-06,-7.949643707275390625e+01,9.999999747378751636e-06,4.554362222552299500e-02,4.006372802734375000e+03,1.503028106689453125e+02,4.009191162109375000e+03,2.148497104644775391e+00
5.000000000000000000e+00,7.916015625000000000e+04,4.007853515625000000e+03,9.330256652832031250e+01,4.008939453125000000e+03,1.333601117134094238e+00,1.000000000000000000e+00,2.985482581152609782e-07,4.789258539676666260e-01,8.000000000000000000e+00,1.171644181013107300e-01,4.418417066335678101e-02,9.130210113525390625e+01,2.782710595056414604e-03,6.060907244682312012e-02,1.102141141018364578e-05,8.996850585937500000e+01,9.999999747378751636e-06,5.873153358697891235e-02,4.007853515625000000e+03,9.330256652832031250e+01,4.008939453125000000e+03,1.333601117134094238e+00
6.000000000000000000e+00,6.287109375000000000e+04,4.012711914062500000e+03,3.373781967163085938e+01,4.012853759765625000e+03,4.817163944244384766e-01,1.000000000000000000e+00,2.976888708872138523e-07,4.998058378696441650e-01,8.000000000000000000e+00,1.618143320083618164e-01,5.542102828621864319e-02,1.621426544189453125e+02,3.992979414761066437e-03,7.083988189697265625e-02,1.381087622576160356e-05,1.616609344482421875e+02,9.844045507634291425e-07,6.910151243209838867e-02,4.012711914062500000e+03,3.373781967163085938e+01,4.012853759765625000e+03,4.817163944244384766e-01
7.000000000000000000e+00,4.998046875000000000e+04,4.022508056640625000e+03,-1.695545578002929688e+01,4.022543701171875000e+03,-2.415086030960083008e-01,1.000000000000000000e+00,2.295336116731050424e-07,4.954411089420318604e-01,8.000000000000000000e+00,2.607240378856658936e-01,6.481340527534484863e-02,-5.277206420898437500e+01,4.414262250065803528e-03,6.690589338541030884e-02,1.611254265299066901e-05,-5.253055953979492188e+01,1.048650688062480185e-06,6.417189538478851318e-02,4.022508056640625000e+03,-1.695545578002929688e+01,4.022543701171875000e+03,-2.415086030960083008e-01
8.000000000000000000e+00,3.966796875000000000e+04,4.034155029296875000e+03,-6.541998291015625000e+01,4.034685546875000000e+03,-9.290570616722106934e-01,1.000000000000000000e+00,1.792069355133207864e-07,4.920685887336730957e-01,8.000000000000000000e+00,4.374866783618927002e-01,6.770074367523193359e-02,3.548177719116210938e+01,2.036050893366336823e-03,2.867123484611511230e-02,1.677968430158216506e-05,3.641083908081054688e+01,9.999999747378751636e-06,3.082340210676193237e-02,4.034155029296875000e+03,-6.541998291015625000e+01,4.034685546875000000e+03,-9.290570616722106934e-01
9.000000000000000000e+00,3.158203125000000000e+04,4.044440673828125000e+03,-1.122111740112304688e+02,4.045996826171875000e+03,-1.589237809181213379e+00,1.000000000000000000e+00,1.440254351336989203e-07,4.903735816478729248e-01,8.000000000000000000e+00,5.761092305183410645e-01,5.328016355633735657e-02,-8.109096527099609375e+00,6.667319103144109249e-04,4.622241947799921036e-03,1.316861107625300065e-05,-6.519857883453369141e+00,9.999999747378751636e-06,1.355612743645906448e-02,4.044440673828125000e+03,-1.122111740112304688e+02,4.045996826171875000e+03,-1.589237809181213379e+00
1.000000000000000000e+01,2.501953125000000000e+04,4.062936523437500000e+03,-1.565570068359375000e+02,4.065951660156250000e+03,-2.206684827804565430e+00,1.000000000000000000e+00,1.222625343189065461e-07,4.925469756126403809e-01,8.000000000000000000e+00,6.627619862556457520e-01,4.677512869238853455e-02,1.487739868164062500e+02,6.382304709404706955e-04,1.437353994697332382e-02,1.150410298578208312e-05,1.509806671142578125e+02,9.999999747378751636e-06,1.595718227326869965e-02,4.062936523437500000e+03,-1.565570068359375000e+02,4.065951660156250000e+03,-2.206684827804565430e+00
1.100000000000000000e+01,1.986328125000000000e+04,4.082844726562500000e+03,-2.083959503173828125e+02,4.088159667968750000e+03,-2.921946763992309570e+00,1.000000000000000000e+00,1.238438471773406491e-07,4.965632557868957520e-01,8.000000000000000000e+00,7.404074668884277344e-01,4.567105323076248169e-02,1.780474243164062500e+02,7.626415463164448738e-04,1.358141773380339146e-03,1.117154442908940837e-05,-1.790306396484375000e+02,9.999999747378751636e-06,2.807323355227708817e-03,4.082844726562500000e+03,-2.083959503173828125e+02,4.088159667968750000e+03,-2.921946763992309570e+00
1.200000000000000000e+01,1.568287011718750000e+04,4.102876953125000000e+03,-2.628077697753906250e+02,4.111285644531250000e+03,-3.665045738220214844e+00,1.000000000000000000e+00,1.050246041245372908e-07,4.946294724941253662e-01,8.000000000000000000e+00,8.087072372436523438e-01,4.490536078810691833e-02,9.637844085693359375e+01,6.659268401563167572e-04,1.539836055599153042e-03,1.092246202460955828e-05,1.000434799194335938e+02,9.999999747378751636e-06,2.028921619057655334e-03,4.102876953125000000e+03,-2.628077697753906250e+02,4.111285644531250000e+03,-3.665045738220214844e+00
1.300000000000000000e+01,1.259765625000000000e+04,4.138240722656250000e+03,-3.272671813964843750e+02,4.151161132812500000e+03,-4.521748542785644531e+00,1.000000000000000000e+00,8.383163674352545058e-08,4.875148534774780273e-01,8.000000000000000000e+00,8.559616208076477051e-01,4.393722116947174072e-02,3.593270492553710938e+01,7.616248331032693386e-04,1.141159213148057461e-03,1.058432007994269952e-05,4.045445251464843750e+01,9.999999747378751636e-06,2.003430854529142380e-03,4.138240722656250000e+03,-3.272671813964843750e+02,4.151161132812500000e+03,-4.521748542785644531e+00
1.400000000000000000e+01,9.895833007812500000e+03,4.159547851562500000e+03,-3.928656616210937500e+02,4.178059570312500000e+03,-5.395530700683593750e+00,1.000000000000000000e+00,1.052006766144586436e-07,4.839778840541839600e-01,8.000000000000000000e+00,8.998478055000305176e-01,4.392273724079132080e-02,-3.511032104492187500e+00,4.509667924139648676e-04,1.313712075352668762e-02,1.051271192409330979e-05,1.884498476982116699e+00,9.999999747378751636e-06,2.509275916963815689e-03,4.159547851562500000e+03,-3.928656616210937500e+02,4.178059570312500000e+03,-5.395530700683593750e+00
1.500000000000000000e+01,7.910156250000000000e+03,4.190928710937500000e+03,-4.676616210937500000e+02,4.216940917968750000e+03,-6.367238521575927734e+00,1.000000000000000000e+00,1.052852383054414531e-07,4.822988212108612061e-01,8.000000000000000000e+00,9.281431436538696289e-01,4.349540919065475464e-02,1.474540901184082031e+01,7.565208361484110355e-04,1.476435340009629726e-03,1.031444571708561853e-05,2.111264991760253906e+01,9.999999747378751636e-06,4.357282537966966629e-03,4.190928710937500000e+03,-4.676616210937500000e+02,4.216940917968750000e+03,-6.367238521575927734e+00
1.600000000000000000e+01,6.307870605468750000e+03,4.229426757812500000e+03,-5.628294067382812500e+02,4.266711425781250000e+03,-7.580079078674316406e+00,1.000000000000000000e+00,1.094488482067390578e-07,4.729013144969940186e-01,8.000000000000000000e+00,9.487540721893310547e-01,4.361460730433464050e-02,7.468764495849609375e+01,5.503733409568667412e-04,1.809863606467843056e-03,1.022206652123713866e-05,8.226771545410156250e+01,9.999999747378751636e-06,2.566260984167456627e-03,4.229426757812500000e+03,-5.628294067382812500e+02,4.266711425781250000e+03,-7.580079078674316406e+00
1.700000000000000000e+01,4.973323242187500000e+03,4.284217773437500000e+03,-6.825377197265625000e+02,4.338246093750000000e+03,-9.051973342895507812e+00,1.000000000000000000e+00,1.348007430124198436e-07,4.685930013656616211e-01,8.000000000000000000e+00,9.323371648788452148e-01,4.263178259134292603e-02,-3.703379440307617188e+01,5.442748079076409340e-04,1.088188262656331062e-03,9.826962923398241401e-06,-2.798182106018066406e+01,9.999999747378751636e-06,8.053712081164121628e-04,4.284217773437500000e+03,-6.825377197265625000e+02,4.338246093750000000e+03,-9.051973342895507812e+00
1.800000000000000000e+01,3.944359863281250000e+03,4.339953125000000000e+03,-8.088490600585937500e+02,4.414683593750000000e+03,-1.055725002288818359e+01,1.000000000000000000e+00,1.549732928651792463e-07,4.670281410217285156e-01,8.000000000000000000e+00,9.589456319808959961e-01,4.540676623582839966e-02,6.911193847656250000e+01,5.593964597210288048e-04,6.958766607567667961e-04,1.028539554681628942e-05,7.966918945312500000e+01,9.999999747378751636e-06,7.755351252853870392e-04,4.339953125000000000e+03,-8.088490600585937500e+02,4.414683593750000000e+03,-1.055725002288818359e+01
1.900000000000000000e+01,3.144054931640625000e+03,4.403281738281250000e+03,-9.536582031250000000e+02,4.505369628906250000e+03,-1.222032260894775391e+01,1.000000000000000000e+00,1.834370948472496821e-07,4.707391262054443359e-01,8.000000000000000000e+00,9.732049703598022461e-01,4.572363942861557007e-02,1.080505905151367188e+02,6.127880769781768322e-04,1.317114755511283875e-02,1.014869849313981831e-05,1.202709197998046875e+02,9.999999747378751636e-06,9.254055912606418133e-04,4.403281738281250000e+03,-9.536582031250000000e+02,4.505369628906250000e+03,-1.222032260894775391e+01
2.000000000000000000e+01,2.488426025390625000e+03,4.478878906250000000e+03,-1.127313232421875000e+03,4.618570312500000000e+03,-1.412763214111328125e+01,1.000000000000000000e+00,1.911544984523061430e-07,4.792868196964263916e-01,8.000000000000000000e+00,9.815420508384704590e-01,4.658135399222373962e-02,1.711794586181640625e+02,5.900934920646250248e-04,1.250428240746259689e-02,1.008566596283344552e-05,-1.746929016113281250e+02,9.999999747378751636e-06,9.648784180171787739e-04,4.478878906250000000e+03,-1.127313232421875000e+03,4.618570312500000000e+03,-1.412763214111328125e+01
2.100000000000000000e+01,1.976656616210937500e+03,4.565929687500000000e+03,-1.330071289062500000e+03,4.755712890625000000e+03,-1.624102592468261719e+01,1.000000000000000000e+00,1.814385655052319635e-07,4.866219460964202881e-01,8.000000000000000000e+00,9.869984388351440430e-01,4.782149940729141235e-02,-1.141963424682617188e+02,3.901669697370380163e-04,1.036228029988706112e-03,1.005558988254051656e-05,-9.795531463623046875e+01,9.999999747378751636e-06,9.830163326114416122e-04,4.565929687500000000e+03,-1.330071289062500000e+03,4.755712890625000000e+03,-1.624102592468261719e+01
2.200000000000000000e+01,1.582031250000000000e+03,4.664723144531250000e+03,-1.566520507812500000e+03,4.920734375000000000e+03,-1.856322669982910156e+01,1.000000000000000000e+00,1.658337538401610800e-07,4.891103804111480713e-01,8.000000000000000000e+00,9.898821711540222168e-01,4.935111850500106812e-02,1.203306121826171875e+02,7.631884072907269001e-04,1.408360083587467670e-03,1.002921726467320696e-05,1.388938446044921875e+02,9.999999747378751636e-06,1.061149174347519875e-03,4.664723144531250000e+03,-1.566520507812500000e+03,4.920734375000000000e+03,-1.856322669982910156e+01
2.300000000000000000e+01,1.253633666992187500e+03,4.791249023437500000e+03,-1.861458984375000000e+03,5.140145507812500000e+03,-2.123176002502441406e+01,1.000000000000000000e+00,1.437311283325470868e-07,4.924904406070709229e-01,8.000000000000000000e+00,9.928457140922546387e-01,5.155534669756889343e-02,1.474988708496093750e+02,9.999999747378751636e-06,1.473922748118638992e-03,1.002993849397171289e-05,1.687306213378906250e+02,9.999999747378751636e-06,1.123496564105153084e-03,4.791249023437500000e+03,-1.861458984375000000e+03,5.140145507812500000e+03,-2.123176002502441406e+01
2.400000000000000000e+01,9.960937500000000000e+02,4.939256347656250000e+03,-2.204247558593750000e+03,5.408785644531250000e+03,-2.404982948303222656e+01,1.000000000000000000e+00,1.247485954536386998e-07,4.935409724712371826e-01,8.000000000000000000e+00,9.933577179908752441e-01,5.411574989557266235e-02,-1.507565498352050781e+01,5.587567575275897980e-04,2.073981333523988724e-03,1.000515658233780414e-05,8.974173545837402344e+00,9.999999747378751636e-06,1.330962521024048328e-03,4.939256347656250000e+03,-2.204247558593750000e+03,5.408785644531250000e+03,-2.404982948303222656e+01
2.500000000000000000e+01,7.900280761718750000e+02,5.108530273437500000e+03,-2.611491455078125000e+03,5.737331054687500000e+03,-2.707621383666992188e+01,1.000000000000000000e+00,1.150063511090593238e-07,5.028331875801086426e-01,8.000000000000000000e+00,9.958742260932922363e-01,5.751865729689598083e-02,-1.364684600830078125e+02,4.648940230254083872e-04,2.480841474607586861e-03,1.002533372229663655e-05,-1.093922500610351562e+02,9.999999747378751636e-06,1.268557040020823479e-03,5.108530273437500000e+03,-2.611491455078125000e+03,5.737331054687500000e+03,-2.707621383666992188e+01
2.600000000000000000e+01,6.288109741210937500e+02,5.319671875000000000e+03,-3.099758789062500000e+03,6.156899414062500000e+03,-3.022924232482910156e+01,1.000000000000000000e+00,1.073899937864553067e-07,5.012237429618835449e-01,8.000000000000000000e+00,9.974411725997924805e-01,6.166586652398109436e-02,7.376342773437500000e+01,5.932165076956152916e-04,3.147868206724524498e-03,1.001573400571942329e-05,1.039926681518554688e+02,9.999999747378751636e-06,1.060835784301161766e-03,5.319671875000000000e+03,-3.099758789062500000e+03,6.156899414062500000e+03,-3.022924232482910156e+01
2.700000000000000000e+01,4.963235168457031250e+02,5.300875488281250000e+03,-3.856826416015625000e+03,6.555485839843750000e+03,-3.603899383544921875e+01,1.000000000000000000e+00,9.763126485040629632e-08,5.055867433547973633e-01,8.000000000000000000e+00,9.686404466629028320e-01,6.366198509931564331e-02,1.001146850585937500e+02,6.524540949612855911e-04,2.681747311726212502e-03,9.711254278954584152e-06,1.361536712646484375e+02,9.999999747378751636e-06,4.407532687764614820e-04,5.300875488281250000e+03,-3.856826416015625000e+03,6.555485839843750000e+03,-3.603899383544921875e+01
2.800000000000000000e+01,3.953313293457031250e+02,5.652507324218750000e+03,-4.547215820312500000e+03,7.254516601562500000e+03,-3.881528472900390625e+01,1.000000000000000000e+00,1.076538609368071775e-07,4.998174905776977539e-01,8.000000000000000000e+00,9.885369539260864258e-01,7.403528690338134766e-02,6.157962036132812500e+01,6.693194154649972916e-04,4.397257696837186813e-03,1.020540639729006216e-05,1.003949050903320312e+02,9.999999747378751636e-06,4.784083284903317690e-04,5.652507324218750000e+03,-4.547215820312500000e+03,7.254516601562500000e+03,-3.881528472900390625e+01
2.900000000000000000e+01,3.155048217773437500e+02,6.038542968750000000e+03,-5.314767089843750000e+03,8.044299316406250000e+03,-4.135231781005859375e+01,1.000000000000000000e+00,1.165419973858661251e-07,5.060276389122009277e-01,8.000000000000000000e+00,9.959630966186523438e-01,8.104730397462844849e-02,-1.744129943847656250e+02,6.413978990167379379e-04,6.266693118959665298e-03,1.007512219075579196e-05,-1.330606842041015625e+02,9.999999747378751636e-06,7.110689184628427029e-04,6.038542968750000000e+03,-5.314767089843750000e+03,8.044299316406250000e+03,-4.135231781005859375e+01
3.000000000000000000e+01,2.493351135253906250e+02,6.529820312500000000e+03,-6.297177246093750000e+03,9.071548828125000000e+03,-4.396094131469726562e+01,1.000000000000000000e+00,1.234216142620425671e-07,5.020509362220764160e-01,8.000000000000000000e+00,9.990113377571105957e-01,9.099313616752624512e-02,4.869098281860351562e+01,8.699768804945051670e-04,8.394260890781879425e-03,1.003060606308281422e-05,9.265191650390625000e+01,9.999999747378751636e-06,8.641936583444476128e-04,6.529820312500000000e+03,-6.297177246093750000e+03,9.071548828125000000e+03,-4.396094131469726562e+01
3.100000000000000000e+01,1.986228790283203125e+02,7.105589355468750000e+03,-7.472613769531250000e+03,1.031161328125000000e+04,-4.644218826293945312e+01,1.000000000000000000e+00,1.245495866442070110e-07,4.881077110767364502e-01,8.000000000000000000e+00,9.973336458206176758e-01,1.029429584741592407e-01,3.154880523681640625e+01,1.187989371828734875e-03,1.091682631522417068e-02,9.983206837205216289e-06,7.799099731445312500e+01,9.999999747378751636e-06,9.782061679288744926e-04,7.105589355468750000e+03,-7.472613769531250000e+03,1.031161328125000000e+04,-4.644218826293945312e+01
3.200000000000000000e+01,1.580056152343750000e+02,7.800782226562500000e+03,-8.840901367187500000e+03,1.179040917968750000e+04,-4.857638168334960938e+01,1.000000000000000000e+00,1.369002120554796420e-07,4.808273017406463623e-01,8.000000000000000000e+00,9.937506318092346191e-01,1.174805015325546265e-01,8.808904266357421875e+01,1.664835028350353241e-03,1.342935673892498016e-02,9.964073797164019197e-06,1.366654205322265625e+02,9.999999747378751636e-06,1.241282443515956402e-03,7.800782226562500000e+03,-8.840901367187500000e+03,1.179040917968750000e+04,-4.857638168334960938e+01
3.300000000000000000e+01,1.255580368041992188e+02,8.543576171875000000e+03,-1.022912011718750000e+04,1.332770019531250000e+04,-5.013065719604492188e+01,1.000000000000000000e+00,1.626640369067899883e-07,5.027363300323486328e-01,8.000000000000000000e+00,9.846261739730834961e-01,1.320532709360122681e-01,-1.490165557861328125e+02,2.340785460546612740e-03,1.716464012861251831e-02,9.908181709761265665e-06,-9.888591003417968750e+01,9.999999747378751636e-06,1.214809133671224117e-03,8.543576171875000000e+03,-1.022912011718750000e+04,1.332770019531250000e+04,-5.013065719604492188e+01
