# point,freq,zreal,reflected_zimag,zimag,zmod,zphz,zsig,Idc,Vdc,ie_range,gain,vmod,vphz,vsig,vthd,imod,iphz,isig,ithd,zreal_drift,zimag_drift,zmod_drift,zphz_drift
0.0,250019.53125,4313.8134765625,141.1506195068359,-141.1506195068359,4316.1220703125,-1.8740843534469604,1.0,4.742273063129688e-07,0.20468318462371823,8.0,0.04034871980547905,0.01678032986819744,-62.805339813232415,0.004976715426892041,0.28476035594940186,3.795519660343416e-06,-70.50856018066406,9.999999747378752e-06,0.156389519572258,4313.8134765625,-141.1506195068359,4316.1220703125,-1.8740843534469604
1.0,198691.40625,4310.1259765625,119.55448150634764,-119.55448150634764,4311.78369140625,-1.5888657569885252,1.0,5.010674613004086e-07,0.3665718734264374,8.0,0.048497624695301056,0.019981686025857925,-113.58056640625,0.0037433214019984007,0.17640571296215057,4.562069989333394e-06,-119.66487121582033,9.999999747378752e-06,0.14684073626995087,4310.1259765625,-119.55448150634764,4311.78369140625,-1.5888657569885252
2.0,157792.96875,4305.69140625,155.86441040039062,-155.86441040039062,4308.51171875,-2.0731804370880127,1.0,5.489035856953706e-07,0.4065719842910767,8.0,0.05871744453907013,0.02404426410794258,-140.08160400390625,0.004040236119180918,0.1502225399017334,5.523426807485521e-06,-144.13796997070312,9.999999747378752e-06,0.13828860223293304,4305.69140625,-155.86441040039062,4308.51171875,-2.0731804370880127
3.0,125332.03125,4328.064453125,120.48230743408205,-120.48230743408205,4329.7412109375,-1.5945569276809692,1.0,5.446747763926396e-07,0.5120867490768433,8.0,0.07210518419742584,0.02956944331526756,-57.351173400878906,0.004104627761989832,0.1339883059263229,6.782783657399705e-06,-60.647830963134766,9.126169402406959e-07,0.12721773982048035,4328.064453125,-120.48230743408205,4329.7412109375,-1.5945569276809692
4.0,99550.78125,4324.53564453125,110.19669342041016,-110.19669342041016,4325.939453125,-1.4596803188323975,1.0,3.2741081668064004e-07,0.5667629241943359,8.0,0.0872907042503357,0.03553808480501175,2.018871068954468,0.001933125196956098,0.0463402196764946,8.21125377115095e-06,-0.17456334829330444,9.999999747378752e-06,0.04530994221568108,4324.53564453125,-110.19669342041016,4325.939453125,-1.4596803188323975
5.0,79160.15625,4328.8486328125,119.93790435791016,-119.93790435791016,4330.509765625,-1.5870682001113892,1.0,2.9240953836051636e-07,0.5696592926979065,8.0,0.11013706028461456,0.04488503932952881,121.13131713867188,0.0029505684506148096,0.06117583066225052,1.0360362466599327e-05,119.83323669433592,9.999999747378752e-06,0.05843163654208183,4328.8486328125,-119.93790435791016,4330.509765625,-1.5870682001113892
6.0,62871.09375,4332.46923828125,135.3367919921875,-135.3367919921875,4334.58251953125,-1.7892119884490967,1.0,2.656985316207283e-07,0.6365577578544617,8.0,0.14316551387310028,0.05636795610189438,-119.13961791992188,0.004041659180074929,0.0702262669801712,1.2998850252188276e-05,-119.63650512695312,9.371478881803341e-07,0.07028084248304367,4332.46923828125,-135.3367919921875,4334.58251953125,-1.7892119884490967
7.0,49980.46875,4342.03857421875,149.57839965820312,-149.57839965820312,4344.6142578125,-1.9729957580566408,1.0,2.1722746623709097e-07,0.655972421169281,8.0,0.2233843058347702,0.06781482696533203,-57.075477600097656,0.00516004953533411,0.07515867799520493,1.560322016302962e-05,-56.92036056518555,1.108870719690458e-06,0.07008778303861618,4342.03857421875,-149.57839965820312,4344.6142578125,-1.9729957580566408
8.0,39667.96875,4349.80712890625,173.0777587890625,-173.0777587890625,4353.2490234375,-2.2785830497741695,1.0,1.5390435237350178e-07,0.6476614475250244,8.0,0.380877822637558,0.07424638420343399,132.6591796875,0.003213877324014902,0.04228278622031212,1.7050339010893367e-05,133.4927520751953,9.999999747378752e-06,0.04331786185503005,4349.80712890625,-173.0777587890625,4353.2490234375,-2.2785830497741695
9.0,31582.03125,4365.1650390625,196.67694091796875,-196.67694091796875,4369.59375,-2.579774856567383,1.0,1.5271388065229985e-07,0.6474428772926331,8.0,0.5494845509529114,0.06305333971977234,-33.60481262207031,0.0007317705312743784,0.0036764442920684814,1.4426793313759845e-05,-32.177635192871094,9.999999747378752e-06,0.009736700914800169,4365.1650390625,-196.67694091796875,4369.59375,-2.579774856567383
10.0,25019.53125,4378.54443359375,236.76385498046875,-236.76385498046875,4384.94140625,-3.0951774120330806,1.0,1.4703854844810849e-07,0.6447435617446899,8.0,0.6398307085037231,0.05106724053621292,-105.83473205566406,0.000894101511221379,0.015210669487714767,1.1644197911664376e-05,-103.65424346923828,9.999999747378752e-06,0.012621826492249964,4378.54443359375,-236.76385498046875,4384.94140625,-3.0951774120330806
11.0,19863.28125,4396.6455078125,280.99368286132807,-280.99368286132807,4405.61572265625,-3.656852960586548,1.0,1.4670280279460712e-07,0.6449434757232666,8.0,0.7202279567718506,0.049597371369600296,-77.16924285888672,0.0007446889649145305,0.0015320798847824335,1.1256539437454192e-05,-74.23957061767578,9.999999747378752e-06,0.0023262568283826113,4396.6455078125,-280.99368286132807,4405.61572265625,-3.656852960586548
12.0,15682.8701171875,4414.2978515625,330.2025756835937,-330.2025756835937,4426.630859375,-4.277927398681641,1.0,1.5849255419198016e-07,0.6502759456634521,8.0,0.7914574742317199,0.0486476719379425,-125.85276794433592,0.0005731848068535328,0.0010255482047796247,1.0988986105076036e-05,-122.14955902099608,9.999999747378752e-06,0.002438823925331235,4414.2978515625,-330.2025756835937,4426.630859375,-4.277927398681641
13.0,12597.65625,4445.29296875,393.7054748535156,-393.7054748535156,4462.693359375,-5.0612993240356445,1.0,1.4645175383520836e-07,0.6603692770004272,8.0,0.8427661657333374,0.04752228781580925,-137.8308868408203,0.0009694565669633448,0.0011566339526325464,1.0648281204339582e-05,-133.23153686523435,9.999999747378752e-06,0.0016973101301118731,4445.29296875,-393.7054748535156,4462.693359375,-5.0612993240356445
14.0,9895.8330078125,4463.8271484375,458.2135620117188,-458.2135620117188,4487.283203125,-5.860905647277832,1.0,1.4552260552136434e-07,0.6728801131248474,8.0,0.8897097110748291,0.047373760491609566,-131.8439788818359,0.0007450090488418936,0.012861431576311588,1.0557017048995476e-05,-126.3461227416992,9.999999747378752e-06,0.003325850004330277,4463.8271484375,-458.2135620117188,4487.283203125,-5.860905647277832
15.0,7910.15625,4505.1748046875,536.5637817382812,-536.5637817382812,4537.0146484375,-6.7919020652771,1.0,1.6593942575582332e-07,0.6829887628555298,8.0,0.9185039401054382,0.046839408576488495,-93.55572509765624,0.0008757811156101523,0.001268336665816605,1.0323636161047032e-05,-87.05411529541014,9.999999747378752e-06,0.0024787923321127887,4505.1748046875,-536.5637817382812,4537.0146484375,-6.7919020652771
16.0,6307.87060546875,4541.17041015625,635.5383911132812,-635.5383911132812,4585.4267578125,-7.96682071685791,1.0,1.7273089270020137e-07,0.6890268325805664,8.0,0.940228283405304,0.046939395368099206,2.8930552005767822,0.0006797464448027313,0.0015901160659268498,1.0236519301543012e-05,10.628335952758787,9.999999747378752e-06,0.0034392557572573423,4541.17041015625,-635.5383911132812,4585.4267578125,-7.96682071685791
17.0,4973.3232421875,4588.2373046875,757.1907958984374,-757.1907958984374,4650.296875,-9.370985031127928,1.0,1.6114520917653863e-07,0.6967113018035889,8.0,0.9278373122215272,0.04595139250159264,-81.9640884399414,0.0005502650164999068,0.0011220297310501337,9.868213055597153e-06,-72.69306945800781,9.999999747378752e-06,0.0006393565563485025,4588.2373046875,-757.1907958984374,4650.296875,-9.370985031127928
18.0,3944.3598632812495,4646.95361328125,896.4770507812499,-896.4770507812499,4732.63671875,-10.919197082519531,1.0,1.539167442388134e-07,0.7034770250320435,8.0,0.9555464982986449,0.04878799617290497,18.403488159179688,9.999999747378752e-06,0.000618726364336908,1.0298642337147612e-05,29.22245216369629,9.999999747378752e-06,0.0007680185954086481,4646.95361328125,-896.4770507812499,4732.63671875,-10.919197082519531
19.0,3144.054931640625,4714.79833984375,1059.4000244140625,-1059.4000244140625,4832.3544921875,-12.663846969604492,1.0,1.4371806855706382e-07,0.7074400186538696,8.0,0.9697903990745544,0.04907754063606262,72.94122314453125,0.0006135657313279808,0.01064089685678482,1.0149065928999335e-05,85.51396179199217,9.999999747378752e-06,0.0007426458760164678,4714.79833984375,-1059.4000244140625,4832.3544921875,-12.663846969604492
20.0,2488.426025390625,4800.74658203125,1258.478515625,-1258.478515625,4962.95654296875,-14.689126014709473,1.0,1.5949221676692105e-07,0.7111775279045105,8.0,0.9790568947792051,0.05012643337249756,132.68209838867188,0.00046783356810919935,0.010741479694843292,1.0095551260747015e-05,147.2931365966797,9.999999747378752e-06,0.0010590824531391263,4800.74658203125,-1258.478515625,4962.95654296875,-14.689126014709473
21.0,1976.6566162109373,4899.0546875,1500.455322265625,-1500.455322265625,5123.6806640625,-17.028488159179688,1.0,1.1834512037012245e-07,0.7062393426895142,8.0,0.9834431409835817,0.0514814667403698,-143.8596038818359,0.0005441653192974627,0.0010293310042470691,1.0044800546893384e-05,-126.89613342285156,9.999999747378752e-06,0.0011102157877758143,4899.0546875,-1500.455322265625,5123.6806640625,-17.028488159179688
22.0,1582.03125,5014.32568359375,1761.0478515625,-1761.0478515625,5314.5791015625,-19.351444244384766,1.0,8.547961982685592e-08,0.7118157744407654,8.0,0.9874830842018129,0.05337433144450188,97.61851501464845,0.0002019147796090692,0.0015879018465057015,1.0041079804068431e-05,116.91645050048828,9.999999747378752e-06,0.001089079538360238,5014.32568359375,-1761.0478515625,5314.5791015625,-19.351444244384766
23.0,1253.6336669921875,5157.79833984375,2080.22314453125,-2080.22314453125,5561.49365234375,-21.96501350402832,1.0,9.491220254176368e-08,0.7156315445899963,8.0,0.9902861714363098,0.0557795874774456,130.26699829101562,0.00034214547486044466,0.00208691880106926,1.0028385986515786e-05,152.18882751464844,9.999999747378752e-06,0.0011525467270985244,5157.79833984375,-2080.22314453125,5561.49365234375,-21.96501350402832
24.0,996.09375,5324.8310546875,2461.539794921875,-2461.539794921875,5866.259765625,-24.80995178222656,1.0,1.0133872763162799e-07,0.71595299243927,8.0,0.9911727309226989,0.05871964618563652,-28.248962402343754,0.0006135657313279808,0.0025476429145783186,1.0008952813223004e-05,-3.473710775375366,9.999999747378752e-06,0.0011810931609943507,5324.8310546875,-2461.539794921875,5866.259765625,-24.80995178222656
25.0,790.028076171875,5528.0234375,2904.615966796875,-2904.615966796875,6244.6650390625,-27.718999862670895,1.0,1.0029514641018977e-07,0.7196848392486572,8.0,0.9935989379882812,0.06260255724191666,-148.9006195068359,0.00041114326450042427,0.004679292906075716,1.0024477887782268e-05,-121.20934295654295,9.999999747378752e-06,0.0011812542797997592,5528.0234375,-2904.615966796875,6244.6650390625,-27.718999862670895
26.0,628.8109741210938,5764.65625,3399.621826171875,-3399.621826171875,6692.435546875,-30.529357910156246,1.0,1.0339267930703501e-07,0.7257053852081299,8.0,0.9951869249343872,0.06703339517116547,64.0716781616211,0.0008496654918417335,0.005822702776640654,1.0015982297773007e-05,94.57887268066406,9.999999747378752e-06,0.001307082362473011,5764.65625,-3399.621826171875,6692.435546875,-30.529357910156246
27.0,496.3235168457031,6044.7451171875,3995.49609375,-3995.49609375,7245.890625,-33.46417236328125,1.0,1.0990348897621517e-07,0.7304486036300659,8.0,0.9674116373062132,0.06904129683971405,95.07509613037107,0.000738742237444967,0.005893832538276911,9.720904017740395e-06,131.0673828125,9.999999747378752e-06,0.0008143638260662556,6044.7451171875,-3995.49609375,7245.890625,-33.46417236328125
28.0,395.3313293457031,6377.05419921875,4735.43212890625,-4735.43212890625,7942.99267578125,-36.59660339355469,1.0,1.1948287692575832e-07,0.7254725694656371,8.0,0.9877778887748718,0.08014321327209473,56.71100234985352,0.0010057882172986865,0.009932829998433588,1.0210523214482237e-05,95.39453125,9.999999747378752e-06,0.000661555037368089,6377.05419921875,-4735.43212890625,7942.99267578125,-36.59660339355469
29.0,315.5048217773437,6742.3662109375,5516.337890625,-5516.337890625,8711.45703125,-39.288677215576165,1.0,1.3446788216242567e-07,0.7302533388137817,8.0,0.9958962798118592,0.08720631152391434,-177.97610473632812,0.001355804968625307,0.014956633560359478,1.0082188055093864e-05,-137.00425720214844,9.999999747378752e-06,0.0008157358970493078,6742.3662109375,-5516.337890625,8711.45703125,-39.288677215576165
30.0,249.33511352539065,7200.2919921875,6520.1962890625,-6520.1962890625,9713.76171875,-42.16228866577149,1.0,1.4019977356838353e-07,0.7293351292610168,8.0,0.9982914328575134,0.09695900231599808,45.634864807128906,0.0021399313118308783,0.0212536845356226,1.0024050425272433e-05,89.12934875488281,9.999999747378752e-06,0.0010764695471152663,7200.2919921875,-6520.1962890625,9713.76171875,-42.16228866577149
31.0,198.6228790283203,7625.17333984375,7368.4921875,-7368.4921875,10603.67578125,-44.019229888916016,1.0,1.5026165556264462e-07,0.7515401244163513,8.0,0.9988130331039428,0.10581626743078232,30.658878326416012,0.003153102472424507,0.029246870428323746,1.0005224794440435e-05,75.73802947998048,9.999999747378752e-06,0.0014952090568840504,7625.17333984375,-7368.4921875,10603.67578125,-44.019229888916016
32.0,158.005615234375,8267.345703125,8852.607421875,-8852.607421875,12112.70703125,-46.95794677734375,1.0,1.5328059532748742e-07,0.7379275560379027,8.0,0.9931235313415528,0.12024328112602232,86.71410369873047,0.004467413295060396,0.03673731535673141,9.943037184712013e-06,134.51382446289062,9.999999747378752e-06,0.0013024992076680064,8267.345703125,-8852.607421875,12112.70703125,-46.95794677734375
33.0,125.5580368041992,8880.9951171875,10232.234375,-10232.234375,13548.826171875,-49.043888092041016,1.0,1.6289547488668177e-07,0.7465288043022155,8.0,0.9840372204780578,0.1341142505407333,-150.15248107910156,0.0063860020600259295,0.04698236286640167,9.908508218359202e-06,-100.44061279296876,9.999999747378752e-06,0.0017174757085740566,8880.9951171875,-10232.234375,13548.826171875,-49.043888092041016
34.0,99.73403930664062,9361.435546875,10923.0615234375,-10923.0615234375,14385.748046875,-49.40230178833008,1.0,1.6392897350669955e-07,0.7996728420257568,8.0,0.9906355142593384,0.14473147690296173,-146.8217010498047,0.009107588790357113,0.06128717586398125,1.0067053153761663e-05,-96.88936614990233,9.999999747378752e-06,0.0013765939511358736,9361.435546875,-10923.0615234375,14385.748046875,-49.40230178833008
35.0,78.78150939941406,10177.5009765625,12822.1611328125,-12822.1611328125,16370.3798828125,-51.55945587158203,1.0,1.5637837691429013e-07,0.8030111193656921,8.0,0.9915791749954224,0.16379615664482117,-146.82899475097656,0.012398697435855864,0.07375314831733702,1.000952579488512e-05,-94.85113525390624,9.999999747378752e-06,0.0017761739436537027,10177.5009765625,-12822.1611328125,16370.3798828125,-51.55945587158203
36.0,62.919464111328125,11108.140625,14858.326171875,-14858.326171875,18551.56640625,-53.21807098388672,1.0,1.4663588387975326e-07,0.8070248365402221,8.0,0.99201899766922,0.18555220961570737,-146.8649139404297,0.01657869480550289,0.08722295612096785,1.0004435353039298e-05,-93.31303405761719,9.999999747378752e-06,0.0017925127176567912,11108.140625,-14858.326171875,18551.56640625,-53.21807098388672
37.0,49.86701965332031,12181.595703125,17388.892578125,-17388.892578125,21231.224609375,-54.98726272583008,1.0,1.3317460911821402e-07,0.8089052438735963,8.0,0.9928644299507139,0.21246033906936643,-148.7674102783203,0.02191139757633209,0.10187482088804244,1.0008522622229064e-05,-93.51566314697264,9.999999747378752e-06,0.001816926058381796,12181.595703125,-17388.892578125,21231.224609375,-54.98726272583008
38.0,39.72457504272461,13353.3232421875,20037.67578125,-20037.67578125,24079.4453125,-56.32008361816406,1.0,1.0869409550195996e-07,0.8147485852241517,8.0,0.9934092760086061,0.24090301990509036,-149.04005432128906,0.028569502755999565,0.11717164516448975,1.0005487638409248e-05,-92.50932312011719,9.999999747378752e-06,0.001768558518961072,13353.3232421875,-20037.67578125,24079.4453125,-56.32008361816406
39.0,31.459732055664062,14853.404296875,23257.060546875,-23257.060546875,27595.552734375,-57.4351692199707,1.0,9.200037709433673e-08,0.8149169087409973,8.0,0.9939035773277282,0.27607589960098267,-149.31800842285156,0.03716818615794182,0.1330079287290573,1.0004975592892151e-05,-91.7160415649414,9.999999747378752e-06,0.0019363292958587408,14853.404296875,-23257.060546875,27595.552734375,-57.4351692199707
40.0,24.93350982666016,16732.392578125,26967.427734375,-26967.427734375,31736.65234375,-58.18177032470703,1.0,9.801484424087904e-08,0.811078667640686,8.0,0.9946027398109437,0.3175775706768036,-149.41653442382812,0.04859790578484535,0.15116789937019348,1.0007034688896964e-05,-91.10257720947264,9.999999747378752e-06,0.0019415351562201977,16732.392578125,-26967.427734375,31736.65234375,-58.18177032470703
41.0,19.862287521362305,19123.828125,31517.47265625,-31517.47265625,36865.59375,-58.75192260742188,1.0,1.0449792853250984e-07,0.7927230000495911,8.0,0.994744837284088,0.36869955062866205,-149.4837188720703,0.06215715408325195,0.16655631363391876,1.0001428563555235e-05,-90.62650299072264,9.999999747378752e-06,0.002158262999728322,19123.828125,-31517.47265625,36865.59375,-58.75192260742188
42.0,15.782828330993652,21583.06640625,36050.72265625,-36050.72265625,42017.65625,-59.09162902832031,1.0,1.432654244126752e-07,0.7871031165122986,8.0,0.9953366518020628,0.4204200804233551,-149.39517211914062,0.07779820263385773,0.18284058570861816,1.000594966171775e-05,-90.21987152099608,9.999999747378752e-06,0.002107827225700021,21583.06640625,-36050.72265625,42017.65625,-59.09162902832031
43.0,12.466754913330078,24339.1171875,40725.02734375,-40725.02734375,47443.8671875,-59.13555145263672,1.0,1.5303116640552616e-07,0.790581703186035,8.0,0.9958681464195251,0.474687397480011,-149.10739135742188,0.09549920260906221,0.1987914890050888,1.000533939077286e-05,-89.90574645996092,9.999999747378752e-06,0.0020020741503685713,24339.1171875,-40725.02734375,47443.8671875,-59.13555145263672
44.0,9.973403930664062,27737.205078125,45869.73828125,-45869.73828125,53603.96875,-58.8388557434082,1.0,1.3530879527934306e-07,0.7835633158683776,8.0,0.996392548084259,0.5363186001777649,-148.55372619628906,0.11376996338367462,0.20961159467697144,1.0005265721702015e-05,-89.66199493408203,9.999999747378752e-06,0.0020724872592836614,27737.205078125,-45869.73828125,53603.96875,-58.8388557434082
45.0,7.878151416778564,32506.732421875,51944.01171875,-51944.01171875,61276.9765625,-57.96153259277344,1.0,1.0118946391912687e-07,0.7556670904159546,8.0,0.9969475269317627,0.6131088137626648,-147.46307373046875,0.13080258667469025,0.21081660687923431,1.000557040242711e-05,-89.45978546142578,9.999999747378752e-06,0.0017810907447710631,32506.732421875,-51944.01171875,61276.9765625,-57.96153259277344
46.0,6.275100231170654,38159.78515625,58181.62890625,-58181.62890625,69579.2421875,-56.740196228027344,1.0,1.4770864709134912e-07,0.7016037702560425,8.0,0.9970960617065427,0.695894420146942,-146.07667541503906,0.13981768488883972,0.1985384970903397,1.0001489499700256e-05,-89.30320739746092,9.999999747378752e-06,0.0016282966826111078,38159.78515625,-58181.62890625,69579.2421875,-56.740196228027344
47.0,5.013369083404541,43066.1171875,63423.94140625,-63423.94140625,76663.46875,-55.822715759277344,1.0,1.514741825303645e-07,0.667438268661499,8.0,0.9979038238525391,0.7672544717788696,-145.0252685546875,0.14700175821781158,0.18932484090328217,1.0008101526182143e-05,-89.17597198486328,9.999999747378752e-06,0.0014659356093034148,43066.1171875,-63423.94140625,76663.46875,-55.822715759277344
