# point,freq,zreal,reflected_zimag,zimag,zmod,zphz,zsig,Idc,Vdc,ie_range,gain,vmod,vphz,vsig,vthd,imod,iphz,isig,ithd,zreal_drift,zimag_drift,zmod_drift,zphz_drift
0.0,250019.53125,1755.9998779296875,-243.4564971923828,243.4564971923828,1772.7962646484375,7.893321990966797,1.0,1.924464498870293e-07,0.10258370637893675,8.0,0.18571460247039795,0.003292341250926256,30.971858978271484,0.0009847866604104638,0.2862289547920227,1.8571460032035247e-06,23.078536987304688,9.999999747378752e-06,0.07644005119800566,1755.9998779296875,243.4564971923828,1772.7962646484375,7.893321990966797
1.0,198691.40625,1760.699462890625,-220.3778381347656,220.3778381347656,1774.4376220703125,7.1343207359313965,1.0,3.673618778066157e-07,0.20864565670490265,8.0,0.1486385315656662,0.01420188881456852,124.40982055664062,0.002502730116248131,0.1481810063123703,8.00359975983156e-06,117.27549743652344,1.008735125651583e-06,0.1210092082619667,1760.699462890625,220.3778381347656,1774.4376220703125,7.1343207359313965
2.0,157792.96875,1757.54296875,-136.2274627685547,136.2274627685547,1762.8145751953125,4.432144165039063,1.0,4.0745621276983e-07,0.3177349269390106,8.0,0.15223605930805206,0.01805480383336544,-177.1525421142578,0.002840206492692232,0.14380794763565063,1.0242031748930456e-05,178.41531372070312,1.3118665265210439e-06,0.12496828287839888,1757.54296875,136.2274627685547,1762.8145751953125,4.432144165039063
3.0,125332.03125,1750.090087890625,-100.38465118408205,100.38465118408205,1752.9666748046875,3.282871723175049,1.0,3.4062114195876353e-07,0.37747809290885925,8.0,0.19003276526927948,0.02188188023865223,139.3886566162109,0.0028344558086246248,0.11859886348247528,1.2482770216593051e-05,136.1057891845703,1.3858419833923108e-06,0.10887429118156432,1750.090087890625,100.38465118408205,1752.9666748046875,3.282871723175049
4.0,99550.78125,1747.8775634765625,-47.28343200683594,47.28343200683594,1748.5169677734375,1.5495824813842771,1.0,2.1081095269437358e-07,0.40382200479507446,8.0,0.2679694890975952,0.024656232446432117,-50.856800079345696,0.000993025256320834,0.03429870307445526,1.4101225133344997e-05,-52.40638732910156,9.999999747378752e-06,0.0334482304751873,1747.8775634765625,47.28343200683594,1748.5169677734375,1.5495824813842771
5.0,79160.15625,1753.999267578125,-5.418679714202881,5.418679714202881,1754.007568359375,0.17700491845607755,1.0,1.6242739775407244e-07,0.4037513136863709,8.0,0.4065484702587128,0.026610830798745155,46.18971633911133,0.0007873298600316047,0.028857668861746788,1.5171446648309939e-05,46.012710571289055,9.999999747378752e-06,0.019553214311599728,1753.999267578125,5.418679714202881,1754.007568359375,0.17700491845607755
6.0,62871.09375,1759.4521484375,34.10871505737305,-34.10871505737305,1759.78271484375,-1.1105961799621582,1.0,1.3669590259723918e-07,0.3951061367988586,8.0,0.5330304503440857,0.02307271584868431,146.7688751220703,0.0005558155244216323,0.001645316369831562,1.3111116459185723e-05,147.87945556640625,9.999999747378752e-06,0.0024677817709743977,1759.4521484375,-34.10871505737305,1759.78271484375,-1.1105961799621582
7.0,49980.46875,1768.4176025390625,71.56086730957031,-71.56086730957031,1769.8648681640625,-2.317269325256348,1.0,1.3643946772390336e-07,0.39418315887451166,8.0,0.6204820275306702,0.02060237526893616,-147.75177001953125,0.0006395133095793426,0.031475603580474854,1.164064906333806e-05,-145.43450927734375,9.999999747378752e-06,0.011452841572463512,1768.4176025390625,-71.56086730957031,1769.8648681640625,-2.317269325256348
8.0,39667.96875,1778.2535400390625,108.8266830444336,-108.8266830444336,1781.5804443359375,-3.5020556449890137,1.0,1.444639394776459e-07,0.40047615766525274,8.0,0.7020797729492188,0.020158706232905388,-60.28780746459961,0.0005698997410945593,0.00742894969880581,1.131506996898679e-05,-56.78575134277344,9.999999747378752e-06,0.011280488222837448,1778.2535400390625,-108.8266830444336,1781.5804443359375,-3.5020556449890137
9.0,31582.03125,1794.1435546875,153.70974731445312,-153.70974731445312,1800.7159423828125,-4.89674711227417,1.0,1.3555737155002134e-07,0.3993531167507172,8.0,0.772596836090088,0.019815800711512566,31.865089416503903,0.0005954979569651185,0.008190182037651539,1.1004402040271088e-05,36.761837005615234,9.999999747378752e-06,0.01206677220761776,1794.1435546875,-153.70974731445312,1800.7159423828125,-4.89674711227417
10.0,25019.53125,1804.947265625,195.3735198974609,-195.3735198974609,1815.4904785156248,-6.177833557128905,1.0,1.3126314968303634e-07,0.39905104041099543,8.0,0.8320651054382323,0.019552322104573246,139.28076171875,0.0005955730448476969,0.03242211416363716,1.0769719665404407e-05,145.45858764648435,9.999999747378752e-06,0.012207629159092903,1804.947265625,-195.3735198974609,1815.4904785156248,-6.177833557128905
11.0,19863.28125,1821.9996337890625,245.0236053466797,-245.0236053466797,1838.4012451171875,-7.659218788146973,1.0,1.3578677737768885e-07,0.40218567848205566,8.0,0.877013087272644,0.01937711425125599,173.49888610839844,0.0006998153985477984,0.002110710134729743,1.0540197763475588e-05,-178.84188842773435,9.999999747378752e-06,0.0020987023599445816,1821.9996337890625,-245.0236053466797,1838.4012451171875,-7.659218788146973
12.0,15682.8701171875,1845.4993896484373,300.2939453125,-300.2939453125,1869.7712402343752,-9.241993904113768,1.0,1.172827737150328e-07,0.4060254693031311,8.0,0.9088048338890077,0.019375508651137352,80.16058349609375,0.0004520558868534863,0.0020103391725569963,1.0362500688643195e-05,89.40258026123047,9.999999747378752e-06,0.0017601202707737684,1845.4993896484373,-300.2939453125,1869.7712402343752,-9.241993904113768
13.0,12597.65625,1869.78662109375,362.84710693359375,-362.84710693359375,1904.66796875,-10.982205390930176,1.0,1.358477703661265e-07,0.41068387031555176,8.0,0.9323975443840026,0.019541133195161816,5.099867820739745,0.0006733812624588609,0.00178426259662956,1.0259601367579307e-05,16.082075119018555,9.999999747378752e-06,0.0019798078574240208,1869.78662109375,-362.84710693359375,1904.66796875,-10.982205390930176
14.0,9895.8330078125,1898.64501953125,441.36566162109375,-441.36566162109375,1949.2708740234373,-13.086748123168944,1.0,1.0778945380707229e-07,0.41459506750106806,8.0,0.9494509696960448,0.019849224016070362,11.409967422485352,0.0006258767680265009,0.030213331803679463,1.0182898222410584e-05,24.496715545654297,9.999999747378752e-06,0.0035366008523851637,1898.64501953125,-441.36566162109375,1949.2708740234373,-13.086748123168944
15.0,7910.15625,1936.880859375,526.2762451171875,-526.2762451171875,2007.10595703125,-15.201029777526855,1.0,1.249752870080556e-07,0.4182306826114655,8.0,0.9602998495101928,0.020300401374697685,29.220195770263672,0.0006513111875392497,0.0016385569470003247,1.0114265023730695e-05,44.42122650146484,9.999999747378752e-06,0.0024403510615229607,1936.880859375,-526.2762451171875,2007.10595703125,-15.201029777526855
16.0,6307.87060546875,1981.1920166015625,622.6981201171875,-622.6981201171875,2076.74609375,-17.448183059692383,1.0,1.0894682134221513e-07,0.4221552908420562,8.0,0.9671201109886168,0.02091495506465435,83.30976104736328,0.0006266143755055964,0.002585258800536394,1.00710221886402e-05,100.75794219970705,9.999999747378752e-06,0.0033918877597898245,1981.1920166015625,-622.6981201171875,2076.74609375,-17.448183059692383
17.0,4973.3232421875,2034.09033203125,746.139404296875,-746.139404296875,2166.621337890625,-20.14390754699707,1.0,1.239922369222768e-07,0.4270450174808502,8.0,0.946146249771118,0.021196337416768078,-41.73159027099609,0.0005111817154102027,0.0011830407893285155,9.783130735740995e-06,-21.58767890930176,9.999999747378752e-06,0.0007262135040946304,2034.09033203125,-746.139404296875,2166.621337890625,-20.14390754699707
18.0,3944.3598632812495,2096.886962890625,880.057373046875,-880.057373046875,2274.0791015625,-22.76765251159668,1.0,1.2417486061622185e-07,0.43207791447639465,8.0,0.9674311280250547,0.023252377286553383,70.45023345947266,0.00048182994942180807,0.0009709618752822282,1.0224964171356987e-05,93.21788024902344,9.999999747378752e-06,0.0009627335239201784,2096.886962890625,-880.057373046875,2274.0791015625,-22.76765251159668
19.0,3144.054931640625,2166.305908203125,1032.0936279296875,-1032.0936279296875,2399.60400390625,-25.474540710449215,1.0,1.2223813428136054e-07,0.439497709274292,8.0,0.9785220026969907,0.024271134287118912,98.17507934570312,0.00040049481322057545,0.020191852003335953,1.0114642464031933e-05,123.64962005615234,9.999999747378752e-06,0.0010420094477012751,2166.305908203125,-1032.0936279296875,2399.60400390625,-25.474540710449215
20.0,2488.426025390625,2253.199462890625,1214.858642578125,-1214.858642578125,2559.841796875,-28.332237243652344,1.0,1.329847520992189e-07,0.44696086645126337,8.0,0.9835792779922483,0.02573071606457233,156.79904174804688,0.0005775874014943838,0.022434644401073452,1.00516826933017e-05,-174.8687286376953,9.999999747378752e-06,0.0011989993508905172,2253.199462890625,-1214.858642578125,2559.841796875,-28.332237243652344
21.0,1976.6566162109373,2352.21240234375,1431.9293212890625,-1431.9293212890625,2753.78369140625,-31.331321716308597,1.0,1.3494096151589474e-07,0.45063281059265137,8.0,0.988207161426544,0.02766740694642067,-132.6925811767578,0.00043040822492912406,0.002107118023559451,1.0047051546280272e-05,-101.36126708984376,9.999999747378752e-06,0.0010393267730250955,2352.21240234375,-1431.9293212890625,2753.78369140625,-31.331321716308597
22.0,1582.03125,2462.769775390625,1663.3355712890625,-1663.3355712890625,2971.854736328125,-34.034786224365234,1.0,1.6433729399523145e-07,0.4613592326641082,8.0,0.9895365238189696,0.029758522287011143,105.14910888671876,0.0007129157311283052,0.002892858814448118,1.0013452083512677e-05,139.18389892578125,9.999999747378752e-06,0.0010071803117170928,2462.769775390625,-1663.3355712890625,2971.854736328125,-34.034786224365234
23.0,1253.6336669921875,2600.369873046875,1965.6158447265625,-1965.6158447265625,3259.6884765625,-37.0855827331543,1.0,1.4796319192100782e-07,0.4625476598739624,8.0,0.9928593635559082,0.03270634636282921,132.83248901367188,0.00042159346048720176,0.003601447213441133,1.0033580110757612e-05,169.91807556152344,9.999999747378752e-06,0.0012624961091205476,2600.369873046875,-1965.6158447265625,3259.6884765625,-37.0855827331543
24.0,996.09375,2761.100341796875,2327.142822265625,-2327.142822265625,3610.9926757812495,-40.12525177001953,1.0,1.2287054573789646e-07,0.45997887849807734,8.0,0.9933871030807496,0.036129117012023926,-30.942068099975582,0.0006354225915856659,0.004916226956993341,1.0005314834415913e-05,9.18317985534668,9.999999747378752e-06,0.0017542272107675672,2761.100341796875,-2327.142822265625,3610.9926757812495,-40.12525177001953
25.0,790.028076171875,2949.952880859375,2754.48388671875,-2754.48388671875,4036.013427734375,-43.037464141845696,1.0,1.2988067510377732e-07,0.4601751565933228,8.0,0.9957237839698792,0.04045507684350014,-153.78729248046875,0.0002941869315691292,0.0059450180269777775,1.0023522918345407e-05,-110.74983978271484,9.999999747378752e-06,0.0015916209667921066,2949.952880859375,-2754.48388671875,4036.013427734375,-43.037464141845696
26.0,628.8109741210938,3170.617431640625,3239.183349609375,-3239.183349609375,4532.6728515625,-45.61287307739258,1.0,1.3121746178512694e-07,0.4635981023311615,8.0,0.9969156384468079,0.04538098350167274,59.31767272949219,0.0007610768079757689,0.007616884540766477,1.0011969607148783e-05,104.9305419921875,9.999999747378752e-06,0.0016867752419784663,3170.617431640625,-3239.183349609375,4532.6728515625,-45.61287307739258
27.0,496.3235168457031,3197.273193359375,3880.451904296875,-3880.451904296875,5027.96826171875,-50.513404846191406,1.0,1.4040850260244042e-07,0.4727917015552521,8.0,0.9678575992584227,0.04881412908434868,86.09810638427734,0.0005668060039170086,0.006173900794237852,9.708520337881055e-06,136.61151123046875,9.999999747378752e-06,0.0003721053071785718,3197.273193359375,-3880.451904296875,5027.96826171875,-50.513404846191406
28.0,395.3313293457031,3536.82568359375,4599.10009765625,-4599.10009765625,5801.7978515625,-52.43879318237305,1.0,1.3547190746976412e-07,0.4679567217826843,8.0,0.9893987774848938,0.059309259057044976,48.19326019287109,0.0008510673651471734,0.010088683106005192,1.0222565833828412e-05,100.6320571899414,9.999999747378752e-06,0.0008743641665205358,3536.82568359375,-4599.10009765625,5801.7978515625,-52.43879318237305
29.0,315.5048217773437,3906.7294921875,5364.34130859375,-5364.34130859375,6636.16552734375,-53.93498992919922,1.0,1.2529287118923094e-07,0.4750511944293976,8.0,0.9964351058006287,0.06683360040187836,173.1632080078125,0.0009079274605028332,0.014040411449968815,1.0071116776089184e-05,-132.90182495117188,9.999999747378752e-06,0.0006321386317722499,3906.7294921875,-5364.34130859375,6636.16552734375,-53.93498992919922
30.0,249.33511352539065,4376.140625,6348.48095703125,-6348.48095703125,7710.629882812499,-55.420692443847656,1.0,1.3903901674439112e-07,0.475244015455246,8.0,0.9972670078277587,0.07717067003250122,37.334171295166016,0.001477323123253882,0.01832502521574497,1.0008348908741029e-05,92.75486755371091,9.999999747378752e-06,0.0010025103110820055,4376.140625,-6348.48095703125,7710.629882812499,-55.420692443847656
31.0,198.6228790283203,4949.24169921875,7569.115234375,-7569.115234375,9043.5888671875,-56.820404052734375,1.0,1.3892815786675783e-07,0.46313738822937006,8.0,0.9976038336753843,0.09046643227338791,21.275909423828125,0.002188077662140131,0.02332141064107418,1.0003377610701136e-05,78.09630584716797,9.999999747378752e-06,0.0011220586020499468,4949.24169921875,-7569.115234375,9043.5888671875,-56.820404052734375
32.0,158.005615234375,5647.56982421875,9054.68359375,-9054.68359375,10671.56640625,-58.047462463378906,1.0,1.3301399803822278e-07,0.44979453086853033,8.0,0.9935336112976073,0.10628026723861694,78.21350860595702,0.0030580209568142887,0.028369048610329628,9.959199815057218e-06,136.2609710693359,9.999999747378752e-06,0.0012692692689597607,5647.56982421875,-9054.68359375,10671.56640625,-58.047462463378906
33.0,125.5580368041992,6335.5576171875,10399.6142578125,-10399.6142578125,12177.490234375,-58.64977645874024,1.0,1.2947583627465065e-07,0.46970090270042414,8.0,0.9846566319465635,0.12068688124418259,-157.57803344726562,0.004300570115447044,0.035267457365989685,9.910652806865983e-06,-98.92826080322264,9.999999747378752e-06,0.001431108103133738,6335.5576171875,-10399.6142578125,12177.490234375,-58.64977645874024
34.0,99.73403930664062,7137.294921875,11511.1025390625,-11511.1025390625,13544.2412109375,-58.19961166381836,1.0,1.4396273684269545e-07,0.5167925357818604,8.0,0.9903730154037476,0.13622871041297913,-154.96517944335935,0.006327236536890268,0.04529380798339844,1.005805461318232e-05,-96.76556396484376,9.999999747378752e-06,0.0010997983627021313,7137.294921875,-11511.1025390625,13544.2412109375,-58.19961166381836
35.0,78.78150939941406,8201.2607421875,13423.83203125,-13423.83203125,15730.859375,-58.577247619628906,1.0,1.4078003118811466e-07,0.5211576819419861,8.0,0.9910616278648376,0.15741796791553497,-153.35162353515625,0.008707329630851746,0.05395478010177612,1.0006952834373804e-05,-94.77438354492189,9.999999747378752e-06,0.001244043349288404,8201.2607421875,-13423.83203125,15730.859375,-58.577247619628906
36.0,62.919464111328125,9409.9443359375,15478.69921875,-15478.69921875,18114.556640625,-58.70338821411133,1.0,1.3635904849707006e-07,0.522745668888092,8.0,0.9918587803840637,0.18129126727581024,-151.97607421875,0.011792461387813091,0.06345676630735397,1.0008043318521231e-05,-93.2726821899414,9.999999747378752e-06,0.0011340479832142591,9409.9443359375,-15478.69921875,18114.556640625,-58.70338821411133
37.0,49.86701965332031,10952.61328125,18001.61328125,-18001.61328125,21071.73046875,-58.682662963867195,1.0,1.3498524253918734e-07,0.5216749906539917,8.0,0.9928635954856871,0.2109307646751404,-152.1747283935547,0.015923524275422096,0.07455151528120042,1.00101306088618e-05,-93.49205780029295,9.999999747378752e-06,0.0014301795745268464,10952.61328125,-18001.61328125,21071.73046875,-58.682662963867195
38.0,39.72457504272461,12665.4150390625,20668.837890625,-20668.837890625,24240.7421875,-58.500938415527344,1.0,1.4213587462563737e-07,0.5213502645492554,8.0,0.9929773211479187,0.24243520200252527,-151.01255798339844,0.021122636273503304,0.08605216443538666,1.0001145710702984e-05,-92.51161193847656,9.999999747378752e-06,0.0014321053167805076,12665.4150390625,-20668.837890625,24240.7421875,-58.500938415527344
39.0,31.459732055664062,14762.4501953125,23761.548828125,-23761.548828125,27973.935546875,-58.14835739135742,1.0,1.3515501962046983e-07,0.5171073079109192,8.0,0.9938918948173523,0.27999702095985407,-149.881103515625,0.028212919831275936,0.09953837841749193,1.0009210200223606e-05,-91.73274230957033,9.999999747378752e-06,0.001580097712576389,14762.4501953125,-23761.548828125,27973.935546875,-58.14835739135742
40.0,24.93350982666016,17174.60546875,27020.076171875,-27020.076171875,32016.427734375,-57.55898666381836,1.0,1.4324396602205525e-07,0.5164746642112732,8.0,0.9944223761558532,0.32033517956733704,-148.6784515380859,0.03674522414803505,0.11331567168235777,1.0005337571783455e-05,-91.11946105957033,9.999999747378752e-06,0.0013564506080001593,17174.60546875,-27020.076171875,32016.427734375,-57.55898666381836
41.0,19.862287521362305,19927.44140625,30710.533203125,-30710.533203125,36609.28515625,-57.02128219604492,1.0,1.4411315873985586e-07,0.5087864995002747,8.0,0.9951048493385315,0.36634412407875055,-147.6498565673828,0.047034483402967446,0.12684153020381927,1.000686279439833e-05,-90.62857818603517,9.999999747378752e-06,0.001562692574225366,19927.44140625,-30710.533203125,36609.28515625,-57.02128219604492
42.0,15.782828330993652,23201.66015625,34966.76171875,-34966.76171875,41964.16796875,-56.43434524536133,1.0,1.4696549044401766e-07,0.4959051311016082,8.0,0.9957065582275391,0.4198954701423645,-146.665283203125,0.05996859446167946,0.14110052585601807,1.000604697765084e-05,-90.23094177246092,9.999999747378752e-06,0.001540779136121273,23201.66015625,-34966.76171875,41964.16796875,-56.43434524536133
43.0,12.466754913330078,27181.564453125,39983.77734375,-39983.77734375,48348.109375,-55.791553497314446,1.0,1.5055901769756022e-07,0.476080983877182,8.0,0.9958906769752502,0.48357051610946655,-145.70892333984375,0.07531964033842087,0.15389443933963776,1.0001848750107456e-05,-89.9173583984375,9.999999747378752e-06,0.001628014026209712,27181.564453125,-39983.77734375,48348.109375,-55.791553497314446
44.0,9.973403930664062,31589.6171875,45427.75,-45427.75,55331.5859375,-55.18596267700195,1.0,1.555143853693153e-07,0.4486128985881805,8.0,0.9964507222175598,0.5536270141601562,-144.8686370849609,0.09086839854717255,0.16217967867851257,1.0005624062614515e-05,-89.68267059326173,9.999999747378752e-06,0.0014923622366040945,31589.6171875,-45427.75,55331.5859375,-55.18596267700195
45.0,7.878151416778564,36689.25390625,51382.9296875,-51382.9296875,63137.20703125,-54.471805572509766,1.0,1.6542698233479314e-07,0.4180895090103149,8.0,0.9967712759971618,0.6315751671791077,-143.94613647460935,0.10494884848594664,0.16419750452041623,1.0003216630138922e-05,-89.47432708740233,9.999999747378752e-06,0.0014655335107818244,36689.25390625,-51382.9296875,63137.20703125,-54.471805572509766
46.0,6.275100231170654,41952.93359375,57107.53515625,-57107.53515625,70861.265625,-53.6978645324707,1.0,1.7039367605775626e-07,0.3806162178516388,8.0,0.9971875548362734,0.7089085578918457,-143.0125274658203,0.11274585127830504,0.15715864300727844,1.0004176147049291e-05,-89.31465911865233,9.999999747378752e-06,0.0014075619401410222,41952.93359375,-57107.53515625,70861.265625,-53.6978645324707
