# point,freq,zreal,reflected_zimag,zimag,zmod,zphz,zsig,Idc,Vdc,ie_range,gain,vmod,vphz,vsig,vthd,imod,iphz,isig,ithd,zreal_drift,zimag_drift,zmod_drift,zphz_drift
0.0,250019.53125,4341.54296875,-598.5286865234375,598.5286865234375,4382.60546875,7.849365234375,1.0,5.402113743002701e-07,0.4052144289016724,8.0,0.04080221801996231,0.016821224242448807,76.36587524414062,0.003948867786675692,0.22692511975765228,3.838179054582724e-06,68.51651000976562,9.999999747378752e-06,0.16024087369441986,4341.54296875,598.5286865234375,4382.60546875,7.849365234375
1.0,198691.40625,4279.7041015625,-485.92358398437506,485.92358398437506,4307.2021484375,6.4777021408081055,1.0,4.880214419245021e-07,0.4972777366638184,8.0,0.04910717904567719,0.019896728917956352,-91.85209655761719,0.0037017387803643938,0.1775042563676834,4.61940953755402e-06,-98.32979583740233,9.999999747378752e-06,0.14260844886302948,4279.7041015625,485.92358398437506,4307.2021484375,6.4777021408081055
2.0,157792.96875,4294.31298828125,-350.739990234375,350.739990234375,4308.6123046875,4.669294834136962,1.0,5.234544460108738e-07,0.5476130843162537,8.0,0.05954518541693688,0.02413379400968552,25.26014518737793,0.003895898349583149,0.15414771437644958,5.601290922641056e-06,20.59084892272949,9.999999747378752e-06,0.1320178508758545,4294.31298828125,350.739990234375,4308.6123046875,4.669294834136962
3.0,125332.03125,4291.58056640625,-247.0424346923828,247.0424346923828,4298.68505859375,3.294563770294189,1.0,5.047340323471873e-07,0.5884140729904175,8.0,0.07296416908502577,0.02950439788401127,90.35975646972656,0.004064050503075123,0.13163018226623535,6.863586349936668e-06,87.06519317626953,9.331441219728733e-07,0.1288876235485077,4291.58056640625,247.0424346923828,4298.68505859375,3.294563770294189
4.0,99550.78125,4267.17529296875,-166.34971618652344,166.34971618652344,4270.41650390625,2.232463359832764,1.0,3.5648483276418124e-07,0.6071339845657349,8.0,0.0883648470044136,0.035496968775987625,46.537700653076165,0.0019465832738205793,0.04674972593784332,8.312295904033817e-06,44.30523681640625,9.999999747378752e-06,0.045496318489313126,4267.17529296875,166.34971618652344,4270.41650390625,2.232463359832764
5.0,79160.15625,4272.99462890625,-94.47802734375,94.47802734375,4274.0390625,1.2666317224502563,1.0,3.278556164332258e-07,0.6187625527381897,8.0,0.1115116700530052,0.04483325034379959,177.55490112304688,0.002862552646547556,0.06230660900473595,1.048966896632919e-05,176.2882843017578,9.999999747378752e-06,0.057636696845293045,4272.99462890625,94.47802734375,4274.0390625,1.2666317224502563
6.0,62871.09375,4277.3251953125,-36.56755447387695,36.56755447387695,4277.4814453125,0.48981907963752747,1.0,2.902039568652981e-07,0.6682536005973816,8.0,0.14675144851207733,0.05629245936870575,7.863555908203125,0.003994427155703305,0.06970255076885223,1.316018824581988e-05,7.373736381530762,9.38539699291141e-07,0.07027819752693176,4277.3251953125,36.56755447387695,4277.4814453125,0.48981907963752747
7.0,49980.46875,4284.36767578125,20.320730209350582,-20.320730209350582,4284.41552734375,-0.2717515230178833,1.0,2.3797694836957817e-07,0.6791477203369141,8.0,0.23065347969532007,0.06733938306570053,-108.66986846923828,0.005070819053798914,0.07417385280132292,1.5717287169536576e-05,-108.39811706542967,1.0840395816558155e-06,0.0680999904870987,4284.36767578125,-20.320730209350582,4284.41552734375,-0.2717515230178833
8.0,39667.96875,4294.43798828125,72.76321411132812,-72.76321411132812,4295.05419921875,-0.9707034826278687,1.0,1.9516733118507545e-07,0.6701868772506714,8.0,0.3924100995063782,0.07307164371013641,-161.23001098632812,0.002960732439532876,0.03926873952150345,1.7012971511576325e-05,-160.25929260253906,9.999999747378752e-06,0.03996548429131508,4294.43798828125,-72.76321411132812,4295.05419921875,-0.9707034826278687
9.0,31582.03125,4313.9296875,120.29014587402344,-120.29014587402344,4315.6064453125,-1.5972286462783811,1.0,1.6864822782736158e-07,0.6571561694145203,8.0,0.5534877181053162,0.06087088957428932,-10.552741050720215,0.0006326964357867837,0.0030710061546415086,1.410482855135342e-05,-8.955512046813965,9.999999747378752e-06,0.009904678910970688,4313.9296875,-120.29014587402344,4315.6064453125,-1.5972286462783811
10.0,25019.53125,4323.650390625,181.45704650878903,-181.45704650878903,4327.4560546875,-2.4032065868377686,1.0,1.755022935867601e-07,0.6555263996124268,8.0,0.6434277296066284,0.0503065437078476,90.59672546386719,0.0008455869392491877,0.015999697148799896,1.1624968465184791e-05,92.99993133544922,9.999999747378752e-06,0.016233792528510094,4323.650390625,-181.45704650878903,4327.4560546875,-2.4032065868377686
11.0,19863.28125,4344.2763671875,234.88244628906247,-234.88244628906247,4350.62158203125,-3.09480357170105,1.0,1.626007701815979e-07,0.6526584625244141,8.0,0.7217999100685119,0.04880544915795326,-156.06015014648435,0.0009141428163275122,0.0013601159444078803,1.1218041436222848e-05,-152.96534729003906,9.999999747378752e-06,0.0022494723089039326,4344.2763671875,-234.88244628906247,4350.62158203125,-3.09480357170105
12.0,15682.8701171875,4360.3994140625,305.5286560058594,-305.5286560058594,4371.09033203125,-4.0081048011779785,1.0,1.5475950476684375e-07,0.6526955366134644,8.0,0.7924994826316833,0.04799233749508858,65.64701843261719,0.0007424444193020464,0.001174553413875401,1.0979490070894826e-05,69.65512084960938,9.999999747378752e-06,0.003402233123779297,4360.3994140625,-305.5286560058594,4371.09033203125,-4.0081048011779785
13.0,12597.65625,4378.43798828125,411.6837768554688,-411.6837768554688,4397.75,-5.3714585304260245,1.0,1.6087926724139834e-07,0.6522400975227356,8.0,0.845963180065155,0.04694431275129318,-9.136118888854979,0.0008489636820740997,0.001153684570454061,1.0674621080397628e-05,-3.764660835266113,9.999999747378752e-06,0.0030109265353530645,4378.43798828125,-411.6837768554688,4397.75,-5.3714585304260245
14.0,9895.8330078125,4418.0615234375,459.1131896972656,-459.1131896972656,4441.8525390625,-5.932730674743652,1.0,1.6649039480398642e-07,0.6548375487327576,8.0,0.8879330754280089,0.04662221670150757,-28.3076171875,0.0004680883139371872,0.013107811100780964,1.0496120012248866e-05,-22.37488555908203,9.999999747378752e-06,0.002795355161651969,4418.0615234375,-459.1131896972656,4441.8525390625,-5.932730674743652
15.0,7910.15625,4458.75048828125,556.7116088867188,-556.7116088867188,4493.37109375,-7.1170172691345215,1.0,1.7693363929538466e-07,0.6613166332244873,8.0,0.9177047014236449,0.04644030332565308,0.14228856563568115,0.0007501118816435337,0.0011892131296917796,1.0335291335650254e-05,7.259305953979491,9.999999747378752e-06,0.002110096160322428,4458.75048828125,-556.7116088867188,4493.37109375,-7.1170172691345215
16.0,6307.87060546875,4498.52392578125,659.9520874023438,-659.9520874023438,4546.67529296875,-8.345993041992188,1.0,1.729102763192714e-07,0.6652884483337401,8.0,0.9386129379272462,0.04650263115763664,58.42765045166016,0.0008047017036005855,0.0014739743201062083,1.0227831808151676e-05,66.77364349365233,9.999999747378752e-06,0.002393122762441635,4498.52392578125,-659.9520874023438,4546.67529296875,-8.345993041992188
17.0,4973.3232421875,4557.1474609375,809.4706420898436,-809.4706420898436,4628.48095703125,-10.0722017288208,1.0,1.7189179857268755e-07,0.6667417883872986,8.0,0.9261925220489502,0.04567233473062515,-35.95585632324219,0.00042902113636955613,0.0007101744413375854,9.867672815744301e-06,-25.883655548095703,9.999999747378752e-06,0.0005068082245998085,4557.1474609375,-809.4706420898436,4628.48095703125,-10.0722017288208
18.0,3944.3598632812495,4618.23486328125,960.9260864257811,-960.9260864257811,4717.146484375,-11.753946304321287,1.0,1.790256050071548e-07,0.6754751801490784,8.0,0.9537765979766845,0.04857633635401726,66.1240463256836,0.0006818476831540464,0.0008110206690616906,1.0297821972926611e-05,77.87799072265625,9.999999747378752e-06,0.0007627835148014128,4618.23486328125,-960.9260864257811,4717.146484375,-11.753946304321287
19.0,3144.054931640625,4692.10986328125,1139.169921875,-1139.169921875,4828.416015625,-13.646470069885252,1.0,1.7039846511579526e-07,0.6786564588546753,8.0,0.967691957950592,0.04898861423134804,105.31919860839844,0.000592814467381686,0.012437340803444384,1.0145897249458356e-05,118.96566772460936,9.999999747378752e-06,0.0007138898363336921,4692.10986328125,-1139.169921875,4828.416015625,-13.646470069885252
20.0,2488.426025390625,4781.1669921875,1357.3092041015625,-1357.3092041015625,4970.09521484375,-15.848533630371092,1.0,1.5872269898409286e-07,0.6811207532882689,8.0,0.9767668843269347,0.05016705021262169,161.4560089111328,0.0005590767250396311,0.01328231394290924,1.009377956506796e-05,177.30453491210935,9.999999747378752e-06,0.0009860694408416748,4781.1669921875,-1357.3092041015625,4970.09521484375,-15.848533630371092
21.0,1976.6566162109373,4887.74609375,1610.0460205078125,-1610.0460205078125,5146.0966796875,-18.232120513916012,1.0,1.7060047241557186e-07,0.68537437915802,8.0,0.9813100099563599,0.05170031636953354,-116.78014373779295,0.0006776386871933937,0.0010604674462229011,1.004651130642742e-05,-98.54801940917967,9.999999747378752e-06,0.0011827384587377308,4887.74609375,-1610.0460205078125,5146.0966796875,-18.232120513916012
22.0,1582.03125,5010.5048828125,1901.6199951171875,-1901.6199951171875,5359.2275390625,-20.7830867767334,1.0,1.6788469281436846e-07,0.6872388124465942,8.0,0.9853988289833069,0.0538155771791935,116.51749420166016,0.0006386972381733358,0.0015319983940571547,1.0041667337645777e-05,137.3005828857422,9.999999747378752e-06,0.0011571258073672652,5010.5048828125,-1901.6199951171875,5359.2275390625,-20.7830867767334
23.0,1253.6336669921875,5164.3740234375,2247.656494140625,-2247.656494140625,5632.29248046875,-23.519802093505856,1.0,1.6583371120759693e-07,0.6946927905082704,8.0,0.988327383995056,0.05649031326174736,147.00881958007812,0.0005050820764154196,0.0019447674276307223,1.0029719305748584e-05,170.52862548828125,9.999999747378752e-06,0.0011306160595268011,5164.3740234375,-2247.656494140625,5632.29248046875,-23.519802093505856
24.0,996.09375,5351.2568359375,2657.05078125,-2657.05078125,5974.60205078125,-26.405702590942383,1.0,1.6244611344973237e-07,0.6972340941429137,8.0,0.9892182350158691,0.05979987233877183,-18.94662475585937,0.0009690875886008145,0.003111509373411536,1.0009013749368025e-05,7.459076404571533,9.999999747378752e-06,0.0017605482134968042,5351.2568359375,-2657.05078125,5974.60205078125,-26.405702590942383
25.0,790.028076171875,5562.06689453125,3161.802734375,-3161.802734375,6397.93603515625,-29.61642074584961,1.0,1.6455240370305546e-07,0.6955456733703613,8.0,0.9920209050178528,0.06416063010692596,-140.49429321289062,0.0006450119544751942,0.003922710195183754,1.002833232632838e-05,-110.87786865234376,9.999999747378752e-06,0.0013135611079633236,5562.06689453125,-3161.802734375,6397.93603515625,-29.61642074584961
26.0,628.8109741210938,5818.521484375,3729.6948242187505,-3729.6948242187505,6911.28173828125,-32.660030364990234,1.0,1.6684776937836435e-07,0.6979331970214844,8.0,0.994309663772583,0.06927227973937988,69.8227767944336,0.0009073364199139176,0.00527010764926672,1.0023071808973327e-05,102.48280334472656,9.999999747378752e-06,0.0015113535337150097,5818.521484375,-3729.6948242187505,6911.28173828125,-32.660030364990234
27.0,496.3235168457031,5819.3515625,4579.73583984375,-4579.73583984375,7405.32470703125,-38.20217514038086,1.0,1.590583309507565e-07,0.7031251192092896,8.0,0.96466463804245,0.07184536755084991,97.16776275634764,0.0008930342155508698,0.0048103081062436095,9.701852832222356e-06,135.36993408203125,9.999999747378752e-06,0.000440526520833373,5819.3515625,-4579.73583984375,7405.32470703125,-38.20217514038086
28.0,395.3313293457031,6230.96435546875,5360.61669921875,-5360.61669921875,8219.5576171875,-40.70603561401367,1.0,1.6493352461566246e-07,0.7024863362312317,8.0,0.9855777025222777,0.08397750556468964,59.08737182617188,0.0009608104592189192,0.00869951955974102,1.0216791451966856e-05,99.79340362548828,9.999999747378752e-06,0.0005821613012813032,6230.96435546875,-5360.61669921875,8219.5576171875,-40.70603561401367
29.0,315.5048217773437,6686.79150390625,6190.91552734375,-6190.91552734375,9112.662109375,-42.79482650756836,1.0,1.5797587593624485e-07,0.709975004196167,8.0,0.9945618510246276,0.09195729345083235,-175.7360382080078,0.0013513134326785803,0.013531439937651156,1.0091155672853345e-05,-132.9412078857422,9.999999747378752e-06,0.0009103973861783744,6686.79150390625,-6190.91552734375,9112.662109375,-42.79482650756836
30.0,249.33511352539065,7223.93115234375,7200.2666015625,-7200.2666015625,10199.4619140625,-44.90600204467773,1.0,1.693939708502512e-07,0.7157502770423889,8.0,0.9958754181861875,0.10212933272123335,47.195755004882805,0.002028865972533822,0.019732577726244926,1.0013207429437898e-05,92.10175323486328,9.999999747378752e-06,0.0011744808871299028,7223.93115234375,-7200.2666015625,10199.4619140625,-44.90600204467773
31.0,198.6228790283203,7875.45654296875,8619.9814453125,-8619.9814453125,11675.9111328125,-47.58430480957031,1.0,1.6615945241937882e-07,0.6963021755218506,8.0,0.9963728785514832,0.1168174371123314,30.244159698486328,0.0030006461311131716,0.025353508070111275,1.000499560177559e-05,77.8284683227539,9.999999747378752e-06,0.001438481966033578,7875.45654296875,-8619.9814453125,11675.9111328125,-47.58430480957031
32.0,158.005615234375,8634.3349609375,10225.365234375,-10225.365234375,13383.1923828125,-49.822132110595696,1.0,1.6592466067777423e-07,0.684441328048706,8.0,0.9909526109695433,0.13310387730598447,85.68894958496092,0.0043011452071368686,0.03148834407329559,9.945600140781607e-06,135.51109313964844,9.999999747378752e-06,0.0015372749185189605,8634.3349609375,-10225.365234375,13383.1923828125,-49.822132110595696
33.0,125.5580368041992,9397.201171875,11630.2607421875,-11630.2607421875,14952.26953125,-51.06193923950195,1.0,1.6468273145164858e-07,0.7003126740455627,8.0,0.9829337000846863,0.14831271767616272,-150.27017211914062,0.006438502576202153,0.042938653379678726,9.919078365783209e-06,-99.2082290649414,9.999999747378752e-06,0.0016337865963578224,9397.201171875,-11630.2607421875,14952.26953125,-51.06193923950195
34.0,99.73403930664062,10072.1591796875,12417.25390625,-12417.25390625,15988.638671875,-50.95302963256836,1.0,1.5679640341659254e-07,0.7548428177833557,8.0,0.9893617630004883,0.16093198955059052,-147.87158203125,0.009980877861380575,0.060515239834785454,1.0065396963909734e-05,-96.91854858398435,9.999999747378752e-06,0.001591121661476791,10072.1591796875,-12417.25390625,15988.638671875,-50.95302963256836
35.0,78.78150939941406,11036.37109375,14366.314453125,-14366.314453125,18116.083984375,-52.468109130859375,1.0,1.5342546078045419e-07,0.7606484889984131,8.0,0.990474820137024,0.18136465549468997,-147.34169006347656,0.013794919475913048,0.07419359683990479,1.0011250196839683e-05,-94.87358093261719,9.999999747378752e-06,0.001897219568490982,11036.37109375,-14366.314453125,18116.083984375,-52.468109130859375
36.0,62.919464111328125,12041.078125,16455.69921875,-16455.69921875,20390.625,-53.806060791015625,1.0,1.6177168049580362e-07,0.7664568424224852,8.0,0.9912741780281066,0.2040708363056183,-147.16262817382812,0.01841047778725624,0.0880396291613579,1.0008070603362285e-05,-93.35655975341795,9.999999747378752e-06,0.001891146646812558,12041.078125,-16455.69921875,20390.625,-53.806060791015625
37.0,49.86701965332031,13361.779296875,19136.705078125,-19136.705078125,23339.892578125,-55.0761833190918,1.0,1.44321376183143e-07,0.7666940689086914,8.0,0.9920455217361449,0.2335805594921112,-148.6122894287109,0.02448268234729767,0.10352452844381332,1.000778138404712e-05,-93.5361099243164,9.999999747378752e-06,0.001963608432561159,13361.779296875,-19136.705078125,23339.892578125,-55.0761833190918
38.0,39.72457504272461,14835.2392578125,22160.0234375,-22160.0234375,26667.4140625,-56.19929122924805,1.0,1.503498197052977e-07,0.7637899518013,8.0,0.9925507903099059,0.26680997014045715,-148.75912475585935,0.031938254833221436,0.1182466298341751,1.000509291770868e-05,-92.55984497070312,9.999999747378752e-06,0.002066552871838212,14835.2392578125,-22160.0234375,26667.4140625,-56.19929122924805
39.0,31.459732055664062,16493.4765625,25407.11328125,-25407.11328125,30291.19140625,-57.00967025756836,1.0,1.532673366000381e-07,0.7661738991737365,8.0,0.9933859705924989,0.30316680669784546,-148.76377868652344,0.0409889817237854,0.1335940659046173,1.0008414392359555e-05,-91.75409698486328,9.999999747378752e-06,0.0022511014249175783,16493.4765625,-25407.11328125,30291.19140625,-57.00967025756836
40.0,24.93350982666016,18541.8828125,29120.77734375,-29120.77734375,34522.76171875,-57.51413345336913,1.0,1.3879160576379945e-07,0.7631963491439819,8.0,0.994239628314972,0.34552431106567383,-148.64031982421875,0.05259817466139793,0.1503959447145462,1.0008593562815804e-05,-91.12618255615233,9.999999747378752e-06,0.002202262869104743,18541.8828125,-29120.77734375,34522.76171875,-57.51413345336913
41.0,19.862287521362305,20771.20703125,33071.921875,-33071.921875,39053.74609375,-57.8686408996582,1.0,1.5296274114007247e-07,0.7594230771064758,8.0,0.9945857524871825,0.3906733989715576,-148.51040649414062,0.06558014452457428,0.16585707664489746,1.0003481293097138e-05,-90.64175415039062,9.999999747378752e-06,0.0021259884815663095,20771.20703125,-33071.921875,39053.74609375,-57.8686408996582
42.0,15.782828330993652,23377.0,37370.03125,-37370.03125,44079.51171875,-57.97176361083984,1.0,1.4340018594793946e-07,0.7536241412162781,8.0,0.9952776432037352,0.44110175967216486,-148.2090301513672,0.08047715574502945,0.18027622997760767,1.0006956472352613e-05,-90.2372589111328,9.999999747378752e-06,0.0021132160909473896,23377.0,-37370.03125,44079.51171875,-57.97176361083984
43.0,12.466754913330078,26658.8984375,42358.48046875,-42358.48046875,50049.3515625,-57.81516647338867,1.0,1.4799205416693442e-07,0.7381315827369691,8.0,0.9959305524826048,0.500821888446808,-147.7328338623047,0.09717199206352234,0.19171980023384091,1.000655993266264e-05,-89.91767120361328,9.999999747378752e-06,0.0022364824544638395,26658.8984375,-42358.48046875,50049.3515625,-57.81516647338867
44.0,9.973403930664062,30366.8125,47463.41015625,-47463.41015625,56346.41796875,-57.38912963867188,1.0,1.4937657510927238e-07,0.7173268795013428,8.0,0.9961101412773132,0.5635657906532288,-147.06056213378906,0.11314954608678816,0.19839872419834137,1.0001803275372367e-05,-89.67144012451172,9.999999747378752e-06,0.0020489043090492487,30366.8125,-47463.41015625,56346.41796875,-57.38912963867188
45.0,7.878151416778564,35019.7578125,53052.12109375,-53052.12109375,63568.16015625,-56.57115936279297,1.0,1.5079136517215375e-07,0.686675488948822,8.0,0.9967010617256163,0.6360587477684021,-146.03773498535156,0.12848313152790067,0.1996072232723236,1.0005932381318416e-05,-89.4665756225586,9.999999747378752e-06,0.0018286193953827024,35019.7578125,-53052.12109375,63568.16015625,-56.57115936279297
46.0,6.275100231170654,39994.19921875,58564.5390625,-58564.5390625,70917.8515625,-55.67051696777344,1.0,1.5785636264809002e-07,0.6488054990768433,8.0,0.9971919655799864,0.7095277905464172,-144.9799346923828,0.13978908956050873,0.194685697555542,1.0004925570683552e-05,-89.3094253540039,9.999999747378752e-06,0.0016443144995719194,39994.19921875,-58564.5390625,70917.8515625,-55.67051696777344
47.0,5.013369083404541,45270.2265625,64085.09375,-64085.09375,78462.046875,-54.762310028076165,1.0,1.5313246137793612e-07,0.6008657813072205,8.0,0.9975705146789551,0.7849183082580566,-143.94873046875,0.14716072380542755,0.18526665866374967,1.0003795978263952e-05,-89.18641662597656,9.999999747378752e-06,0.0014100351836532354,45270.2265625,-64085.09375,78462.046875,-54.762310028076165
