# point,freq,zreal,reflected_zimag,zimag,zmod,zphz,zsig,Idc,Vdc,ie_range,gain,vmod,vphz,vsig,vthd,imod,iphz,isig,ithd,zreal_drift,zimag_drift,zmod_drift,zphz_drift
0.0,250019.53125,4267.6474609375,-589.5531005859375,589.5531005859375,4308.1767578125,7.8653292655944815,1.0,4.951314735990309e-07,0.4480782747268677,8.0,0.04123492911458016,0.01671091467142105,143.75048828125,0.003801631042733789,0.22260242700576785,3.878883489960572e-06,135.88514709472656,9.999999747378752e-06,0.15972478687763214,4267.6474609375,589.5531005859375,4308.1767578125,7.8653292655944815
1.0,198691.40625,4179.27587890625,-511.92874145507807,511.92874145507807,4210.5126953125,6.983498096466064,1.0,5.684308916897863e-07,0.5132790803909302,8.0,0.049876566976308816,0.019754815846681595,-141.10946655273435,0.003738230559974909,0.17629636824131012,4.691783942689653e-06,-148.0929718017578,9.999999747378752e-06,0.14541982114315033,4179.27587890625,511.92874145507807,4210.5126953125,6.983498096466064
2.0,157792.96875,4180.5205078125,-358.51275634765625,358.51275634765625,4195.865234375,4.90157413482666,1.0,5.351125764718745e-07,0.5826688408851624,8.0,0.06046165525913239,0.023863987997174263,-35.79329299926758,0.003855706425383687,0.15311092138290405,5.68750101592741e-06,-40.694869995117195,9.999999747378752e-06,0.14046518504619598,4180.5205078125,358.51275634765625,4195.865234375,4.90157413482666
3.0,125332.03125,4201.8251953125,-260.7367248535156,260.7367248535156,4209.9072265625,3.550833940505981,1.0,5.710004415959702e-07,0.6080705523490906,8.0,0.07411371916532515,0.02935030683875084,50.96082305908203,0.0042695021256804475,0.1367875635623932,6.971722541493364e-06,47.40998840332031,9.284141810894654e-07,0.12697866559028623,4201.8251953125,260.7367248535156,4209.9072265625,3.550833940505981
4.0,99550.78125,4165.94287109375,-161.37823486328125,161.37823486328125,4169.0673828125,2.21838641166687,1.0,3.7187800216997857e-07,0.6830316185951233,8.0,0.08983131498098373,0.0352296344935894,21.390647888183597,0.001832551439292729,0.0461377426981926,8.450243512925226e-06,19.17226219177246,9.999999747378752e-06,0.04587939009070397,4165.94287109375,161.37823486328125,4169.0673828125,2.21838641166687
5.0,79160.15625,4170.880859375,-94.41926574707033,94.41926574707033,4171.94921875,1.2968248128890991,1.0,3.46973536125006e-07,0.7218812704086303,8.0,0.11335301399230956,0.04448499903082848,100.95929718017578,0.00286804442293942,0.06081096455454826,1.066288041329244e-05,99.6624755859375,9.999999747378752e-06,0.058134805411100395,4170.880859375,94.41926574707033,4171.94921875,1.2968248128890991
6.0,62871.09375,4176.94189453125,-37.9185905456543,37.9185905456543,4177.1142578125,0.5201210975646973,1.0,3.1513880571765185e-07,0.7636451125144958,8.0,0.1516769379377365,0.05589369311928749,-91.24855041503906,0.004056850448250771,0.07063855230808258,1.3380936252360696e-05,-91.76866912841795,9.716229669720635e-07,0.07019384950399399,4176.94189453125,37.9185905456543,4177.1142578125,0.5201210975646973
7.0,49980.46875,4187.826171875,15.785003662109377,-15.785003662109377,4187.85595703125,-0.21596165001392365,1.0,2.282804700826091e-07,0.772481381893158,8.0,0.2402380406856537,0.06633059680461884,-111.62758636474608,0.004848585929721594,0.07269717752933502,1.5838797480682842e-05,-111.41162109375,1.0918211046373472e-06,0.06799548119306564,4187.826171875,-15.785003662109377,4187.85595703125,-0.21596165001392365
8.0,39667.96875,4197.79296875,65.51082611083984,-65.51082611083984,4198.30419921875,-0.8940863013267517,1.0,1.744713102880269e-07,0.7678168416023254,8.0,0.4072458148002625,0.07116864621639252,14.661243438720703,0.002640919992700219,0.036158137023448944,1.6951762518147007e-05,15.555331230163574,9.999999747378752e-06,0.037831269204616554,4197.79296875,-65.51082611083984,4198.30419921875,-0.8940863013267517
9.0,31582.03125,4211.1103515625,115.8878173828125,-115.8878173828125,4212.70458984375,-1.5763555765151975,1.0,1.4056148245344957e-07,0.7575233578681946,8.0,0.5620089769363403,0.05813632532954216,-163.46502685546875,0.0006856832187622786,0.004075526259839536,1.3800238775729667e-05,-161.888671875,9.999999747378752e-06,0.012669365853071213,4211.1103515625,-115.8878173828125,4212.70458984375,-1.5763555765151975
10.0,25019.53125,4227.05419921875,171.49514770507812,-171.49514770507812,4230.53173828125,-2.3232638835906982,1.0,1.34052214662006e-07,0.7533478736877441,8.0,0.6506475806236267,0.04897760227322578,-5.284908771514893,0.0008047017036005855,0.01566983573138714,1.1577174518606624e-05,-2.9616446495056152,9.999999747378752e-06,0.01604357920587063,4227.05419921875,-171.49514770507812,4230.53173828125,-2.3232638835906982
11.0,19863.28125,4243.76904296875,227.65361022949216,-227.65361022949216,4249.87060546875,-3.0706431865692134,1.0,1.2601222465491446e-07,0.7511391639709472,8.0,0.7286417484283446,0.04759309440851212,75.15206146240233,0.0006987712695263326,0.001489569549448788,1.1198715583304875e-05,78.22270202636719,9.999999747378752e-06,0.0025752824731171127,4243.76904296875,-227.65361022949216,4249.87060546875,-3.0706431865692134
12.0,15682.8701171875,4267.0712890625,288.4755249023437,-288.4755249023437,4276.8115234375,-3.867598533630371,1.0,1.2432640517090476e-07,0.7453798055648804,8.0,0.7982113957405089,0.04685154929757118,10.69700050354004,0.0004916873294860125,0.0011678050504997373,1.0954785466310568e-05,14.564599990844727,9.999999747378752e-06,0.0027579411398619413,4267.0712890625,-288.4755249023437,4276.8115234375,-3.867598533630371
13.0,12597.65625,4287.68115234375,348.5108642578125,-348.5108642578125,4301.82177734375,-4.646893978118896,1.0,1.350923497511758e-07,0.742486000061035,8.0,0.8499607443809509,0.04580715298652649,-82.56924438476561,0.0004619357350748032,0.001188249560073018,1.0648316674632952e-05,-77.9223403930664,9.999999747378752e-06,0.0021583070047199726,4287.68115234375,-348.5108642578125,4301.82177734375,-4.646893978118896
14.0,9895.8330078125,4328.8837890625,430.0130615234375,-430.0130615234375,4350.18896484375,-5.672910690307617,1.0,1.550689461282673e-07,0.7461251020431519,8.0,0.8923698663711549,0.04567243531346321,-73.45816802978516,0.0005742237553931773,0.014091060496866705,1.049895399773959e-05,-67.7852554321289,9.999999747378752e-06,0.003755275625735521,4328.8837890625,-430.0130615234375,4350.18896484375,-5.672910690307617
15.0,7910.15625,4356.63623046875,512.762451171875,-512.762451171875,4386.7080078125,-6.71265172958374,1.0,1.703508019090805e-07,0.7501706480979918,8.0,0.9219067692756653,0.045319054275751114,-37.776702880859375,0.00011657555296551436,0.0008595071267336608,1.0330993973184375e-05,-31.06405639648437,9.999999747378752e-06,0.0030674762092530727,4356.63623046875,-512.762451171875,4386.7080078125,-6.71265172958374
16.0,6307.87060546875,4403.32177734375,614.5316772460938,-614.5316772460938,4445.9970703125,-7.9449357986450195,1.0,1.7126370721598505e-07,0.7494150996208192,8.0,0.9424027204513549,0.045448411256074905,34.552696228027344,0.0005243058549240232,0.0017360178753733635,1.0222321179753637e-05,42.49762725830078,9.999999747378752e-06,0.002680956851691008,4403.32177734375,-614.5316772460938,4445.9970703125,-7.9449357986450195
17.0,4973.3232421875,4462.66552734375,748.6001586914062,-748.6001586914062,4525.017578125,-9.522555351257324,1.0,1.805938438792509e-07,0.7512565255165101,8.0,0.9293671846389769,0.044624265283346176,-59.83733367919922,0.0005426296847872436,0.0007225269800983369,9.86167742667021e-06,-50.31478118896484,9.999999747378752e-06,0.0007157613290473819,4462.66552734375,-748.6001586914062,4525.017578125,-9.522555351257324
18.0,3944.3598632812495,4526.22216796875,879.5513916015626,-879.5513916015626,4610.88916015625,-10.996864318847656,1.0,2.0116095811317794e-07,0.7601282000541686,8.0,0.9563145637512208,0.04744583740830421,53.24226760864258,0.0005580095457844436,0.0006424856255762279,1.0289953934261575e-05,64.2391357421875,9.999999747378752e-06,0.0005537698743864894,4526.22216796875,-879.5513916015626,4610.88916015625,-10.996864318847656
19.0,3144.054931640625,4599.74462890625,1023.5512084960936,-1023.5512084960936,4712.2509765625,-12.545255661010742,1.0,2.1421912776986574e-07,0.7731631398200989,8.0,0.9695542454719543,0.04777489230036736,88.1788558959961,0.0005437270156107843,0.008651944808661938,1.013844484987203e-05,100.72411346435545,9.999999747378752e-06,0.0008333989535458387,4599.74462890625,-1023.5512084960936,4712.2509765625,-12.545255661010742
20.0,2488.426025390625,4688.0625,1197.65673828125,-1197.65673828125,4838.626953125,-14.330803871154783,1.0,2.1292791529958777e-07,0.7829277515411378,8.0,0.980073034763336,0.04891121760010719,154.28477478027344,0.0006996237207204103,0.011819795705378056,1.010849155136384e-05,168.61557006835935,9.999999747378752e-06,0.0011107559548690915,4688.0625,-1197.65673828125,4838.626953125,-14.330803871154783
21.0,1976.6566162109373,4791.65966796875,1400.2921142578125,-1400.2921142578125,4992.07568359375,-16.290225982666016,1.0,2.124812823467437e-07,0.7886375188827514,8.0,0.9840624332427977,0.05012396350502968,-135.21791076660156,9.999999747378752e-06,0.001259674085304141,1.00407050922513e-05,-118.9276885986328,9.999999747378752e-06,0.0010634020436555147,4791.65966796875,-1400.2921142578125,4992.07568359375,-16.290225982666016
22.0,1582.03125,4908.140625,1619.968994140625,-1619.968994140625,5168.57275390625,-18.2658634185791,1.0,1.8622472452989316e-07,0.7967581152915953,8.0,0.9879657030105591,0.05189073830842972,109.30156707763672,0.0005448221345432103,0.0018825748702511191,1.0039664630312473e-05,127.56742858886717,9.999999747378752e-06,0.0012486340710893271,4908.140625,-1619.968994140625,5168.57275390625,-18.2658634185791
23.0,1253.6336669921875,5050.92431640625,1874.6940917968752,-1874.6940917968752,5387.607421875,-20.36284065246582,1.0,1.9768195613778522e-07,0.8067557215690612,8.0,0.9927642941474913,0.05413775518536568,138.5770263671875,9.999999747378752e-06,0.0025455064605921503,1.0048570402432231e-05,158.9398651123047,9.999999747378752e-06,0.00114687776658684,5050.92431640625,-1874.6940917968752,5387.607421875,-20.36284065246582
24.0,996.09375,5206.681640625,2147.368408203125,-2147.368408203125,5632.115234375,-22.412500381469727,1.0,1.8616937325077745e-07,0.820545196533203,8.0,0.9936138987541199,0.0563693605363369,-19.064136505126957,0.0005399869405664504,0.003531398484483361,1.0008558092522433e-05,3.3483629226684566,9.999999747378752e-06,0.0011500160908326507,5206.681640625,-2147.368408203125,5632.115234375,-22.412500381469727
25.0,790.028076171875,5391.2685546875,2515.83935546875,-2515.83935546875,5949.388671875,-25.016143798828125,1.0,1.7700737942050185e-07,0.8215091228485107,8.0,0.996384859085083,0.059659797698259354,-142.5118408203125,9.999999747378752e-06,0.005383044481277466,1.0027887583419213e-05,-117.49568939208984,9.999999747378752e-06,0.001439675688743591,5391.2685546875,-2515.83935546875,5949.388671875,-25.016143798828125
26.0,628.8109741210938,5602.2626953125,2917.4345703125,-2917.4345703125,6316.38916015625,-27.508699417114254,1.0,1.6974961170035385e-07,0.825828731060028,8.0,0.9963429570198061,0.06316123902797699,71.07723999023438,0.0010188594460487364,0.007270039059221744,9.999579560826531e-06,98.5859375,9.999999747378752e-06,0.0011212326353415847,5602.2626953125,-2917.4345703125,6316.38916015625,-27.508699417114254
27.0,496.3235168457031,5560.3125,3533.306884765625,-3533.306884765625,6587.96923828125,-32.433963775634766,1.0,1.727848371047003e-07,0.8381773233413696,8.0,0.9710923433303832,0.06421007961034775,100.37804412841795,0.000763032236136496,0.006646999157965183,9.74656722974032e-06,132.81201171875,9.999999747378752e-06,0.0004652287752833217,5560.3125,-3533.306884765625,6587.96923828125,-32.433963775634766
28.0,395.3313293457031,5889.88134765625,4115.51416015625,-4115.51416015625,7185.27392578125,-34.943660736083984,1.0,1.9923351146644566e-07,0.8346590995788574,8.0,0.9901289939880371,0.07326129078865051,63.140674591064446,0.0009911026572808623,0.011190931312739847,1.019603314489359e-05,98.08433532714845,9.999999747378752e-06,0.0005831430898979305,5889.88134765625,-4115.51416015625,7185.27392578125,-34.943660736083984
29.0,315.5048217773437,6247.51806640625,4812.67724609375,-4812.67724609375,7886.27587890625,-37.60829162597656,1.0,1.9815141172330186e-07,0.830105721950531,8.0,0.9986695647239683,0.07954300940036772,-172.83587646484375,0.0013400629395619035,0.016204334795475006,1.0086257134389596e-05,-135.2275848388672,9.999999747378752e-06,0.0009178367909044028,6247.51806640625,-4812.67724609375,7886.27587890625,-37.60829162597656
30.0,249.33511352539065,6633.8896484375,5585.0498046875,-5585.0498046875,8671.8662109375,-40.093914031982415,1.0,1.3536138965264402e-07,0.8331453204154968,8.0,0.9992974400520324,0.08677319437265395,51.1656608581543,0.0020313907880336046,0.02225303649902344,1.0006287084252108e-05,91.25958251953124,9.999999747378752e-06,0.0011263085762038827,6633.8896484375,-5585.0498046875,8671.8662109375,-40.093914031982415
31.0,198.6228790283203,7044.14501953125,6449.3193359375,-6449.3193359375,9550.5859375,-42.47589111328125,1.0,1.3467669646161085e-07,0.838129460811615,8.0,0.9992502331733704,0.0955013558268547,34.008235931396484,0.0028157788328826427,0.028878683224320408,9.999527719628531e-06,76.48413085937501,9.999999747378752e-06,0.0012101620668545363,7044.14501953125,-6449.3193359375,9550.5859375,-42.47589111328125
32.0,158.005615234375,7733.959960937501,7996.224609375,-7996.224609375,11124.4658203125,-45.95518493652344,1.0,1.4444181317685434e-07,0.8068470358848571,8.0,0.9946498870849608,0.11073251068592072,89.27577209472656,0.004125586710870266,0.03679961338639259,9.95396203506971e-06,135.23095703125,9.999999747378752e-06,0.001399828353896737,7733.959960937501,-7996.224609375,11124.4658203125,-45.95518493652344
33.0,125.5580368041992,8300.9619140625,9272.072265625,-9272.072265625,12444.970703125,-48.163028717041016,1.0,1.68366980801693e-07,0.8113495111465454,8.0,0.9846786856651306,0.1232021152973175,-148.02557373046875,0.005781114101409912,0.046291619539260864,9.89975160337053e-06,-99.86254119873047,9.999999747378752e-06,0.0016222688136622308,8300.9619140625,-9272.072265625,12444.970703125,-48.163028717041016
34.0,99.73403930664062,8692.94140625,9878.5693359375,-9878.5693359375,13158.775390625,-48.65287399291992,1.0,1.787713301837357e-07,0.8622070550918579,8.0,0.9914918541908264,0.13249821960926056,-145.52444458007812,0.007884645834565161,0.0579308420419693,1.006919137580553e-05,-96.87156677246092,9.999999747378752e-06,0.0013742916053161025,8692.94140625,-9878.5693359375,13158.775390625,-48.65287399291992
35.0,78.78150939941406,9408.216796875,11506.09375,-11506.09375,14862.8642578125,-50.728076934814446,1.0,1.7150635756024712e-07,0.8689200282096863,8.0,0.9924661517143248,0.14877469837665555,-145.57437133789062,0.010641131550073624,0.06973820179700851,1.0009826837631408e-05,-94.84628295898435,9.999999747378752e-06,0.0015266996342688799,9408.216796875,-11506.09375,14862.8642578125,-50.728076934814446
36.0,62.919464111328125,10127.43359375,13235.5859375,-13235.5859375,16665.703125,-52.57797622680664,1.0,1.7103083393976706e-07,0.8776178956031798,8.0,0.9929498434066771,0.16673824191093445,-145.86663818359375,0.014008359052240849,0.08194793015718461,1.0004873729485553e-05,-93.28865814208984,9.999999747378752e-06,0.0015197648899629712,10127.43359375,-13235.5859375,16665.703125,-52.57797622680664
37.0,49.86701965332031,11083.7412109375,15305.3193359375,-15305.3193359375,18897.146484375,-54.0888557434082,1.0,1.4383194013589673e-07,0.8859336972236633,8.0,0.9936153292655946,0.18909808993339536,-147.56057739257812,0.018453434109687805,0.09638958424329756,1.0006701813836116e-05,-93.47172546386719,9.999999747378752e-06,0.0016132511664181948,11083.7412109375,-15305.3193359375,18897.146484375,-54.0888557434082
38.0,39.72457504272461,12173.224609375,17723.927734375,-17723.927734375,21501.744140625,-55.517772674560554,1.0,1.2919650771436866e-07,0.8896739482879639,8.0,0.9942759871482848,0.21516041457653043,-148.00955200195312,0.024266537278890606,0.11141650378704072,1.0006649063143412e-05,-92.49176788330078,9.999999747378752e-06,0.001781863742507994,12173.224609375,-17723.927734375,21501.744140625,-55.517772674560554
39.0,31.459732055664062,13617.3427734375,20796.2578125,-20796.2578125,24857.923828125,-56.78330993652344,1.0,1.2098581692043808e-07,0.8848609924316406,8.0,0.9946598410606384,0.24867519736289975,-148.48236083984375,0.03241216391324997,0.12873469293117523,1.0003860552387776e-05,-91.69905090332033,9.999999747378752e-06,0.0017910903552547095,13617.3427734375,-20796.2578125,24857.923828125,-56.78330993652344
40.0,24.93350982666016,15356.640625,24250.7734375,-24250.7734375,28704.119140625,-57.65623474121094,1.0,1.4745354803835653e-07,0.8797597885131837,8.0,0.994791865348816,0.2870793044567108,-148.7476806640625,0.043024543672800064,0.1480349153280258,1.000132760964334e-05,-91.09145355224608,9.999999747378752e-06,0.0020339863840490575,15356.640625,-24250.7734375,28704.119140625,-57.65623474121094
41.0,19.862287521362305,17332.236328125,28110.1953125,-28110.1953125,33024.07421875,-58.3427734375,1.0,1.7693729148504644e-07,0.871880531311035,8.0,0.9954022765159608,0.3304433524608612,-148.9334716796875,0.05589985102415085,0.16712552309036255,1.0006136108131612e-05,-90.59071350097656,9.999999747378752e-06,0.00204182812012732,17332.236328125,-28110.1953125,33024.07421875,-58.3427734375
42.0,15.782828330993652,19636.77734375,32361.84375,-32361.84375,37853.55859375,-58.75112915039063,1.0,1.9528154382442159e-07,0.8653258681297302,8.0,0.995815336704254,0.37869271636009216,-148.9683380126953,0.07142703235149384,0.18635804951190948,1.000414977170294e-05,-90.21720886230467,9.999999747378752e-06,0.0019509560661390424,19636.77734375,-32361.84375,37853.55859375,-58.75112915039063
43.0,12.466754913330078,22505.767578125,37349.02734375,-37349.02734375,43605.7265625,-58.92768478393555,1.0,2.0155279401024018e-07,0.8546716570854187,8.0,0.9963416457176208,0.4362877011299133,-148.81141662597656,0.0910097435116768,0.2061156630516052,1.0005284821090754e-05,-89.88374328613281,9.999999747378752e-06,0.0018156793667003512,22505.767578125,-37349.02734375,43605.7265625,-58.92768478393555
44.0,9.973403930664062,26079.640625,42934.78125,-42934.78125,50234.87890625,-58.72447967529297,1.0,1.6324973728387707e-07,0.8327420353889465,8.0,0.9967988729476928,0.5025793313980104,-148.37660217285156,0.11247353255748747,0.22113250195980072,1.0004589057643896e-05,-89.6521224975586,9.999999747378752e-06,0.0018566739745438097,26079.640625,-42934.78125,50234.87890625,-58.72447967529297
45.0,7.878151416778564,31242.388671875,49757.12890625,-49757.12890625,58752.51953125,-57.87538146972656,1.0,1.3585237468305422e-07,0.7834837436676025,8.0,0.9968823790550234,0.5875744819641113,-147.3322601318359,0.13267824053764343,0.2231277227401733,1.0000838301493786e-05,-89.4568862915039,9.999999747378752e-06,0.0018310954328626396,31242.388671875,-49757.12890625,58752.51953125,-57.87538146972656
46.0,6.275100231170654,36661.01171875,56008.71484375,-56008.71484375,66940.3203125,-56.79288482666016,1.0,1.8137119184302722e-07,0.7305557131767274,8.0,0.9973183870315552,0.6696959733963013,-146.0893096923828,0.14547239243984222,0.21465079486370087,1.0004373507399576e-05,-89.29640960693358,9.999999747378752e-06,0.0015641116769984365,36661.01171875,-56008.71484375,66940.3203125,-56.79288482666016
47.0,5.013369083404541,41915.90625,61597.40625,-61597.40625,74506.265625,-55.765430450439446,1.0,1.568795937600953e-07,0.6830904483795166,8.0,0.9979141354560851,0.7455077171325684,-144.9379730224609,0.15381933748722076,0.20388390123844144,1.0005973308579996e-05,-89.17254638671875,9.999999747378752e-06,0.0014555710367858408,41915.90625,-61597.40625,74506.265625,-55.765430450439446
