# point,freq,zreal,reflected_zimag,zimag,zmod,zphz,zsig,Idc,Vdc,ie_range,gain,vmod,vphz,vsig,vthd,imod,iphz,isig,ithd,zreal_drift,zimag_drift,zmod_drift,zphz_drift
0.0,250019.53125,29313.048828125,73180.9296875,-73180.9296875,78833.390625,-68.171142578125,1.0,4.6325035896188643e-07,0.5181725025177002,8.0,0.014542363584041595,0.11046435683965682,103.7204360961914,0.007079164497554302,0.062274884432554245,1.3679696166946087e-06,162.31427001953125,9.999999747378752e-06,0.26302799582481384,29313.048828125,-73180.9296875,78833.390625,-68.171142578125
1.0,198691.40625,41854.37890625,85582.1015625,-85582.1015625,95268.484375,-63.9388084411621,1.0,4.97734845339437e-07,0.6206386685371399,8.0,0.015288345515727997,0.1391827017068863,-84.48631286621092,0.014692447148263454,0.09567072242498396,1.4381425899046008e-06,-28.840606689453125,9.999999747378752e-06,0.23906344175338745,41854.37890625,-85582.1015625,95268.484375,-63.9388084411621
2.0,157792.96875,58641.35546875,97778.8203125,-97778.8203125,114015.375,-59.04742431640625,1.0,4.77443620638951e-07,0.6840035915374756,8.0,0.01615694910287857,0.17508666217327115,-70.40166473388672,0.01799905300140381,0.09413927048444751,1.5198503433566657e-06,-17.97611427307129,9.999999747378752e-06,0.262060821056366,58641.35546875,-97778.8203125,114015.375,-59.04742431640625
3.0,125332.03125,79319.125,107665.3125,-107665.3125,133728.609375,-53.62020492553711,1.0,4.448722279448703e-07,0.7509410381317138,8.0,0.017429500818252563,0.2207660377025604,-87.76611328125,0.0213348176330328,0.09239402413368224,1.639556558075128e-06,-39.42818069458008,9.999999747378752e-06,0.26163807511329645,79319.125,-107665.3125,133728.609375,-53.62020492553711
4.0,99550.78125,104778.515625,111555.21875,-111555.21875,153046.078125,-46.79421615600586,1.0,2.7911991651308204e-07,0.7834564447402954,8.0,0.018797766417264935,0.2707567811012268,118.47425079345705,0.01172291487455368,0.03841664269566536,1.7682664292806292e-06,161.3047332763672,9.999999747378752e-06,0.08591757714748383,104778.515625,-111555.21875,153046.078125,-46.79421615600586
5.0,79160.15625,129538.7890625,112254.90625,-112254.90625,171410.21875,-40.91134262084961,1.0,2.6913900796898815e-07,0.7696115374565123,8.0,0.021457664668560028,0.3461398184299469,-43.83913803100586,0.023481158539652824,0.05303572118282318,2.01847751668538e-06,-6.05994987487793,9.999999747378752e-06,0.10765116661787032,129538.7890625,-112254.90625,171410.21875,-40.91134262084961
6.0,62871.09375,153861.71875,106408.7421875,-106408.7421875,187072.84375,-34.6672248840332,1.0,2.582138733941975e-07,0.8209406733512878,8.0,0.024915888905525208,0.43864250183105463,-149.16148376464844,0.02863530069589615,0.06364094465970993,2.3437853542418448e-06,-116.97650909423828,9.999999747378752e-06,0.11999744921922684,153861.71875,-106408.7421875,187072.84375,-34.6672248840332
7.0,49980.46875,174493.828125,97343.4140625,-97343.4140625,199809.5,-29.15547180175781,1.0,2.3416362182615563e-07,0.844581127166748,8.0,0.029424061998724937,0.5532491207122803,-133.1757354736328,0.04425627738237381,0.07900306582450865,2.7678597689373414e-06,-105.99410247802734,9.999999747378752e-06,0.1384228616952896,174493.828125,-97343.4140625,199809.5,-29.15547180175781
8.0,39667.96875,191430.4375,85271.9296875,-85271.9296875,209563.625,-24.010393142700195,1.0,2.388769075878372e-07,0.8748342394828796,8.0,0.03540286794304848,0.6981124877929688,143.65673828125,0.05589759349822999,0.07879853993654251,3.330273557367036e-06,166.0983428955078,9.999999747378752e-06,0.1305875927209854,191430.4375,-85271.9296875,209563.625,-24.010393142700195
9.0,31582.03125,204418.765625,73165.21875,-73165.21875,217117.890625,-19.69321823120117,1.0,2.48839455707639e-07,0.8969730734825134,8.0,0.04292707145214081,0.876932382583618,-91.48935699462889,0.07031203806400299,0.07900771498680113,4.038059614686063e-06,-73.04727935791014,9.999999747378752e-06,0.11812598258256912,204418.765625,-73165.21875,217117.890625,-19.69321823120117
10.0,25019.53125,213584.78125,60826.9140625,-60826.9140625,222077.40625,-15.896449089050291,1.0,2.6087920446116186e-07,0.9100779891014099,8.0,0.05301916226744652,1.107766032218933,140.43099975585935,0.0938684344291687,0.0837249755859375,4.987401553080417e-06,155.33468627929688,9.999999747378752e-06,0.10699620097875596,213584.78125,-60826.9140625,222077.40625,-15.896449089050291
11.0,19863.28125,219593.46875,49968.79296875,-49968.79296875,225206.953125,-12.819445610046387,1.0,2.4190561020986934e-07,0.8781078457832336,8.0,0.0658435970544815,1.3950320482254028,-127.90680694580078,0.11227991431951521,0.07933229953050613,6.193768967932556e-06,-115.87651062011717,9.999999747378752e-06,0.09511702507734297,219593.46875,-49968.79296875,225206.953125,-12.819445610046387
12.0,15682.8701171875,223811.515625,40585.75390625,-40585.75390625,227461.640625,-10.27826690673828,1.0,2.49628442361427e-07,0.9241817593574526,8.0,0.08255085349082945,1.7664543390274048,-155.33375549316406,0.14166206121444702,0.07918328046798706,7.765385817037894e-06,-145.6791229248047,9.999999747378752e-06,0.09009166061878204,223811.515625,-40585.75390625,227461.640625,-10.27826690673828
13.0,12597.65625,226514.71875,33857.59375,-33857.59375,229031.109375,-8.501173973083496,1.0,2.397623859451415e-07,0.952200770378113,8.0,0.10203403234481812,2.1983752250671382,177.74484252929688,0.17614266276359558,0.07912394404411317,9.59812768996926e-06,-174.25526428222656,9.999999747378752e-06,0.08667557686567305,226514.71875,-33857.59375,229031.109375,-8.501173973083496
14.0,9895.8330078125,228497.421875,26723.0625,-26723.0625,230054.765625,-6.670511722564696,1.0,2.5770796696633624e-07,0.9642699360847472,8.0,0.1291823387145996,2.795689821243286,176.1232147216797,0.2185551226139069,0.0772499367594719,1.2151912414992692e-05,-177.6002197265625,1.0342963605580735e-06,0.0838499516248703,228497.421875,-26723.0625,230054.765625,-6.670511722564696
15.0,7910.15625,229952.40625,21829.150390625,-21829.150390625,230986.203125,-5.422780513763428,1.0,2.3684545169544438e-07,0.9712655544281005,8.0,0.19154661893844604,3.4250421524047847,-145.8566436767578,0.25898295640945435,0.07469621300697327,1.482761581428349e-05,-140.74884033203125,1.1867855391756164e-06,0.07801404595375061,229952.40625,-21829.150390625,230986.203125,-5.422780513763428
16.0,6307.87060546875,230661.875,17873.255859375,-17873.255859375,231353.3125,-4.430814266204834,1.0,2.123529725395201e-07,0.9673482775688172,8.0,0.32140809297561646,3.882071256637573,-53.894142150878906,0.20785783231258392,0.05289125069975853,1.6779627912910655e-05,-49.714542388916016,9.999999747378752e-06,0.05241384729743004,230661.875,-17873.255859375,231353.3125,-4.430814266204834
17.0,4973.3232421875,231220.109375,14448.123046875,-14448.123046875,231671.078125,-3.575561046600342,1.0,1.7448053313273706e-07,0.9364104270935057,8.0,0.4990596771240234,3.6020269393920894,-134.2062835693359,0.015987617895007133,0.004070722497999668,1.5527290088357404e-05,-130.74620056152344,9.999999747378752e-06,0.004216482862830161,231220.109375,-14448.123046875,231671.078125,-3.575561046600342
18.0,3944.3598632812495,231694.03125,11857.578125,-11857.578125,231997.25,-2.9297127723693848,1.0,1.6335251018517738e-07,0.9329147934913635,8.0,0.6134498715400696,2.854560613632202,-10.72587776184082,0.006347636692225933,0.0003235139884054661,1.2292114661249796e-05,-7.908707618713379,9.999999747378752e-06,0.0004994270275346935,231694.03125,-11857.578125,231997.25,-2.9297127723693848
19.0,3144.054931640625,232079.859375,9986.0703125,-9986.0703125,232294.59375,-2.4638371467590328,1.0,1.7634241089581337e-07,0.9334037899971008,8.0,0.7029085159301758,2.6635248661041255,43.1841926574707,0.00624517910182476,0.0021386463195085526,1.1458287190180272e-05,45.54711532592773,9.999999747378752e-06,0.0007417283486574888,232079.859375,-9986.0703125,232294.59375,-2.4638371467590328
20.0,2488.426025390625,232361.921875,8457.2021484375,-8457.2021484375,232515.78125,-2.084455966949463,1.0,1.6854002637956e-07,0.9250736832618712,8.0,0.7834924459457396,2.5928940773010254,117.28701019287108,0.005938633345067501,0.002201740629971028,1.1146436008857565e-05,119.28560638427734,9.999999747378752e-06,0.0007011445704847574,232361.921875,-8457.2021484375,232515.78125,-2.084455966949463
21.0,1976.6566162109373,232595.53125,7294.25927734375,-7294.25927734375,232709.875,-1.7962225675582884,1.0,1.7208733993356873e-07,0.91958886384964,8.0,0.8480367660522462,2.5195457935333248,-157.51373291015625,0.005441557615995407,0.0005747592658735812,1.0823802767845336e-05,-155.78868103027344,9.999999747378752e-06,0.0007895659073255955,232595.53125,-7294.25927734375,232709.875,-1.7962225675582884
22.0,1582.03125,232822.890625,6557.75390625,-6557.75390625,232915.21875,-1.6133822202682495,1.0,1.5690655175149004e-07,0.9141886234283448,8.0,0.8976687788963318,2.465939998626709,95.19973754882812,0.007464438211172819,0.0005678671295754611,1.0585257768980227e-05,96.75466918945312,9.999999747378752e-06,0.000984308891929686,232822.890625,-6557.75390625,232915.21875,-1.6133822202682495
23.0,1253.6336669921875,233072.265625,6006.5029296875,-6006.5029296875,233149.640625,-1.476242184638977,1.0,1.5522419971603085e-07,0.9133413434028624,8.0,0.935247004032135,2.429393053054809,132.53680419921875,0.0026391264982521534,0.0005807446432299912,1.0418620149721391e-05,133.96595764160156,9.999999747378752e-06,0.0008659421582706272,233072.265625,-6006.5029296875,233149.640625,-1.476242184638977
24.0,996.09375,233368.75,5679.01953125,-5679.01953125,233437.84375,-1.3940154314041135,1.0,1.548882835322729e-07,0.9193977713584901,8.0,0.9614099860191344,2.399866342544556,-19.26429557800293,0.008119734935462473,0.0008035536739043891,1.0279743946739472e-05,-17.90808868408203,9.999999747378752e-06,0.0011341123608872294,233368.75,-5679.01953125,233437.84375,-1.3940154314041135
25.0,790.028076171875,233654.859375,5648.462890625,-5648.462890625,233723.125,-1.3848206996917725,1.0,1.7189489653901546e-07,0.9158790707588195,8.0,0.9787104129791261,2.3794054985046382,-135.16856384277344,0.006090243346989155,0.0008103911532089113,1.0179948731092736e-05,-133.81393432617188,9.999999747378752e-06,0.0012123185442760587,233654.859375,-5648.462890625,233723.125,-1.3848206996917725
26.0,628.8109741210938,234033.1875,5809.224609375,-5809.224609375,234105.265625,-1.4219168424606323,1.0,1.5173216638686426e-07,0.9098348617553712,8.0,0.9897330999374387,2.3674919605255127,84.8294677734375,0.00828011706471443,0.001180277788080275,1.0112624295288695e-05,86.22726440429686,9.999999747378752e-06,0.0014898934168741107,234033.1875,-5809.224609375,234105.265625,-1.4219168424606323
27.0,496.3235168457031,234403.734375,6024.44970703125,-6024.44970703125,234481.140625,-1.4722442626953125,1.0,1.4991593388913318e-07,0.9110017418861389,8.0,0.9691828489303587,2.250640153884888,118.1366729736328,0.005591536872088909,0.00040779641130939126,9.7923657449428e-06,122.13549041748045,9.999999747378752e-06,0.00041097658686339855,234403.734375,-6024.44970703125,234481.140625,-1.4722442626953125
28.0,395.3313293457031,234808.46875,6479.2412109375,-6479.2412109375,234897.84375,-1.5806031227111816,1.0,1.6650511724947137e-07,0.9111815690994263,8.0,0.9929005503654481,2.378009796142578,86.83206176757811,0.007502416148781776,0.00062419573077932,1.0244718396279495e-05,90.49834442138672,9.999999747378752e-06,0.0004728164640255272,234808.46875,-6479.2412109375,234897.84375,-1.5806031227111816
29.0,315.5048217773437,235233.421875,7045.20263671875,-7045.20263671875,235338.90625,-1.7154864072799683,1.0,1.5856267054914497e-07,0.9121754169464112,8.0,1.0026034116744995,2.3594970703125,-145.1262054443359,0.0036391241010278463,0.0009942492470145223,1.0097722224600147e-05,-141.72853088378906,9.999999747378752e-06,0.0007655841181986035,235233.421875,-7045.20263671875,235338.90625,-1.7154864072799683
30.0,249.33511352539065,235827.546875,7920.590820312499,-7920.590820312499,235960.515625,-1.9236340522766116,1.0,1.677506560326947e-07,0.9114949703216552,8.0,1.0073951482772827,2.36084508895874,82.56526947021484,0.0044095953926444045,0.001418568892404437,1.004779369395692e-05,85.8203125,9.999999747378752e-06,0.0008721222984604537,235827.546875,-7920.590820312499,235960.515625,-1.9236340522766116
31.0,198.6228790283203,236556.859375,9084.005859375,-9084.005859375,236731.203125,-2.199131488800049,1.0,1.6893083909508277e-07,0.9001715183258056,8.0,1.0055485963821411,2.356827974319458,69.29735565185547,0.004816834349185228,0.001993033103644848,9.98166979115922e-06,72.5557861328125,9.999999747378752e-06,0.0009877708507701755,236556.859375,-9084.005859375,236731.203125,-2.199131488800049
32.0,158.005615234375,237344.1875,10505.4248046875,-10505.4248046875,237576.5625,-2.5343949794769287,1.0,1.5692573640535556e-07,0.8849456310272216,8.0,1.0020723342895508,2.3637423515319824,128.46994018554688,0.008130064234137535,0.0027553227264434095,9.965428944269661e-06,131.84561157226562,9.999999747378752e-06,0.0010795419802889228,237344.1875,-10505.4248046875,237576.5625,-2.5343949794769287
33.0,125.5580368041992,238279.8125,12178.25,-12178.25,238590.8125,-2.925786018371582,1.0,1.586473814541023e-07,0.8730527162551879,8.0,0.9928337335586547,2.3615443706512447,-105.52548217773436,0.009370540268719196,0.003700647503137589,9.907805178954733e-06,-101.93211364746092,9.999999747378752e-06,0.00129286281298846,238279.8125,-12178.25,238590.8125,-2.925786018371582
34.0,99.73403930664062,238868.890625,12435.4443359375,-12435.4443359375,239192.359375,-2.9801113605499268,1.0,1.5367201910976294e-07,0.936861217021942,8.0,0.9980647563934326,2.403021812438965,-101.75334167480467,0.011353031732141972,0.004545104224234819,1.005268768494716e-05,-98.24349212646483,9.999999747378752e-06,0.0007028954569250345,238868.890625,-12435.4443359375,239192.359375,-2.9801113605499268
35.0,78.78150939941406,239969.046875,14185.560546875,-14185.560546875,240387.96875,-3.3830528259277344,1.0,1.6126111290759582e-07,0.950544834136963,8.0,0.9983409643173216,2.4036118984222408,-99.71449279785155,0.014517826959490776,0.005887304432690144,1.0002767339756247e-05,-95.91329193115233,9.999999747378752e-06,0.0006790943443775177,239969.046875,-14185.560546875,240387.96875,-3.3830528259277344
36.0,62.919464111328125,240971.859375,16704.310546875,-16704.310546875,241550.140625,-3.9654333591461186,1.0,1.6294416127493605e-07,0.9575588703155516,8.0,0.9988726377487183,2.416192054748535,-98.4246597290039,0.017779620364308357,0.007176277693361044,1.0005325748352332e-05,-94.12542724609376,9.999999747378752e-06,0.0005005264538340272,240971.859375,-16704.310546875,241550.140625,-3.9654333591461186
37.0,49.86701965332031,242446.46875,18123.6640625,-18123.6640625,243122.921875,-4.275095462799072,1.0,1.6195328100820919e-07,0.9618564248085022,8.0,0.9991904497146606,2.4316272735595703,-98.69460296630861,0.02317402884364128,0.009375826455652712,1.0003182069340257e-05,-94.15502929687501,9.999999747378752e-06,0.0007900025229901075,242446.46875,-18123.6640625,243122.921875,-4.275095462799072
38.0,39.72457504272461,243919.984375,20825.51953125,-20825.51953125,244807.390625,-4.879992485046387,1.0,1.502749427118033e-07,0.9571549892425536,8.0,0.999261796474457,2.4480092525482178,-98.07241058349608,0.029250502586364743,0.011766904965043068,1.0000713700719643e-05,-92.98178100585936,9.999999747378752e-06,0.0006042244494892657,243919.984375,-20825.51953125,244807.390625,-4.879992485046387
39.0,31.459732055664062,245855.28125,23989.525390625,-23989.525390625,247022.90625,-5.573039054870605,1.0,1.5792986118867702e-07,0.9508047699928285,8.0,0.9993215799331664,2.4702253341674805,-97.80403900146483,0.04242148995399475,0.016967711970210075,1.0000598194892518e-05,-92.06420135498048,9.999999747378752e-06,0.0006145908846519889,245855.28125,-23989.525390625,247022.90625,-5.573039054870605
40.0,24.93350982666016,248158.78125,27399.326171875,-27399.326171875,249666.78125,-6.300534248352051,1.0,1.7127361218172155e-07,0.9502718448638915,8.0,0.9991365075111389,2.4961097240448,-97.80840301513673,0.0478585846722126,0.018922699615359303,9.99814801616594e-06,-91.37568664550781,9.999999747378752e-06,0.0006714625633321702,248158.78125,-27399.326171875,249666.78125,-6.300534248352051
41.0,19.862287521362305,250738.46875,31626.779296875,-31626.779296875,252725.203125,-7.189011573791504,1.0,1.5587013990625564e-07,0.9368538260459902,8.0,0.9998785853385923,2.529067516326904,-98.08936309814452,0.0652785673737526,0.025472082197666168,1.0007427590608133e-05,-90.79505920410156,9.999999747378752e-06,0.0005625127232633531,250738.46875,-31626.779296875,252725.203125,-7.189011573791504
42.0,15.782828330993652,254206.828125,36817.19140625,-36817.19140625,256859.140625,-8.240939140319824,1.0,1.435691387996485e-07,0.9106001257896424,8.0,0.9996959567070008,2.568082809448242,-98.6873550415039,0.08185040205717087,0.031474947929382324,9.998173482017592e-06,-90.3627471923828,9.999999747378752e-06,0.0004533355822786689,254206.828125,-36817.19140625,256859.140625,-8.240939140319824
43.0,12.466754913330078,258907.3125,43945.53125,-43945.53125,262610.375,-9.633266448974608,1.0,1.4336939102577162e-07,0.8554255366325377,8.0,0.9997032284736632,2.6260976791381836,-99.69424438476561,0.10200577974319458,0.03837386146187782,1.0000072506954892e-05,-89.99488830566406,9.999999747378752e-06,0.00045036431401968,258907.3125,-43945.53125,262610.375,-9.633266448974608
44.0,9.973403930664062,263855.875,50192.03125,-50192.03125,268587.34375,-10.770419120788574,1.0,1.48214269302116e-07,0.8146941661834717,8.0,0.9996780157089232,2.6857893466949463,-100.5413818359375,0.11748917400836945,0.04321806505322456,9.99974781734636e-06,-89.7180938720703,9.999999747378752e-06,0.0003493370895739645,263855.875,-50192.03125,268587.34375,-10.770419120788574
45.0,7.878151416778564,269365.375,56005.8359375,-56005.8359375,275126.0625,-11.745465278625488,1.0,1.4053895824872598e-07,0.7730222940444945,8.0,0.9998289942741394,2.7516653537750244,-101.27828979492188,0.12844473123550415,0.046124931424856186,1.0001510418078396e-05,-89.49105834960938,9.999999747378752e-06,0.0004135773051530122,269365.375,-56005.8359375,275126.0625,-11.745465278625488
46.0,6.275100231170654,274862.0,61331.94921875,-61331.94921875,281621.625,-12.578758239746092,1.0,1.260610673625706e-07,0.723659098148346,8.0,1.000037670135498,2.8167970180511475,-101.92047882080078,0.13443516194820404,0.0471559502184391,1.000208703771932e-05,-89.30846405029295,9.999999747378752e-06,0.00022986653493717313,274862.0,-61331.94921875,281621.625,-12.578758239746092
47.0,5.013369083404541,280462.125,66465.34375,-66465.34375,288230.1875,-13.332288742065428,1.0,1.1617117934292764e-07,0.6603447198867798,8.0,1.00008487701416,2.8824334144592285,-102.52765655517578,0.13581272959709167,0.04648734256625176,1.0000471775128972e-05,-89.16879272460938,9.999999747378752e-06,0.0002836106577888131,280462.125,-66465.34375,288230.1875,-13.332288742065428
48.0,3.939075708389282,286384.9375,72009.0078125,-72009.0078125,295299.21875,-14.113941192626951,1.0,9.248899601743688e-08,0.5779120922088623,8.0,0.9998617768287658,2.9523308277130127,-103.1830825805664,0.13275213539600372,0.04442114010453224,9.997769666370003e-06,-89.04825592041014,9.999999747378752e-06,0.00020351306011434644,286384.9375,-72009.0078125,295299.21875,-14.113941192626951
49.0,3.137550115585327,291412.625,77266.9921875,-77266.9921875,301482.1875,-14.85006046295166,1.0,9.556843849622963e-08,0.49422281980514526,8.0,1.0001389980316162,3.015655517578125,-103.81585693359376,0.12805257737636566,0.04194381833076477,1.0002771887229756e-05,-88.94915771484375,9.999999747378752e-06,0.00023641277221031487,291412.625,-77266.9921875,301482.1875,-14.85006046295166
