# point,freq,zreal,reflected_zimag,zimag,zmod,zphz,zsig,Idc,Vdc,ie_range,gain,vmod,vphz,vsig,vthd,imod,iphz,isig,ithd,zreal_drift,zimag_drift,zmod_drift,zphz_drift
0.0,250019.53125,4299.9345703125,-606.1372680664064,606.1372680664064,4342.4462890625,8.023791313171385,1.0,5.32000512976083e-07,0.45852339267730713,8.0,0.04103108122944832,0.016760574653744698,136.37503051757812,0.003272645641118288,0.19041387736797327,3.859707703668391e-06,128.3512420654297,9.999999747378752e-06,0.15317563712596893,4299.9345703125,606.1372680664064,4342.4462890625,8.023791313171385
1.0,198691.40625,4249.68994140625,-479.8196105957031,479.8196105957031,4276.69140625,6.441812038421631,1.0,5.041365511715412e-07,0.48206871747970576,8.0,0.04946356266736984,0.019899161532521248,149.71299743652344,0.004038926679641008,0.1788884401321411,4.652933512261369e-06,143.2711639404297,9.999999747378752e-06,0.144450843334198,4249.68994140625,479.8196105957031,4276.69140625,6.441812038421631
2.0,157792.96875,4254.14501953125,-336.3470153808594,336.3470153808594,4267.4208984375,4.520593166351318,1.0,4.887433533440344e-07,0.5681868195533752,8.0,0.05964340269565582,0.02394249103963375,-76.87964630126953,0.0038235024549067025,0.15354599058628082,5.610530024569016e-06,-81.40023803710938,9.999999747378752e-06,0.13497622311115265,4254.14501953125,336.3470153808594,4267.4208984375,4.520593166351318
3.0,125332.03125,4254.58740234375,-247.8666534423828,247.8666534423828,4261.80126953125,3.334208011627197,1.0,4.6741564574404043e-07,0.5889862775802612,8.0,0.07354839146137236,0.029485456645488736,-44.00234222412109,0.004031293094158173,0.13141244649887085,6.918543022038648e-06,-47.33654785156249,9.999999747378752e-06,0.12280822545289992,4254.58740234375,247.8666534423828,4261.80126953125,3.334208011627197
4.0,99550.78125,4224.61767578125,-155.35678100585935,155.35678100585935,4227.47314453125,2.1060552597045894,1.0,3.624645330546628e-07,0.6453629732131958,8.0,0.08898931741714476,0.035388339310884476,-76.04458618164062,0.0017719295574352143,0.04690522328019142,8.371038347831927e-06,-78.15065002441406,9.999999747378752e-06,0.04575495421886444,4224.61767578125,155.35678100585935,4227.47314453125,2.1060552597045894
5.0,79160.15625,4231.68603515625,-95.38692474365233,95.38692474365233,4232.7607421875,1.2912920713424683,1.0,3.6261462810216477e-07,0.6978070139884949,8.0,0.11223319917917252,0.04468755051493645,57.69322204589844,0.0028106938116252422,0.06146690621972084,1.05575418274384e-05,56.40193557739258,9.999999747378752e-06,0.058529611676931374,4231.68603515625,95.38692474365233,4232.7607421875,1.2912920713424683
6.0,62871.09375,4236.11083984375,-34.34813690185547,34.34813690185547,4236.25,0.4645676910877228,1.0,3.3071310667764925e-07,0.7336455583572388,8.0,0.14880166947841644,0.05616528913378716,-103.3638916015625,0.004060697741806507,0.07049922645092009,1.3258257240522651e-05,-103.82846069335936,9.455353620069217e-07,0.0702606737613678,4236.11083984375,34.34813690185547,4236.25,0.4645676910877228
7.0,49980.46875,4246.28466796875,18.55885505676269,-18.55885505676269,4246.3251953125,-0.2504159212112427,1.0,2.587055689673435e-07,0.7398461103439331,8.0,0.23472455143928528,0.06698291003704071,138.39691162109375,0.004883984103798865,0.07244811952114105,1.577432340127416e-05,138.64732360839844,1.0795849902933696e-06,0.06757183372974396,4246.28466796875,-18.55885505676269,4246.3251953125,-0.2504159212112427
8.0,39667.96875,4256.2333984375,70.78083801269531,-70.78083801269531,4256.82177734375,-0.9527366757392883,1.0,1.6935111091243018e-07,0.7293376922607421,8.0,0.39881980419158936,0.07232754677534102,-153.10784912109375,0.002714070724323392,0.0377432256937027,1.6990970834740438e-05,-152.1551055908203,9.999999747378752e-06,0.0383181869983673,4256.2333984375,-70.78083801269531,4256.82177734375,-0.9527366757392883
9.0,31582.03125,4261.0234375,127.1917724609375,-127.1917724609375,4262.92138671875,-1.709774374961853,1.0,1.591617291296643e-07,0.7220007181167601,8.0,0.5585011839866638,0.05969730392098426,-38.81261444091797,0.0006926024798303843,0.0035436691250652075,1.4003848264110275e-05,-37.102840423583984,9.999999747378752e-06,0.010772384703159332,4261.0234375,-127.1917724609375,4262.92138671875,-1.709774374961853
10.0,25019.53125,4286.1396484375,177.2609100341797,-177.2609100341797,4289.8037109375,-2.3682191371917725,1.0,1.6196506180676806e-07,0.7143959403038025,8.0,0.6456403136253357,0.049591124057769775,78.8011474609375,0.000816466985270381,0.015649009495973587,1.1560231541807296e-05,81.16936492919923,9.999999747378752e-06,0.0141789261251688,4286.1396484375,-177.2609100341797,4289.8037109375,-2.3682191371917725
11.0,19863.28125,4304.5771484375,233.94937133789065,-233.94937133789065,4310.9296875,-3.1109066009521484,1.0,1.5831008681743697e-07,0.7214778065681458,8.0,0.7248527407646179,0.04839830100536346,144.5556640625,0.0007755837286822499,0.0008775732712820172,1.122688172472408e-05,147.6665802001953,9.999999747378752e-06,0.0023637244012206793,4304.5771484375,-233.94937133789065,4310.9296875,-3.1109066009521484
12.0,15682.8701171875,4326.05322265625,300.48147583007807,-300.48147583007807,4336.47607421875,-3.973301649093628,1.0,1.6186380946692225e-07,0.7211135625839233,8.0,0.7941593527793884,0.047511070966720574,57.40700912475586,0.0007613117340952158,0.0012673869496211407,1.0956146979879122e-05,61.38031005859375,9.999999747378752e-06,0.003056921064853668,4326.05322265625,-300.48147583007807,4336.47607421875,-3.973301649093628
13.0,12597.65625,4322.7421875,371.9333801269531,-371.9333801269531,4338.71337890625,-4.9176788330078125,1.0,1.58518659532092e-07,0.7289067506790161,8.0,0.851074457168579,0.046496566385030746,21.120214462280277,0.0006082972977310419,0.0012459602439776063,1.07166715679341e-05,26.037891387939453,9.999999747378752e-06,0.002336462726816535,4322.7421875,-371.9333801269531,4338.71337890625,-4.9176788330078125
14.0,9895.8330078125,4383.376953125,446.1696472167969,-446.1696472167969,4406.02587890625,-5.811934471130371,1.0,1.526694290987507e-07,0.7330691814422606,8.0,0.8900698423385619,0.04607905074954033,-5.787953853607178,0.0007938137860037385,0.01458666194230318,1.0458189535711426e-05,0.023979974910616875,9.999999747378752e-06,0.0027049807831645008,4383.376953125,-446.1696472167969,4406.02587890625,-5.811934471130371
15.0,7910.15625,4417.8212890625,534.824462890625,-534.824462890625,4450.07666015625,-6.902676105499268,1.0,1.5423451316110004e-07,0.7382259964942931,8.0,0.9208891987800598,0.04604164138436317,18.15185546875,0.0008048498420976102,0.0013840798055753112,1.0346258022764232e-05,25.054533004760746,9.999999747378752e-06,0.0029560467228293415,4417.8212890625,-534.824462890625,4450.07666015625,-6.902676105499268
16.0,6307.87060546875,4464.56201171875,637.2242431640625,-637.2242431640625,4509.80810546875,-8.122929573059082,1.0,1.7246995298592083e-07,0.7422657012939453,8.0,0.9414480328559875,0.04610489681363106,55.836040496826165,0.0007589593296870589,0.0014658098807558415,1.0223249773844144e-05,63.9589729309082,9.999999747378752e-06,0.0019556884653866287,4464.56201171875,-637.2242431640625,4509.80810546875,-8.122929573059082
17.0,4973.3232421875,4525.7041015625,768.4893798828125,-768.4893798828125,4590.4873046875,-9.637213706970215,1.0,1.7330674495497078e-07,0.7492562532424927,8.0,0.9270004034042358,0.0452004075050354,-39.348438262939446,0.0005382179515436292,0.0006129960529506208,9.846537977864498e-06,-29.711227416992188,9.999999747378752e-06,0.0006918650469742715,4525.7041015625,-768.4893798828125,4590.4873046875,-9.637213706970215
18.0,3944.3598632812495,4588.60400390625,905.0115356445312,-905.0115356445312,4677.00048828125,-11.15726089477539,1.0,1.736817125674861e-07,0.7553263306617738,8.0,0.954635977745056,0.04816430062055588,61.18450927734375,0.0007807920919731259,0.0006688471185043454,1.029811846819939e-05,72.3417739868164,9.999999747378752e-06,0.0005900664255023003,4588.60400390625,-905.0115356445312,4677.00048828125,-11.15726089477539
19.0,3144.054931640625,4663.20263671875,1061.2198486328125,-1061.2198486328125,4782.43115234375,-12.820633888244627,1.0,1.865311958226812e-07,0.7646628022193908,8.0,0.9686650633811951,0.04852711781859398,107.82474517822264,9.999999747378752e-06,0.008191620931029318,1.0146957720280623e-05,120.64537811279295,9.999999747378752e-06,0.0008313816506415604,4663.20263671875,-1061.2198486328125,4782.43115234375,-12.820633888244627
20.0,2488.426025390625,4751.96142578125,1256.936279296875,-1256.936279296875,4915.38671875,-14.815934181213377,1.0,1.6092687360469426e-07,0.7636805772781373,8.0,0.9779265522956848,0.04962382465600968,161.014404296875,0.0005577958654612303,0.011486320756375788,1.009561037790263e-05,175.83033752441406,9.999999747378752e-06,0.0010533733293414116,4751.96142578125,-1256.936279296875,4915.38671875,-14.815934181213377
21.0,1976.6566162109373,4859.65625,1482.302490234375,-1482.302490234375,5080.69677734375,-16.96286392211914,1.0,1.4334960951600806e-07,0.7648548483848571,8.0,0.9845481514930723,0.05115098506212234,-122.51937103271484,9.999999747378752e-06,0.0012132810661569236,1.0067710718431044e-05,-105.55651092529295,9.999999747378752e-06,0.001029981765896082,4859.65625,-1482.302490234375,5080.69677734375,-16.96286392211914
22.0,1582.03125,4981.095703125,1741.350341796875,-1741.350341796875,5276.705078125,-19.26920890808105,1.0,1.745424640375859e-07,0.7633615732192993,8.0,0.9868107438087464,0.05288830772042274,114.05926513671876,9.999999747378752e-06,0.001726916991174221,1.0022980859503148e-05,133.32847595214844,9.999999747378752e-06,0.0007962479721754788,4981.095703125,-1741.350341796875,5276.705078125,-19.26920890808105
23.0,1253.6336669921875,5131.19580078125,2033.61279296875,-2033.61279296875,5519.48828125,-21.619581222534176,1.0,1.8152644543079083e-07,0.7718767523765565,8.0,0.9901058673858641,0.05537918955087662,145.84982299804688,0.00019285564485471693,0.002295778132975101,1.0033391845354345e-05,167.4694061279297,9.999999747378752e-06,0.0010094847530126572,5131.19580078125,-2033.61279296875,5519.48828125,-21.619581222534176
24.0,996.09375,5306.04052734375,2389.898681640625,-2389.898681640625,5819.4228515625,-24.247322082519528,1.0,1.787288965715561e-07,0.7724478840827942,8.0,0.9937015175819397,0.0584055669605732,-17.183837890625,0.0007016654126346111,0.002745261648669839,1.0036315870820545e-05,7.063485145568848,9.999999747378752e-06,0.0012149977264925835,5306.04052734375,-2389.898681640625,5819.4228515625,-24.247322082519528
25.0,790.028076171875,5512.25830078125,2790.86474609375,-2790.86474609375,6178.5048828125,-26.85316467285156,1.0,1.9801129269581002e-07,0.7785949110984801,8.0,0.9948019981384275,0.06185346469283104,-139.2255706787109,0.000568381161428988,0.005031980108469725,1.001107466436224e-05,-112.37240600585936,9.999999747378752e-06,0.001179245300590992,5512.25830078125,-2790.86474609375,6178.5048828125,-26.85316467285156
26.0,628.8109741210938,5752.25,3271.062744140625,-3271.062744140625,6617.267578125,-29.625072479248047,1.0,1.9080563617990265e-07,0.7785990238189697,8.0,0.994955003261566,0.06618285924196243,71.69542694091797,0.0010189764434471726,0.0067114210687577724,1.0001537702919448e-05,101.32049560546876,9.999999747378752e-06,0.0017091319896280763,5752.25,-3271.062744140625,6617.267578125,-29.625072479248047
27.0,496.3235168457031,5737.17919921875,3987.9306640625,-3987.9306640625,6987.04638671875,-34.803279876708984,1.0,1.5944301878789702e-07,0.7865756154060363,8.0,0.9680234193801882,0.06797920167446136,100.4475326538086,0.0005859375232830644,0.006338214501738548,9.729318662721198e-06,135.25082397460935,9.999999747378752e-06,0.0005718860193155706,5737.17919921875,-3987.9306640625,6987.04638671875,-34.803279876708984
28.0,395.3313293457031,6100.40185546875,4591.80419921875,-4591.80419921875,7635.41552734375,-36.96896743774414,1.0,1.342852584684806e-07,0.790936768054962,8.0,0.9877099990844727,0.07790696620941162,62.576507568359375,0.0011360280914232135,0.010778179392218588,1.020336912915809e-05,99.54547119140624,9.999999747378752e-06,0.0006413026130758226,6100.40185546875,-4591.80419921875,7635.41552734375,-36.96896743774414
29.0,315.5048217773437,6494.98974609375,5318.177734375,-5318.177734375,8394.5166015625,-39.31104278564453,1.0,1.3714145552512494e-07,0.7916653752326965,8.0,0.9971196055412291,0.08474487811326979,-172.80653381347656,0.001518546836450696,0.01625044457614422,1.009526658890536e-05,-133.4954833984375,9.999999747378752e-06,0.0008907480514608324,6494.98974609375,-5318.177734375,8394.5166015625,-39.31104278564453
30.0,249.33511352539065,6962.79248046875,6196.44189453125,-6196.44189453125,9320.7490234375,-41.66704559326172,1.0,1.2513648073309014e-07,0.7924224734306334,8.0,0.9985382556915283,0.09334009885787965,50.727760314941406,0.002042101696133613,0.02229026891291141,1.0014227882493287e-05,92.39481353759763,9.999999747378752e-06,0.0011309339897707105,6962.79248046875,-6196.44189453125,9320.7490234375,-41.66704559326172
31.0,198.6228790283203,7500.41259765625,7299.94970703125,-7299.94970703125,10466.396484375,-44.22400665283203,1.0,1.2501926960339918e-07,0.7852386832237244,8.0,0.9969935417175294,0.10450204461812972,33.51761245727539,0.0031576736364513636,0.029444731771945957,9.984530151996298e-06,77.74162292480467,9.999999747378752e-06,0.0011685001663863659,7500.41259765625,-7299.94970703125,10466.396484375,-44.22400665283203
32.0,158.005615234375,8149.89697265625,8689.751953125,-8689.751953125,11913.546875,-46.8361930847168,1.0,1.0818886408969774e-07,0.7727344036102296,8.0,0.9939216971397402,0.11876840144395828,88.70127868652342,0.004493593703955412,0.037137869745492935,9.96918879536679e-06,135.5374755859375,9.999999747378752e-06,0.0015591885894536972,8149.89697265625,-8689.751953125,11913.546875,-46.8361930847168
33.0,125.5580368041992,8820.4267578125,10081.9931640625,-10081.9931640625,13395.7646484375,-48.81831741333008,1.0,1.1127617938200272e-07,0.7756540775299072,8.0,0.9855311512947081,0.13282679021358487,-147.78173828125,0.006315083242952824,0.046898871660232544,9.91558135865489e-06,-98.96342468261719,9.999999747378752e-06,0.001594734378159046,8820.4267578125,-10081.9931640625,13395.7646484375,-48.81831741333008
34.0,99.73403930664062,9409.7060546875,10978.3544921875,-10978.3544921875,14459.1435546875,-49.39964294433594,1.0,1.424175621878021e-07,0.8157953619956969,8.0,0.9908903241157533,0.14537769556045532,-146.2939910888672,0.00905286893248558,0.06072209030389786,1.0054378435597757e-05,-96.89434814453124,9.999999747378752e-06,0.001608479069545865,9409.7060546875,-10978.3544921875,14459.1435546875,-49.39964294433594
35.0,78.78150939941406,10251.5595703125,12772.94921875,-12772.94921875,16378.1162109375,-51.2495002746582,1.0,1.6348627696061158e-07,0.8211056590080261,8.0,0.9917631149291992,0.1639254242181778,-146.11953735351562,0.012320985086262226,0.07338928431272505,1.0008808203565422e-05,-94.87004089355469,9.999999747378752e-06,0.0013001490151509643,10251.5595703125,-12772.94921875,16378.1162109375,-51.2495002746582
36.0,62.919464111328125,11096.2216796875,14661.8525390625,-14661.8525390625,18387.388671875,-52.8812370300293,1.0,1.6574887240494718e-07,0.8296424746513367,8.0,0.9921731948852541,0.1839499324560165,-146.21319580078125,0.01621355675160885,0.08603183925151825,1.0004135219787711e-05,-93.33195495605469,9.999999747378752e-06,0.0019643243867903948,11096.2216796875,-14661.8525390625,18387.388671875,-52.8812370300293
37.0,49.86701965332031,12173.3515625,16823.689453125,-16823.689453125,20766.005859375,-54.111106872558594,1.0,1.7045638855961442e-07,0.8396190404891967,8.0,0.9930484294891356,0.20784324407577515,-147.59510803222656,0.021199522539973256,0.1008017212152481,1.0008820936491247e-05,-93.48399353027344,9.999999747378752e-06,0.00205533835105598,12173.3515625,-16823.689453125,20766.005859375,-54.111106872558594
38.0,39.72457504272461,13319.248046875,19166.4609375,-19166.4609375,23340.0,-55.203609466552734,1.0,1.7759064974143257e-07,0.8504904508590697,8.0,0.993906319141388,0.23360164463520047,-147.709228515625,0.02732809819281101,0.11552166938781738,1.0008639037550893e-05,-92.50560760498048,9.999999747378752e-06,0.0021521078888326883,13319.248046875,-19166.4609375,23340.0,-55.203609466552734
39.0,31.459732055664062,14661.04296875,21802.984375,-21802.984375,26273.87109375,-56.081817626953125,1.0,1.5271245956682833e-07,0.8619137406349182,8.0,0.9943866729736328,0.26286569237709045,-147.8016815185547,0.03491717204451561,0.1312294453382492,1.0004832802223971e-05,-91.71986389160156,9.999999747378752e-06,0.001713491161353886,14661.04296875,-21802.984375,26273.87109375,-56.081817626953125
40.0,24.93350982666016,16370.4326171875,24918.373046875,-24918.373046875,29814.701171875,-56.69659423828125,1.0,1.3513107433027474e-07,0.8668347001075744,8.0,0.9948577880859376,0.2982882559299469,-147.78790283203125,0.045013882219791405,0.14911289513111115,1.0004738214774989e-05,-91.09130859375,9.999999747378752e-06,0.002067214110866189,16370.4326171875,-24918.373046875,29814.701171875,-56.69659423828125
41.0,19.862287521362305,18605.666015625,28805.8125,-28805.8125,34292.06640625,-57.14159393310546,1.0,1.2742323463044158e-07,0.8563882112503051,8.0,0.9952675700187683,0.3430618941783905,-147.75225830078125,0.05803227797150612,0.16712564229965207,1.000411884888308e-05,-90.61067199707033,9.999999747378752e-06,0.0021439013071358204,18605.666015625,-28805.8125,34292.06640625,-57.14159393310546
42.0,15.782828330993652,21329.31640625,33335.2578125,-33335.2578125,39574.98046875,-57.38715362548828,1.0,1.7281296038618166e-07,0.8401441574096679,8.0,0.9955374002456664,0.39585715532302856,-147.6138916015625,0.07355891168117523,0.1835957616567612,1.0002710951084737e-05,-90.22672271728516,9.999999747378752e-06,0.0020647698547691102,21329.31640625,-33335.2578125,39574.98046875,-57.38715362548828
43.0,12.466754913330078,24389.44140625,38099.07421875,-38099.07421875,45236.98046875,-57.37432098388672,1.0,2.078276537531565e-07,0.8296751976013182,8.0,0.9963564276695251,0.45274201035499567,-147.2753448486328,0.09174975752830504,0.2002484500408173,1.0008227036450988e-05,-89.9010238647461,9.999999747378752e-06,0.001951081561855972,24389.44140625,-38099.07421875,45236.98046875,-57.37432098388672
44.0,9.973403930664062,27921.056640625,43054.66015625,-43054.66015625,51315.5859375,-57.036487579345696,1.0,1.5439202627476334e-07,0.815511643886566,8.0,0.9968117475509645,0.5133903622627257,-146.7022247314453,0.1106363460421562,0.21294176578521729,1.000456995825516e-05,-89.66572570800781,9.999999747378752e-06,0.001845365040935576,27921.056640625,-43054.66015625,51315.5859375,-57.036487579345696
45.0,7.878151416778564,33033.53515625,49360.47265625,-49360.47265625,59394.19921875,-56.208354949951165,1.0,1.4122508673608536e-07,0.7695425152778625,8.0,0.9970003962516784,0.5940543413162231,-145.6497344970703,0.12844206392765045,0.21365036070346832,1.000189240585314e-05,-89.44137573242188,9.999999747378752e-06,0.0018620883347466588,33033.53515625,-49360.47265625,59394.19921875,-56.208354949951165
46.0,6.275100231170654,38676.93359375,55463.7265625,-55463.7265625,67617.53125,-55.11049270629882,1.0,1.3448817526295898e-07,0.7110027074813843,8.0,0.9972346425056456,0.6763342022895813,-144.42361450195312,0.13930100202560425,0.20352450013160703,1.0002349881688131e-05,-89.31312561035155,9.999999747378752e-06,0.0017288217786699531,38676.93359375,-55463.7265625,67617.53125,-55.11049270629882
47.0,5.013369083404541,43985.75,61120.67578125,-61120.67578125,75302.609375,-54.25916290283203,1.0,1.5477417036890986e-07,0.6551975011825562,8.0,0.9979748129844664,0.7535850405693054,-143.4340362548828,0.14582239091396332,0.19121365249156952,1.000742213363992e-05,-89.17486572265625,9.999999747378752e-06,0.0013999301008880138,43985.75,-61120.67578125,75302.609375,-54.25916290283203
