# point,freq,zreal,reflected_zimag,zimag,zmod,zphz,zsig,Idc,Vdc,ie_range,gain,vmod,vphz,vsig,vthd,imod,iphz,isig,ithd,zreal_drift,zimag_drift,zmod_drift,zphz_drift
0.0,250019.53125,4294.10498046875,-611.5025024414064,611.5025024414064,4337.42724609375,8.104720115661621,1.0,4.978710421710275e-07,0.40219759941101074,8.0,0.04108043760061264,0.016761338338255882,76.5229263305664,0.0035390835255384445,0.2048654705286026,3.864350674120942e-06,68.41820526123047,9.999999747378752e-06,0.15968920290470123,4294.10498046875,611.5025024414064,4337.42724609375,8.104720115661621
1.0,198691.40625,4280.8369140625,-454.14984130859375,454.14984130859375,4304.859375,6.055802345275879,1.0,5.158031513019523e-07,0.436433345079422,8.0,0.04922935739159584,0.019935384392738342,81.77991485595702,0.004091351758688688,0.1785687506198883,4.630902367352974e-06,75.72411346435545,9.999999747378752e-06,0.14916163682937622,4280.8369140625,454.14984130859375,4304.859375,6.055802345275879
2.0,157792.96875,4267.89990234375,-363.99563598632807,363.99563598632807,4283.3935546875,4.874778747558594,1.0,4.6844701273585093e-07,0.5050830841064453,8.0,0.05997046083211898,0.024163890630006794,51.158218383789055,0.004062759689986706,0.153094083070755,5.641295501845889e-06,46.28344345092773,9.999999747378752e-06,0.13789483904838562,4267.89990234375,363.99563598632807,4283.3935546875,4.874778747558594
3.0,125332.03125,4237.30615234375,-257.5938720703125,257.5938720703125,4245.12890625,3.478837728500366,1.0,4.294388702419384e-07,0.5723033547401428,8.0,0.07373940199613571,0.029446380212903023,161.0013427734375,0.004149607848376036,0.13379967212677,6.936510999366874e-06,157.5225067138672,9.073036153495197e-07,0.12525270879268646,4237.30615234375,257.5938720703125,4245.12890625,3.478837728500366
4.0,99550.78125,4211.82568359375,-159.4326629638672,159.4326629638672,4214.84228515625,2.1678152084350586,1.0,2.862329608888104e-07,0.6118238568305969,8.0,0.08928219228982925,0.03539872169494629,4.660701751708984,0.0019164650002494452,0.04631877318024635,8.398588761338033e-06,2.492886781692505,9.999999747378752e-06,0.045380137860774994,4211.82568359375,159.4326629638672,4214.84228515625,2.1678152084350586
5.0,79160.15625,4221.2744140625,-90.23500061035155,90.23500061035155,4222.23876953125,1.2245821952819824,1.0,2.6363784400018636e-07,0.6387973427772522,8.0,0.11254196614027023,0.044699095189571374,93.32953643798828,0.0029100088868290186,0.06215627491474152,1.0586586540739516e-05,92.10494995117188,9.999999747378752e-06,0.05858061835169792,4221.2744140625,90.23500061035155,4222.23876953125,1.2245821952819824
6.0,62871.09375,4221.80029296875,-32.187847137451165,32.187847137451165,4221.9228515625,0.43682599067687994,1.0,2.5145428139694564e-07,0.6307928562164307,8.0,0.1497265100479126,0.05616872385144234,-51.468868255615234,0.004134563263505696,0.07029648870229721,1.330406121269334e-05,-51.90569305419922,9.57979864324443e-07,0.0698394775390625,4221.80029296875,32.187847137451165,4221.9228515625,0.43682599067687994
7.0,49980.46875,4232.841796875,21.604209899902344,-21.604209899902344,4232.89697265625,-0.2924322187900543,1.0,1.7875828461910714e-07,0.6532511115074158,8.0,0.2365604937076569,0.06687767803668976,-156.27601623535156,0.004237060435116291,0.06262731552124023,1.579950549057685e-05,-155.9835662841797,1.0983108040818479e-06,0.0685802772641182,4232.841796875,-21.604209899902344,4232.89697265625,-0.2924322187900543
8.0,39667.96875,4240.79736328125,72.64263916015625,-72.64263916015625,4241.41943359375,-0.9813507199287415,1.0,1.2808189353563648e-07,0.6469560861587524,8.0,0.4017960429191589,0.07204016298055649,-108.31298828125,0.002778230234980583,0.03717911615967751,1.6984917238005437e-05,-107.3316421508789,9.999999747378752e-06,0.03917910531163216,4240.79736328125,-72.64263916015625,4241.41943359375,-0.9813507199287415
9.0,31582.03125,4252.51416015625,124.63109588623045,-124.63109588623045,4254.33984375,-1.6787227392196655,1.0,1.0460543364843033e-07,0.6277318000793457,8.0,0.5588818788528441,0.059176135808229446,-27.82263374328613,0.0006670000730082393,0.004276319872587919,1.3909591871197335e-05,-26.143911361694332,9.999999747378752e-06,0.013388013467192648,4252.51416015625,-124.63109588623045,4254.33984375,-1.6787227392196655
10.0,25019.53125,4272.85693359375,182.08084106445312,-182.08084106445312,4276.73486328125,-2.44008994102478,1.0,1.0623421076161321e-07,0.6288184523582457,8.0,0.6462600231170654,0.04945379123091698,109.98638153076172,0.0008052940829657017,0.014421241357922554,1.1563445696083365e-05,112.42647552490234,9.999999747378752e-06,0.017048677429556847,4272.85693359375,-182.08084106445312,4276.73486328125,-2.44008994102478
11.0,19863.28125,4294.7412109375,239.67776489257807,-239.67776489257807,4301.423828125,-3.194207668304444,1.0,1.0411814344024604e-07,0.6287611722946167,8.0,0.7249397039413453,0.04825105518102646,178.2266082763672,0.0007950142608024181,0.0015510529046878219,1.1217461178603116e-05,-178.57919311523435,9.999999747378752e-06,0.003109968500211835,4294.7412109375,-239.67776489257807,4301.423828125,-3.194207668304444
12.0,15682.8701171875,4315.603515625,302.51824951171875,-302.51824951171875,4326.19384765625,-4.009801387786865,1.0,9.813197010544172e-08,0.6304177641868591,8.0,0.7944300770759583,0.04740888625383377,110.80638885498045,0.0007430864498019217,0.0012390515767037868,1.095856805477524e-05,114.81619262695312,9.999999747378752e-06,0.003614879446104169,4315.603515625,-302.51824951171875,4326.19384765625,-4.009801387786865
13.0,12597.65625,4327.64013671875,381.3298950195313,-381.3298950195313,4344.408203125,-5.0356101989746085,1.0,1.1038807912200355e-07,0.6352245807647705,8.0,0.848873496055603,0.046421367675066,26.28382682800293,0.0006264479015953839,0.0011940321419388056,1.0685314009606373e-05,31.319437026977536,9.999999747378752e-06,0.0020815706811845303,4327.64013671875,-381.3298950195313,4344.408203125,-5.0356101989746085
14.0,9895.8330078125,4367.064453125,450.8469848632813,-450.8469848632813,4390.275390625,-5.894220352172852,1.0,1.0800791017118173e-07,0.6391885876655579,8.0,0.8902105689048766,0.04604065418243408,-13.692524909973145,0.0008248919039033353,0.012527541257441044,1.0486964129086118e-05,-7.798303604125976,9.999999747378752e-06,0.0032368190586566925,4367.064453125,-450.8469848632813,4390.275390625,-5.894220352172852
15.0,7910.15625,4406.5869140625,544.8133544921875,-544.8133544921875,4440.138671875,-7.048061847686768,1.0,9.306197057412646e-08,0.6355972290039064,8.0,0.9190925359725952,0.04584193974733353,5.7931623458862305,0.0008874100167304276,0.0013467817334458232,1.03244392448687e-05,12.84122371673584,9.999999747378752e-06,0.0031839101575315,4406.5869140625,-544.8133544921875,4440.138671875,-7.048061847686768
16.0,6307.87060546875,4454.3642578125,650.606689453125,-650.606689453125,4501.62744140625,-8.309888839721678,1.0,9.02972345784292e-08,0.635786771774292,8.0,0.9414054155349731,0.046109139919281006,69.6920166015625,0.0007380964816547929,0.0013725130120292304,1.0242771168123e-05,78.00189971923827,9.999999747378752e-06,0.004932911600917578,4454.3642578125,-650.606689453125,4501.62744140625,-8.309888839721678
17.0,4973.3232421875,4518.31103515625,788.3914794921875,-788.3914794921875,4586.57763671875,-9.89778423309326,1.0,1.0494786550907521e-07,0.638033390045166,8.0,0.9265151619911194,0.04514031857252121,-37.19758987426758,0.0006405609892681241,0.0008884754497557878,9.84182952379342e-06,-27.299806594848633,9.999999747378752e-06,0.0006236536428332329,4518.31103515625,-788.3914794921875,4586.57763671875,-9.89778423309326
18.0,3944.3598632812495,4584.55908203125,924.6402587890624,-924.6402587890624,4676.873046875,-11.4027738571167,1.0,1.1309251135571685e-07,0.6512467265129088,8.0,0.9536848664283752,0.04814020916819573,65.70646667480469,0.0004746636259369552,0.0010104636894538999,1.0293246305081992e-05,77.10924530029295,9.999999747378752e-06,0.0007148802978917956,4584.55908203125,-924.6402587890624,4676.873046875,-11.4027738571167
19.0,3144.054931640625,4661.22412109375,1080.9871826171875,-1080.9871826171875,4784.9287109375,-13.056689262390137,1.0,1.0856049925678236e-07,0.6558389067649841,8.0,0.9694349765777587,0.048639517277479165,108.6288375854492,0.00046038476284593344,0.011495180428028107,1.0165149433305489e-05,121.68553161621092,9.999999747378752e-06,0.0008110722992569208,4661.22412109375,-1080.9871826171875,4784.9287109375,-13.056689262390137
20.0,2488.426025390625,4754.55810546875,1276.2684326171875,-1276.2684326171875,4922.87353515625,-15.025726318359377,1.0,9.900723796363309e-08,0.6590020060539246,8.0,0.9783698320388794,0.049682453274726875,167.60748291015625,0.0005443842965178192,0.01069911103695631,1.0092166121467017e-05,-177.36679077148435,9.999999747378752e-06,0.0010224012657999992,4754.55810546875,-1276.2684326171875,4922.87353515625,-15.025726318359377
21.0,1976.6566162109373,4862.2314453125,1503.3931884765625,-1503.3931884765625,5089.35009765625,-17.181514739990234,1.0,8.286806973956119e-08,0.658176600933075,8.0,0.982892096042633,0.05112873762845993,-121.10121154785156,0.00040939988684840495,0.001309582614339888,1.0046222087112255e-05,-103.9197006225586,9.999999747378752e-06,0.0011609947541728616,4862.2314453125,-1503.3931884765625,5089.35009765625,-17.181514739990234
22.0,1582.03125,4987.3681640625,1760.8896484375,-1760.8896484375,5289.099609375,-19.446594238281246,1.0,9.244728005342041e-08,0.6581740379333496,8.0,0.9868655204772947,0.053104814141988754,116.68644714355467,0.0007547065615653991,0.0020185618195682764,1.0040425877377857e-05,136.1330413818359,9.999999747378752e-06,0.0010540032526478171,4987.3681640625,-1760.8896484375,5289.099609375,-19.446594238281246
23.0,1253.6336669921875,5134.4189453125,2055.772705078125,-2055.772705078125,5530.68359375,-21.820695877075195,1.0,9.637288655994781e-08,0.6663141846656799,8.0,0.9900557994842528,0.055485624819993966,145.7694091796875,9.999999747378752e-06,0.002337797312065959,1.003232773655327e-05,167.59010314941406,9.999999747378752e-06,0.0011885338462889194,5134.4189453125,-2055.772705078125,5530.68359375,-21.820695877075195
24.0,996.09375,5301.67041015625,2383.667724609375,-2383.667724609375,5812.880859375,-24.20901298522949,1.0,1.1171331948389707e-07,0.6757326722145081,8.0,0.9938662052154541,0.058352526277303696,-16.77005958557129,0.000779569731093943,0.0037274099886417385,1.0038486834673677e-05,7.438955307006837,9.999999747378752e-06,0.001257663476280868,5301.67041015625,-2383.667724609375,5812.880859375,-24.20901298522949
25.0,790.028076171875,5505.68212890625,2785.472412109375,-2785.472412109375,6170.2021484375,-26.83607292175293,1.0,8.410377461132157e-08,0.6800410747528076,8.0,0.995064377784729,0.061776403337717056,-138.74166870117188,0.000627208617515862,0.0051737092435359955,1.0012055099650752e-05,-111.90560913085936,9.999999747378752e-06,0.0012602565111592412,5505.68212890625,-2785.472412109375,6170.2021484375,-26.83607292175293
26.0,628.8109741210938,5741.92626953125,3272.868896484375,-3272.868896484375,6609.189453125,-29.682920455932617,1.0,1.1878861982950185e-07,0.6791239976882936,8.0,0.9953977465629577,0.06611404567956924,72.87776947021484,0.0008925001020543277,0.0069277784787118435,1.0003350325860085e-05,102.56068420410156,9.999999747378752e-06,0.0011851125163957477,5741.92626953125,-3272.868896484375,6609.189453125,-29.682920455932617
27.0,496.3235168457031,5727.91259765625,4033.845458984375,-4033.845458984375,7005.775390625,-35.15487289428711,1.0,9.447526139183536e-08,0.6806948184967041,8.0,0.9680246710777282,0.06813120096921921,101.16981506347656,0.000822141533717513,0.006406464613974094,9.725004019855987e-06,136.3246917724609,9.999999747378752e-06,0.0004944854881614448,5727.91259765625,-4033.845458984375,7005.775390625,-35.15487289428711
28.0,395.3313293457031,6090.8203125,4682.25439453125,-4682.25439453125,7682.551757812499,-37.55090332031249,1.0,1.0773210590286909e-07,0.6821109056472777,8.0,0.9871984124183655,0.07834719866514206,62.99332427978516,0.0010591314639896154,0.010637974366545675,1.019807041302556e-05,100.54422760009764,9.999999747378752e-06,0.0005636759451590478,6090.8203125,-4682.25439453125,7682.551757812499,-37.55090332031249
29.0,315.5048217773437,6481.46142578125,5413.744140625,-5413.744140625,8444.9970703125,-39.8708610534668,1.0,1.162157658995966e-07,0.6857645511627197,8.0,0.9962852597236632,0.08522731065750122,-172.75050354003906,0.0012971198884770274,0.01559851225465536,1.0092046977661084e-05,-132.879638671875,9.999999747378752e-06,0.000824464892502874,6481.46142578125,-5413.744140625,8444.9970703125,-39.8708610534668
30.0,249.33511352539065,6920.58544921875,6242.548828125,-6242.548828125,9320.08203125,-42.051284790039055,1.0,1.0457608112801609e-07,0.6951943635940552,8.0,0.9997107386589049,0.09352126717567444,50.20491790771484,0.0020218028221279383,0.021099349483847615,1.0034382285084575e-05,92.2562026977539,9.999999747378752e-06,0.0011160179274156687,6920.58544921875,-6242.548828125,9320.08203125,-42.051284790039055
31.0,198.6228790283203,7495.68310546875,7437.860351562499,-7437.860351562499,10559.689453125,-44.77814865112305,1.0,1.0168719200009944e-07,0.6816691160202025,8.0,0.9981859326362608,0.1054358333349228,33.011383056640625,0.0029689748771488662,0.02748649753630161,9.98474752123002e-06,77.7895278930664,9.999999747378752e-06,0.0013352767564356327,7495.68310546875,-7437.860351562499,10559.689453125,-44.77814865112305
32.0,158.005615234375,8146.963867187501,8797.08203125,-8797.08203125,11990.0654296875,-47.1972770690918,1.0,1.0297819130755669e-07,0.6746771335601808,8.0,0.9948028922080993,0.11949428915977478,88.52740478515625,0.0042107286863029,0.03450430929660797,9.966108336811885e-06,135.7246856689453,9.999999747378752e-06,0.0013529717689380048,8146.963867187501,-8797.08203125,11990.0654296875,-47.1972770690918
33.0,125.5580368041992,8783.921875,10078.3408203125,-10078.3408203125,13369.0029296875,-48.92575454711913,1.0,1.0758222401818784e-07,0.6880793571472168,8.0,0.9839699268341064,0.13223420083522797,-147.80667114257812,0.005758604034781456,0.042996719479560845,9.891104127746077e-06,-98.88092041015624,9.999999747378752e-06,0.0015231184661388395,8783.921875,-10078.3408203125,13369.0029296875,-48.92575454711913
34.0,99.73403930664062,9382.859375,10928.9365234375,-10928.9365234375,14404.15625,-49.35280227661133,1.0,1.0164136199364293e-07,0.7351328730583192,8.0,0.9909627437591552,0.1450652182102203,-146.24307250976562,0.00813094712793827,0.05445573106408119,1.0071067663375288e-05,-96.8902587890625,9.999999747378752e-06,0.00164664420299232,9382.859375,-10928.9365234375,14404.15625,-49.35280227661133
35.0,78.78150939941406,10304.4091796875,12745.75390625,-12745.75390625,16390.08984375,-51.0459098815918,1.0,9.98150113673546e-08,0.7386133670806884,8.0,0.9915932416915891,0.16400519013404846,-145.8992156982422,0.010985571891069412,0.06532569229602814,1.0006362572312357e-05,-94.85330963134764,9.999999747378752e-06,0.0013476068852469325,10304.4091796875,-12745.75390625,16390.08984375,-51.0459098815918
36.0,62.919464111328125,11319.3154296875,14695.2978515625,-14695.2978515625,18549.357421875,-52.39409637451172,1.0,1.0277574347128393e-07,0.7421405315399171,8.0,0.9920418262481688,0.18557749688625333,-145.73634338378906,0.0145263671875,0.07633502781391142,1.000452357402537e-05,-93.34225463867188,9.999999747378752e-06,0.001718104351311922,11319.3154296875,-14695.2978515625,18549.357421875,-52.39409637451172
37.0,49.86701965332031,12660.8623046875,17072.384765625,-17072.384765625,21254.736328125,-53.439407348632805,1.0,9.67803686080515e-08,0.7433292865753175,8.0,0.9931028485298157,0.21277466416358948,-146.9437255859375,0.019337972626090046,0.0897309333086014,1.00106954050716e-05,-93.50431060791016,9.999999747378752e-06,0.0015983869088813663,12660.8623046875,-17072.384765625,21254.736328125,-53.439407348632805
38.0,39.72457504272461,14142.2216796875,19688.185546875,-19688.185546875,24241.01953125,-54.30993270874024,1.0,9.849636484204893e-08,0.7435060739517213,8.0,0.9937133789062499,0.2425592392683029,-146.84323120117188,0.025363139808177948,0.10331235826015472,1.0006147931562737e-05,-92.53330230712889,9.999999747378752e-06,0.0016455547884106636,14142.2216796875,-19688.185546875,24241.01953125,-54.30993270874024
39.0,31.459732055664062,15952.806640625,22686.326171875,-22686.326171875,27733.759765625,-54.88548278808594,1.0,9.633101427652945e-08,0.7423553466796875,8.0,0.994220495223999,0.2774791419506073,-146.62159729003906,0.03332727402448654,0.11867500841617584,1.00051029221504e-05,-91.73611450195312,9.999999747378752e-06,0.0017343324143439531,15952.806640625,-22686.326171875,27733.759765625,-54.88548278808594
40.0,24.93350982666016,18060.548828125,25883.115234375,-25883.115234375,31561.35546875,-55.093692779541016,1.0,1.0108656312013409e-07,0.7442814707756041,8.0,0.9946214556694031,0.3157408535480499,-146.21652221679688,0.04288730025291442,0.13419261574745178,1.0004033356381115e-05,-91.12284088134764,9.999999747378752e-06,0.0018874481320381165,18060.548828125,-25883.115234375,31561.35546875,-55.093692779541016
41.0,19.862287521362305,20512.23046875,29540.140625,-29540.140625,35963.4765625,-55.224468231201165,1.0,9.450511129216464e-08,0.7391472458839417,8.0,0.9953491091728209,0.35989785194396967,-145.8585205078125,0.05429355427622795,0.14905057847499847,1.0007315722759811e-05,-90.63404846191406,9.999999747378752e-06,0.0017929523019120095,20512.23046875,-29540.140625,35963.4765625,-55.224468231201165
42.0,15.782828330993652,23517.55859375,33809.609375,-33809.609375,41184.52734375,-55.17798614501953,1.0,9.823782676221526e-08,0.7282318472862244,8.0,0.9957529306411744,0.41201233863830566,-145.4173583984375,0.068490169942379,0.16425560414791107,1.000405700324336e-05,-90.23937225341795,9.999999747378752e-06,0.0018355813808739183,23517.55859375,-33809.609375,41184.52734375,-55.17798614501953
43.0,12.466754913330078,27260.853515625,38812.65625,-38812.65625,47429.69921875,-54.91693878173828,1.0,1.0098415970105634e-07,0.7106319069862366,8.0,0.9961984753608704,0.47450917959213257,-144.83718872070312,0.08518381416797638,0.1773807108402252,1.0004474461311474e-05,-89.92025756835938,9.999999747378752e-06,0.0017268131487071514,27260.853515625,-38812.65625,47429.69921875,-54.91693878173828
44.0,9.973403930664062,31532.283203125,44221.02734375,-44221.02734375,54311.9140625,-54.508819580078125,1.0,1.0436904318567031e-07,0.6845065355300903,8.0,0.9964288473129272,0.5432447195053101,-144.1909027099609,0.10148591548204422,0.1845978945493698,1.000231259240536e-05,-89.68208312988281,9.999999747378752e-06,0.0018279973883181808,31532.283203125,-44221.02734375,54311.9140625,-54.508819580078125
45.0,7.878151416778564,36730.3359375,50224.64453125,-50224.64453125,62222.44140625,-53.82121276855469,1.0,9.427770919501201e-08,0.6458032727241516,8.0,0.9967111945152282,0.6224007606506348,-143.2956390380859,0.11527571082115172,0.18301494419574735,1.0002833732869476e-05,-89.47442626953125,9.999999747378752e-06,0.0017325443914160132,36730.3359375,-50224.64453125,62222.44140625,-53.82121276855469
46.0,6.275100231170654,41925.1484375,55815.62890625,-55815.62890625,69807.609375,-53.08845520019531,1.0,9.420690361139349e-08,0.6053138971328735,8.0,0.9973905086517333,0.6985519528388977,-142.4020843505859,0.1236271932721138,0.17487885057926175,1.0006815500673836e-05,-89.3136215209961,9.999999747378752e-06,0.0014227941865101457,41925.1484375,-55815.62890625,69807.609375,-53.08845520019531
47.0,5.013369083404541,47174.36328125,61222.234375,-61222.234375,77288.953125,-52.38420486450195,1.0,1.0534150618468628e-07,0.5567811131477356,8.0,0.9977977275848388,0.7732049822807312,-141.57618713378906,0.12788572907447815,0.16343624889850616,1.000408246909501e-05,-89.19199371337889,9.999999747378752e-06,0.0011577486293390391,47174.36328125,-61222.234375,77288.953125,-52.38420486450195
