# point,freq,zreal,reflected_zimag,zimag,zmod,zphz,zsig,Idc,Vdc,ie_range,gain,vmod,vphz,vsig,vthd,imod,iphz,isig,ithd,zreal_drift,zimag_drift,zmod_drift,zphz_drift
0.0,250019.53125,4296.71142578125,124.54615783691406,-124.54615783691406,4298.51611328125,-1.6603330373764038,1.0,5.328988095243403e-07,0.22539392113685608,8.0,0.040624920278787606,0.01682627573609352,124.85671997070312,0.003095265943557024,0.1745474934577942,3.821501195488963e-06,116.93975067138672,9.999999747378752e-06,0.1640753149986267,4296.71142578125,-124.54615783691406,4298.51611328125,-1.6603330373764038
1.0,198691.40625,4316.50244140625,266.6167907714844,-266.6167907714844,4324.728515625,-3.534489870071411,1.0,5.223138259680128e-07,0.34810203313827515,8.0,0.04832765832543373,0.019971435889601707,-58.027793884277344,0.0038192132487893105,0.1779828369617462,4.546081527223578e-06,-62.16646957397461,9.999999747378752e-06,0.15999576449394226,4316.50244140625,-266.6167907714844,4324.728515625,-3.534489870071411
2.0,157792.96875,4289.50439453125,107.32573699951172,-107.32573699951172,4290.8466796875,-1.43327260017395,1.0,5.557736812988879e-07,0.4502950310707092,8.0,0.05938992649316788,0.024219930171966553,90.33017730712889,0.0038356971926987167,0.15137760341167447,5.586685801972635e-06,85.6339111328125,9.999999747378752e-06,0.1372973918914795,4289.50439453125,-107.32573699951172,4290.8466796875,-1.43327260017395
3.0,125332.03125,4295.59375,102.29107666015624,-102.29107666015624,4296.8115234375,-1.3641279935836792,1.0,5.238960625320034e-07,0.5267379879951477,8.0,0.07249840348958969,0.029504580423235893,-26.267320632934567,0.00395913003012538,0.13094021379947662,6.81977280692081e-06,-29.794404983520508,9.999999747378752e-06,0.12556292116641998,4295.59375,-102.29107666015624,4296.8115234375,-1.3641279935836792
4.0,99550.78125,4293.6337890625,105.36270141601562,-105.36270141601562,4294.9267578125,-1.4057153463363647,1.0,3.0670838668811484e-07,0.5818549394607544,8.0,0.08769036084413528,0.03544485941529273,-41.263275146484375,0.0017764648655429482,0.04743403568863869,8.248848644143436e-06,-43.51067352294922,9.999999747378752e-06,0.04523717984557152,4293.6337890625,-105.36270141601562,4294.9267578125,-1.4057153463363647
5.0,79160.15625,4290.392578125,113.90534210205078,-113.90534210205078,4291.904296875,-1.5207844972610471,1.0,2.7141203418068477e-07,0.6084210276603699,8.0,0.11073729395866394,0.04472733289003372,-7.079576492309569,0.00279120123013854,0.05946718528866768,1.0416824807180092e-05,-8.443946838378906,9.999999747378752e-06,0.05809246748685837,4290.392578125,-113.90534210205078,4291.904296875,-1.5207844972610471
6.0,62871.09375,4297.6826171875,127.36129760742188,-127.36129760742188,4299.5693359375,-1.69745671749115,1.0,2.8376007321639923e-07,0.6056855320930481,8.0,0.14480671286582947,0.056247062981128686,116.46525573730467,0.0041820937767624855,0.07033977657556534,1.3076598406769335e-05,115.87661743164062,9.388411399413599e-07,0.0699082762002945,4297.6826171875,-127.36129760742188,4299.5693359375,-1.69745671749115
7.0,49980.46875,4303.06494140625,144.79844665527344,-144.79844665527344,4305.50048828125,-1.9272798299789429,1.0,2.0382049115141854e-07,0.629187285900116,8.0,0.2267524152994156,0.06744442880153656,-91.3536911010742,0.0044426079839468,0.065254807472229,1.56589721882483e-05,-91.24429321289062,1.0984715572703863e-06,0.06925038248300552,4303.06494140625,-144.79844665527344,4305.50048828125,-1.9272798299789429
8.0,39667.96875,4312.90283203125,169.0736083984375,-169.0736083984375,4316.21533203125,-2.2449488639831543,1.0,1.467444690206321e-07,0.6171969175338745,8.0,0.38631802797317505,0.07355716079473494,178.82789611816406,0.0030853038188070054,0.04139125719666481,1.703699672361836e-05,179.62782287597656,9.999999747378752e-06,0.0424257218837738,4312.90283203125,-169.0736083984375,4316.21533203125,-2.2449488639831543
9.0,31582.03125,4328.78466796875,202.7063140869141,-202.7063140869141,4333.5283203125,-2.6810617446899414,1.0,1.3920235630848765e-07,0.6015047430992126,8.0,0.552813708782196,0.06202584505081177,-24.378515243530277,0.0008319430053234099,0.003976092208176851,1.43098086482496e-05,-22.85005187988281,9.999999747378752e-06,0.01235565822571516,4328.78466796875,-202.7063140869141,4333.5283203125,-2.6810617446899414
10.0,25019.53125,4342.0380859375,238.28762817382807,-238.28762817382807,4348.5712890625,-3.141196250915528,1.0,1.3551952804391476e-07,0.5940099954605104,8.0,0.6425271630287169,0.05055084079504013,-157.06341552734375,0.0010156953940168023,0.016051160171628,1.1622851161519064e-05,-154.8369140625,9.999999747378752e-06,0.015300207771360874,4342.0380859375,-238.28762817382807,4348.5712890625,-3.141196250915528
11.0,19863.28125,4358.5390625,278.1498413085937,-278.1498413085937,4367.4052734375,-3.6515059471130367,1.0,1.5343246673182878e-07,0.593528151512146,8.0,0.7217617630958557,0.04906514286994934,-57.9110221862793,0.000796811596956104,0.001719647436402738,1.123317179008154e-05,-54.98668670654297,9.999999747378752e-06,0.002776197623461485,4358.5390625,-278.1498413085937,4367.4052734375,-3.6515059471130367
12.0,15682.8701171875,4378.53271484375,332.7148132324219,-332.7148132324219,4391.15576171875,-4.345426082611084,1.0,1.4344558962875453e-07,0.600409209728241,8.0,0.792271614074707,0.048204775899648666,-149.46839904785156,0.0007880865596234798,0.0011951556662097571,1.097691256291e-05,-145.6977081298828,9.999999747378752e-06,0.003102022456005216,4378.53271484375,-332.7148132324219,4391.15576171875,-4.345426082611084
13.0,12597.65625,4398.03076171875,379.5437622070313,-379.5437622070313,4414.37744140625,-4.932323932647705,1.0,1.6260071333817905e-07,0.6092115640640259,8.0,0.8462722301483153,0.047154836356639855,-159.26197814941406,0.000874146178830415,0.001879201736301184,1.0681592357286716e-05,-154.7916259765625,9.999999747378752e-06,0.00306195835582912,4398.03076171875,-379.5437622070313,4414.37744140625,-4.932323932647705
14.0,9895.8330078125,4435.58984375,463.38287353515625,-463.38287353515625,4459.72900390625,-5.964015007019042,1.0,1.2675873506395874e-07,0.6178962588310242,8.0,0.8884577155113219,0.04682181403040886,-149.0384063720703,0.000758645124733448,0.015651553869247437,1.049848651746288e-05,-143.43743896484375,9.999999747378752e-06,0.003105136565864086,4435.58984375,-463.38287353515625,4459.72900390625,-5.964015007019042
15.0,7910.15625,4456.96875,550.2622680664064,-550.2622680664064,4490.80810546875,-7.03818416595459,1.0,1.4985553775659355e-07,0.6268442273139954,8.0,0.9191431403160096,0.04646002501249313,-98.23712921142578,0.0008551197242923082,0.0011665263446047902,1.0345378541387616e-05,-91.4892349243164,9.999999747378752e-06,0.002894847886636853,4456.96875,-550.2622680664064,4490.80810546875,-7.03818416595459
16.0,6307.87060546875,4505.0068359375,642.7520141601562,-642.7520141601562,4550.6279296875,-8.119876861572266,1.0,1.4126109704193368e-07,0.6337619423866272,8.0,0.9415092468261719,0.04661420360207558,-17.193958282470703,0.0005443842965178192,0.0019503453513607385,1.02433359643328e-05,-9.305620193481444,9.999999747378752e-06,0.002844195812940597,4505.0068359375,-642.7520141601562,4550.6279296875,-8.119876861572266
17.0,4973.3232421875,4555.25341796875,760.6987304687501,-760.6987304687501,4618.33251953125,-9.48055362701416,1.0,1.2575287655636203e-07,0.6423845291137695,8.0,0.9275857806205747,0.04556110501289368,-98.34246826171875,0.000721434538718313,0.0006679577636532484,9.852115908870472e-06,-88.96188354492188,9.999999747378752e-06,0.0006857967819087207,4555.25341796875,-760.6987304687501,4618.33251953125,-9.48055362701416
18.0,3944.3598632812495,4616.29736328125,899.942626953125,-899.942626953125,4703.20068359375,-11.031394958496092,1.0,1.0944741291041284e-07,0.6503044366836548,8.0,0.9554808735847472,0.0484943576157093,21.540048599243164,0.0005496147205121815,0.000592294498346746,1.0300727808498776e-05,32.47120666503906,9.999999747378752e-06,0.0007210680632852019,4616.29736328125,-899.942626953125,4703.20068359375,-11.031394958496092
19.0,3144.054931640625,4687.13671875,1057.787353515625,-1057.787353515625,4805.0146484375,-12.717395782470703,1.0,1.0391432425649329e-07,0.6574485301971436,8.0,0.9699347615242003,0.04881049320101737,74.85947418212889,0.0005635366542264819,0.011813853867352009,1.0151273272640536e-05,87.48577117919923,9.999999747378752e-06,0.0005413275794126092,4687.13671875,-1057.787353515625,4805.0146484375,-12.717395782470703
20.0,2488.426025390625,4774.0712890625,1253.7979736328125,-1253.7979736328125,4935.966796875,-14.715087890625,1.0,9.555446922604462e-08,0.6611288785934448,8.0,0.9792873859405516,0.049858152866363525,135.34335327148435,0.0003924517950508744,0.01210702396929264,1.009642528515542e-05,149.98036193847656,9.999999747378752e-06,0.0008285720832645893,4774.0712890625,-1253.7979736328125,4935.966796875,-14.715087890625
21.0,1976.6566162109373,4876.05712890625,1478.810546875,-1478.810546875,5095.37158203125,-16.87150192260742,1.0,8.892924086012499e-08,0.6646558046340942,8.0,0.9841116666793824,0.05121977254748344,-147.09439086914062,0.0002592952805571258,0.0012752820039168,1.0049263437394984e-05,-130.28790283203125,9.999999747378752e-06,0.001103708753362298,4876.05712890625,-1478.810546875,5095.37158203125,-16.87150192260742
22.0,1582.03125,4992.1640625,1736.438232421875,-1736.438232421875,5285.53857421875,-19.179349899291992,1.0,9.564901404246483e-08,0.6660842895507812,8.0,0.9864228367805482,0.052989661693573,95.13288116455078,0.0005802129162475467,0.0016230723122134805,1.0023484719567932e-05,114.25872802734376,9.999999747378752e-06,0.0010844067437574267,4992.1640625,-1736.438232421875,5285.53857421875,-19.179349899291992
23.0,1253.6336669921875,5136.69580078125,2048.05419921875,-2048.05419921875,5529.93408203125,-21.73768424987793,1.0,1.0772257041935517e-07,0.6685006022453308,8.0,0.989462912082672,0.05547650903463364,129.30252075195312,9.999999747378752e-06,0.002271861769258976,1.0030818884843027e-05,150.99700927734375,9.999999747378752e-06,0.0012882632436230779,5136.69580078125,-2048.05419921875,5529.93408203125,-21.73768424987793
24.0,996.09375,5304.94091796875,2415.042724609375,-2415.042724609375,5828.79296875,-24.47711944580078,1.0,1.1516944198319833e-07,0.6697778105735779,8.0,0.9924739599227904,0.05846982076764106,-29.888866424560543,0.0005637481226585804,0.0024970173835754395,1.0030431440100072e-05,-5.446450710296631,9.999999747378752e-06,0.001269100233912468,5304.94091796875,-2415.042724609375,5828.79296875,-24.47711944580078
25.0,790.028076171875,5505.24267578125,2861.461669921875,-2861.461669921875,6204.4873046875,-27.46407127380371,1.0,1.1490210027886862e-07,0.6684062480926514,8.0,0.992851674556732,0.062071513384580605,-149.63961791992188,0.0008205449557863175,0.004482687916606665,1.0003805982705671e-05,-122.20326995849608,9.999999747378752e-06,0.0014229455264285207,5505.24267578125,-2861.461669921875,6204.4873046875,-27.46407127380371
26.0,628.8109741210938,5735.7138671875,3343.893798828125,-3343.893798828125,6639.2802734375,-30.241981506347656,1.0,1.1226104845718508e-07,0.6729105114936829,8.0,0.9949381351470947,0.0665343850851059,64.26667022705078,0.0008516274392604829,0.006572033744305372,1.0021014531957915e-05,94.48649597167967,9.999999747378752e-06,0.0014446149580180645,5735.7138671875,-3343.893798828125,6639.2802734375,-30.241981506347656
27.0,496.3235168457031,6009.98681640625,3921.809326171875,-3921.809326171875,7176.38671875,-33.12640762329101,1.0,1.0269148020825015e-07,0.6783462166786194,8.0,0.9671972393989563,0.06838098168373108,94.59971618652344,0.0006832448998466134,0.0063555603846907616,9.721179594635032e-06,130.25424194335935,9.999999747378752e-06,0.0004906125250272453,6009.98681640625,-3921.809326171875,7176.38671875,-33.12640762329101
28.0,395.3313293457031,6336.93115234375,4690.19873046875,-4690.19873046875,7883.82275390625,-36.50652313232422,1.0,1.1753954254345444e-07,0.6679690480232239,8.0,0.9877665638923645,0.0795629173517227,55.975410461425774,0.0010202624835073948,0.010500739328563212,1.021266962197842e-05,94.56884765625,9.999999747378752e-06,0.000696442206390202,6336.93115234375,-4690.19873046875,7883.82275390625,-36.50652313232422
29.0,315.5048217773437,6706.2822265625,5524.42578125,-5524.42578125,8688.7001953125,-39.480632781982415,1.0,1.3498970474756788e-07,0.6663075685501099,8.0,0.9960688352584839,0.08699456602334976,-178.60528564453125,0.0014311722479760647,0.015649061650037766,1.0084050700243097e-05,-137.4414825439453,9.999999747378752e-06,0.0009278184152208269,6706.2822265625,-5524.42578125,8688.7001953125,-39.480632781982415
30.0,249.33511352539065,7120.51953125,6371.001953125,-6371.001953125,9554.65625,-41.82021713256836,1.0,1.5189844759788684e-07,0.6806850433349608,8.0,0.9989394545555114,0.09541626274585725,46.40596771240234,0.002070220420137048,0.02202805317938328,1.0028819815488532e-05,89.55838012695312,9.999999747378752e-06,0.0012030841317027807,7120.51953125,-6371.001953125,9554.65625,-41.82021713256836
31.0,198.6228790283203,7514.493164062499,7199.06201171875,-7199.06201171875,10406.4453125,-43.77187728881836,1.0,1.561695199825408e-07,0.7028093338012695,8.0,0.9975317716598511,0.10364756733179092,30.380863189697266,0.003135244827717542,0.029428683221340176,9.985908036469482e-06,75.21265411376953,9.999999747378752e-06,0.0013875283766537905,7514.493164062499,-7199.06201171875,10406.4453125,-43.77187728881836
32.0,158.005615234375,8161.462890625,8747.41796875,-8747.41796875,11963.5615234375,-46.98471450805664,1.0,1.576955810378422e-07,0.6835348010063171,8.0,0.9940894842147827,0.11903091520071028,85.97915649414062,0.00445209676399827,0.036989308893680566,9.965491699404083e-06,133.8056488037109,9.999999747378752e-06,0.0014746531378477812,8161.462890625,-8747.41796875,11963.5615234375,-46.98471450805664
33.0,125.5580368041992,8739.796875,10082.6474609375,-10082.6474609375,13343.306640625,-49.08074188232422,1.0,1.6625418197691033e-07,0.6949411034584044,8.0,0.9850245714187622,0.132083922624588,-150.31192016601562,0.0062539088539779195,0.04678461700677872,9.908811989589594e-06,-100.56320190429688,9.999999747378752e-06,0.00174675602465868,8739.796875,-10082.6474609375,13343.306640625,-49.08074188232422
34.0,99.73403930664062,9174.76953125,10707.4716796875,-10707.4716796875,14100.5791015625,-49.408157348632805,1.0,1.6728922958009207e-07,0.7515664100646973,8.0,0.9907311797142029,0.1417339593172073,-146.82284545898435,0.008568360470235348,0.05900592729449272,1.0057933650386984e-05,-96.88463592529295,9.999999747378752e-06,0.0012793777277693152,9174.76953125,-10707.4716796875,14100.5791015625,-49.408157348632805
35.0,78.78150939941406,9970.8583984375,12552.123046875,-12552.123046875,16030.40234375,-51.53790664672852,1.0,1.625199672616873e-07,0.7561203241348265,8.0,0.9917340874671936,0.1604040563106537,-146.804443359375,0.01166203897446394,0.07085686922073364,1.0010123332904186e-05,-94.84813690185545,9.999999747378752e-06,0.0014971609925851224,9970.8583984375,-12552.123046875,16030.40234375,-51.53790664672852
36.0,62.919464111328125,10865.46484375,14597.12890625,-14597.12890625,18197.1015625,-53.33761215209961,1.0,1.6647189227114723e-07,0.7608464360237122,8.0,0.992056369781494,0.18198525905609128,-146.99435424804688,0.015675604343414307,0.08403242379426956,1.0003249371948186e-05,-93.32274627685545,9.999999747378752e-06,0.0015526225324720144,10865.46484375,-14597.12890625,18197.1015625,-53.33761215209961
37.0,49.86701965332031,11861.099609375,16821.7109375,-16821.7109375,20582.896484375,-54.81208419799805,1.0,1.8359008890911357e-07,0.7695114612579346,8.0,0.9931984543800354,0.20603410899639127,-148.5559539794922,0.020371608436107635,0.09772095829248428,1.0011512131313792e-05,-93.47940063476561,9.999999747378752e-06,0.0018122923793271184,11861.099609375,-16821.7109375,20582.896484375,-54.81208419799805
38.0,39.72457504272461,12985.3447265625,19309.646484375,-19309.646484375,23269.7578125,-56.07997131347656,1.0,1.840723058421645e-07,0.7788804173469542,8.0,0.9937027096748352,0.2327929437160492,-148.80422973632812,0.026387615129351612,0.11196693778038024,1.0005077456298748e-05,-92.51361846923827,9.999999747378752e-06,0.0020370117854326963,12985.3447265625,-19309.646484375,23269.7578125,-56.07997131347656
39.0,31.459732055664062,14330.5673828125,22206.734375,-22206.734375,26429.23046875,-57.164825439453125,1.0,1.8031033732768265e-07,0.7866389155387878,8.0,0.9941877722740173,0.26440510153770447,-149.05018615722656,0.034272808581590646,0.12804551422595975,1.0004881005443165e-05,-91.71855926513673,9.999999747378752e-06,0.0020764819346368313,14330.5673828125,-22206.734375,26429.23046875,-57.164825439453125
40.0,24.93350982666016,15882.9755859375,25286.5,-25286.5,29860.9453125,-57.86621856689453,1.0,1.7037508825978878e-07,0.7980639338493347,8.0,0.9949432611465454,0.29882487654685974,-149.10791015625,0.04384438320994377,0.14492569863796234,1.0007599485106766e-05,-91.1094970703125,9.999999747378752e-06,0.0019911923445761204,15882.9755859375,-25286.5,29860.9453125,-57.86621856689453
41.0,19.862287521362305,17831.24609375,29140.220703125,-29140.220703125,34162.9296875,-58.53704452514648,1.0,1.4165324557779968e-07,0.7966386079788208,8.0,0.9952725768089294,0.341733992099762,-149.23878479003906,0.05597654357552528,0.16182932257652283,1.0003309398598503e-05,-90.59644317626952,9.999999747378752e-06,0.0019065698143094776,17831.24609375,-29140.220703125,34162.9296875,-58.53704452514648
42.0,15.782828330993652,20212.9609375,33626.52734375,-33626.52734375,39234.00390625,-58.9898567199707,1.0,1.331244163793599e-07,0.7919759154319763,8.0,0.9957374334335328,0.3925172686576843,-149.2837371826172,0.07177302241325377,0.18066830933094025,1.0004670912167056e-05,-90.21021270751952,9.999999747378752e-06,0.0019308452028781171,20212.9609375,-33626.52734375,39234.00390625,-58.9898567199707
43.0,12.466754913330078,23449.576171875,39280.03125,-39280.03125,45747.16796875,-59.16344833374024,1.0,1.1494387308630392e-07,0.7748146653175354,8.0,0.9960722327232362,0.4576210677623749,-149.12393188476562,0.09210668504238129,0.19886538386344907,1.0003362149291206e-05,-89.89440155029295,9.999999747378752e-06,0.0018960764864459636,23449.576171875,-39280.03125,45747.16796875,-59.16344833374024
44.0,9.973403930664062,27500.4375,45629.65625,-45629.65625,53276.0703125,-58.92314147949219,1.0,1.2267597071513592e-07,0.7432587742805482,8.0,0.9964772462844848,0.5329740047454834,-148.63436889648435,0.11313870549201964,0.2097509801387787,1.0004066098190378e-05,-89.65836334228516,9.999999747378752e-06,0.001953973202034831,27500.4375,-45629.65625,53276.0703125,-58.92314147949219
45.0,7.878151416778564,32613.947265625,52435.93359375,-52435.93359375,61751.0859375,-58.119335174560554,1.0,1.4540306381150006e-07,0.7023632526397705,8.0,0.9967767596244813,0.617694079875946,-147.62326049804688,0.13103513419628143,0.20962490141391757,1.0003005627368111e-05,-89.46215820312499,9.999999747378752e-06,0.001889449544250965,32613.947265625,-52435.93359375,61751.0859375,-58.119335174560554
46.0,6.275100231170654,37922.39453125,58584.046875,-58584.046875,69786.8125,-57.084369659423835,1.0,1.607021715699375e-07,0.6618561148643494,8.0,0.9973279237747192,0.698252260684967,-146.419921875,0.14267680048942563,0.20191510021686557,1.0005529475165533e-05,-89.30227661132812,9.999999747378752e-06,0.001667626551352441,37922.39453125,-58584.046875,69786.8125,-57.084369659423835
47.0,5.013369083404541,43080.109375,64183.11328125,-64183.11328125,77300.5,-56.130237579345696,1.0,1.641076607938885e-07,0.6252894997596741,8.0,0.9977358579635619,0.7733200788497924,-145.3329620361328,0.150398850440979,0.1921794563531876,1.0004090654547326e-05,-89.1761474609375,9.999999747378752e-06,0.001475625205785036,43080.109375,-64183.11328125,77300.5,-56.130237579345696
