# point,freq,zreal,reflected_zimag,zimag,zmod,zphz,zsig,Idc,Vdc,ie_range,gain,vmod,vphz,vsig,vthd,imod,iphz,isig,ithd,zreal_drift,zimag_drift,zmod_drift,zphz_drift
0.0,250019.53125,4301.2978515625,116.7890167236328,-116.7890167236328,4302.88330078125,-1.5553152561187744,1.0,4.997765472580795e-07,0.41350901126861567,8.0,0.04051605984568596,0.016798237338662148,83.71453857421875,0.0033335478510707617,0.19121582806110385,3.8112609672680256e-06,75.69254302978516,9.999999747378752e-06,0.15653039515018463,4301.2978515625,-116.7890167236328,4302.88330078125,-1.5553152561187744
1.0,198691.40625,4296.43017578125,131.06288146972656,-131.06288146972656,4298.4287109375,-1.747269630432129,1.0,5.064249535280396e-07,0.44662195444107056,8.0,0.048613999038934715,0.019967596977949142,133.2834320068359,0.003999452572315931,0.17784254252910614,4.573017122311285e-06,127.35753631591795,9.999999747378752e-06,0.1465996354818344,4296.43017578125,-131.06288146972656,4298.4287109375,-1.747269630432129
2.0,157792.96875,4308.7412109375,88.51693725585938,-88.51693725585938,4309.650390625,-1.1768944263458252,1.0,5.236886408965802e-07,0.5424140095710753,8.0,0.05904319882392883,0.02418405003845692,50.12982940673828,0.003988812677562237,0.15364614129066467,5.554069957725004e-06,45.177188873291016,9.999999747378752e-06,0.13881802558898923,4308.7412109375,-88.51693725585938,4309.650390625,-1.1768944263458252
3.0,125332.03125,4282.25146484375,117.63282775878906,-117.63282775878906,4283.8671875,-1.573511004447937,1.0,5.553121127377382e-07,0.6123219132423401,8.0,0.07267677038908003,0.029488062486052517,-30.06989097595215,0.004024093504995108,0.1302463412284851,6.836551165179117e-06,-33.38759231567383,9.1279486014173e-07,0.1281250566244125,4282.25146484375,-117.63282775878906,4283.8671875,-1.573511004447937
4.0,99550.78125,4293.64501953125,112.22018432617188,-112.22018432617188,4295.111328125,-1.4971613883972168,1.0,3.6860859609078034e-07,0.628882646560669,8.0,0.08781477808952332,0.03549667075276375,124.48955535888672,0.002108391374349594,0.04589442536234856,8.26055202196585e-06,122.3335952758789,9.999999747378752e-06,0.04564446583390236,4293.64501953125,-112.22018432617188,4295.111328125,-1.4971613883972168
5.0,79160.15625,4293.1025390625,120.26434326171876,-120.26434326171876,4294.78662109375,-1.6046291589736938,1.0,3.1463508776141685e-07,0.686760663986206,8.0,0.11074993014335632,0.044762477278709405,51.114940643310554,0.002867379458621144,0.06179287657141685,1.0418013516755307e-05,49.83441162109375,9.999999747378752e-06,0.05860419943928719,4293.1025390625,-120.26434326171876,4294.78662109375,-1.6046291589736938
6.0,62871.09375,4298.0263671875,129.6118621826172,-129.6118621826172,4299.98046875,-1.7272958755493164,1.0,3.0798784678154334e-07,0.7326069474220275,8.0,0.14486028254032135,0.05626682192087173,46.927921295166016,0.004047465976327658,0.07064791023731232,1.3079943528282456e-05,46.36912536621094,9.481706229053088e-07,0.07061710953712463,4298.0263671875,-129.6118621826172,4299.98046875,-1.7272958755493164
7.0,49980.46875,4307.60888671875,147.64479064941406,-147.64479064941406,4310.13818359375,-1.9630643129348757,1.0,2.6083930038112163e-07,0.7445699572563171,8.0,0.226776123046875,0.06749916821718216,30.863464355468754,0.004862923175096512,0.07061263918876648,1.56548176164506e-05,31.008646011352536,1.103908061850234e-06,0.06955662369728088,4307.60888671875,-147.64479064941406,4310.13818359375,-1.9630643129348757
8.0,39667.96875,4316.8212890625,169.46063232421875,-169.46063232421875,4320.14599609375,-2.2480421066284175,1.0,2.138170032139897e-07,0.731099784374237,8.0,0.3863019347190857,0.07361339032649994,-118.10565185546876,0.0030599304009228945,0.04102983325719833,1.7034506527124904e-05,-117.30262756347656,9.999999747378752e-06,0.042432796210050576,4316.8212890625,-169.46063232421875,4320.14599609375,-2.2480421066284175
9.0,31582.03125,4321.62841796875,197.34490966796875,-197.34490966796875,4326.1318359375,-2.61456561088562,1.0,2.026244771968777e-07,0.7387035489082336,8.0,0.55352783203125,0.062002550810575485,-76.99517822265625,0.000719448900781572,0.0037016174755990505,1.4328890756587496e-05,-75.53321075439453,9.999999747378752e-06,0.01086057722568512,4321.62841796875,-197.34490966796875,4326.1318359375,-2.61456561088562
10.0,25019.53125,4342.61328125,226.2591857910156,-226.2591857910156,4348.50341796875,-2.982532501220703,1.0,1.9980900844984722e-07,0.74408620595932,8.0,0.6431563496589661,0.050534270703792565,-169.4116058349609,0.0004140325472690165,0.01032292190939188,1.1619223187153692e-05,-167.34376525878906,9.999999747378752e-06,0.013069167733192444,4342.61328125,-226.2591857910156,4348.50341796875,-2.982532501220703
11.0,19863.28125,4359.81787109375,265.17779541015625,-265.17779541015625,4367.875,-3.4806210994720455,1.0,1.9764723901971593e-07,0.7546516656875609,8.0,0.7232280969619752,0.04912201315164567,-57.24178695678711,0.0008426212007179856,0.0013310613576322792,1.1244981578784063e-05,-54.48833847045898,9.999999747378752e-06,0.0027527064085006714,4359.81787109375,-265.17779541015625,4367.875,-3.4806210994720455
12.0,15682.8701171875,4383.2783203125,309.5869140625,-309.5869140625,4394.19775390625,-4.040039539337158,1.0,1.987003770409501e-07,0.7614732980728148,8.0,0.7933691143989563,0.04820706322789192,-68.15283966064453,0.0007728121127001941,0.0010778844589367509,1.09698321466567e-05,-64.68751525878906,9.999999747378752e-06,0.003597424598410725,4383.2783203125,-309.5869140625,4394.19775390625,-4.040039539337158
13.0,12597.65625,4395.74609375,360.32827758789057,-360.32827758789057,4410.48974609375,-4.686174392700195,1.0,1.8334695539579118e-07,0.7676329016685485,8.0,0.8482448458671571,0.04715779423713684,-155.8688507080078,0.0005767095717601478,0.0010375799611210823,1.069167956302408e-05,-151.64463806152344,9.999999747378752e-06,0.0021122123580425978,4395.74609375,-360.32827758789057,4410.48974609375,-4.686174392700195
14.0,9895.8330078125,4434.8515625,432.2233581542969,-432.2233581542969,4455.8642578125,-5.566501617431641,1.0,1.7170393107335258e-07,0.7700620293617249,8.0,0.8912608027458192,0.04681970551609993,-126.58250427246092,0.000430131156463176,0.011895031668245792,1.0507117622182705e-05,-121.37907409667967,9.999999747378752e-06,0.002152038970962167,4434.8515625,-432.2233581542969,4455.8642578125,-5.566501617431641
15.0,7910.15625,4474.21142578125,500.49850463867193,-500.49850463867193,4502.1181640625,-6.382740497589111,1.0,1.4996966513081134e-07,0.772616446018219,8.0,0.9210120439529419,0.04652494937181473,-99.9856948852539,0.00038602022686973214,0.001187650253996253,1.0333810678275768e-05,-93.89324188232419,9.999999747378752e-06,0.0020467161666601896,4474.21142578125,-500.49850463867193,4502.1181640625,-6.382740497589111
16.0,6307.87060546875,4510.60400390625,596.0508422851562,-596.0508422851562,4549.81591796875,-7.5276994705200195,1.0,1.3336426718524308e-07,0.7786642909049987,8.0,0.9436787366867064,0.04661847651004791,-1.9620245695114131,0.0006709204753860831,0.0016453119460493326,1.02461062851944e-05,5.334136009216309,9.999999747378752e-06,0.003183556953445077,4510.60400390625,-596.0508422851562,4549.81591796875,-7.5276994705200195
17.0,4973.3232421875,4559.3955078125,696.4304809570312,-696.4304809570312,4612.27734375,-8.684588432312012,1.0,1.3233915296950727e-07,0.7837324738502502,8.0,0.930043876171112,0.045517057180404656,-92.90262603759763,0.0006413049413822591,0.0008892264449968934,9.855513781076295e-06,-84.31800079345702,9.999999747378752e-06,0.0005568647757172585,4559.3955078125,-696.4304809570312,4612.27734375,-8.684588432312012
18.0,3944.3598632812495,4622.12451171875,815.9323120117188,-815.9323120117188,4693.58935546875,-10.011144638061523,1.0,1.3336938309294058e-07,0.7921515703201294,8.0,0.958480715751648,0.048418886959552765,19.67599105834961,0.0008451639441773294,0.0008400907390750944,1.0305758223694284e-05,29.586900711059567,9.999999747378752e-06,0.0005596537957899272,4622.12451171875,-815.9323120117188,4693.58935546875,-10.011144638061523
19.0,3144.054931640625,4690.73828125,948.2824096679688,-948.2824096679688,4785.63134765625,-11.42891502380371,1.0,1.2566486873311078e-07,0.7986984252929686,8.0,0.9716135263442992,0.048545315861701965,67.76922607421875,0.0006503495387732984,0.010790331289172173,1.0137016943190247e-05,79.10703277587889,9.999999747378752e-06,0.0008283164352178573,4690.73828125,-948.2824096679688,4785.63134765625,-11.42891502380371
20.0,2488.426025390625,4773.36181640625,1104.8382568359375,-1104.8382568359375,4899.55615234375,-13.03214168548584,1.0,1.2413896399721125e-07,0.8057826161384583,8.0,0.9820552468299864,0.04954449087381362,138.18466186523435,0.0004137445357628167,0.011839978396892548,1.0107467460329644e-05,151.13873291015625,9.999999747378752e-06,0.0008917648228816688,4773.36181640625,-1104.8382568359375,4899.55615234375,-13.03214168548584
21.0,1976.6566162109373,4868.65869140625,1286.255615234375,-1286.255615234375,5035.70166015625,-14.798906326293944,1.0,1.3021318068240362e-07,0.8100871443748474,8.0,0.9860559105873109,0.05057701468467712,-144.71632385253906,9.999999747378752e-06,0.001336411340162158,1.0040737834060565e-05,-129.98243713378906,9.999999747378752e-06,0.0010902445064857602,4868.65869140625,-1286.255615234375,5035.70166015625,-14.798906326293944
22.0,1582.03125,4978.41650390625,1496.584228515625,-1496.584228515625,5198.4990234375,-16.73154067993164,1.0,1.2803197080302198e-07,0.8112642765045166,8.0,0.9893995523452759,0.0521712638437748,100.79479217529295,0.0007047168910503387,0.0018941391026601195,1.0033909347839652e-05,117.47282409667967,9.999999747378752e-06,0.0012199691263958812,4978.41650390625,-1496.584228515625,5198.4990234375,-16.73154067993164
23.0,1253.6336669921875,5104.72607421875,1743.7265625,-1743.7265625,5394.3310546875,-18.85968589782715,1.0,1.3684498867405637e-07,0.8153070211410521,8.0,0.9936770796775818,0.05418311804533005,133.41676330566406,9.999999747378752e-06,0.002508999314159155,1.0043233487522228e-05,152.23326110839844,9.999999747378752e-06,0.0010119559010490775,5104.72607421875,-1743.7265625,5394.3310546875,-18.85968589782715
24.0,996.09375,5252.03515625,2030.15234375,-2030.15234375,5630.75390625,-21.13380241394043,1.0,1.4073154375182642e-07,0.8180699348449707,8.0,0.9959361553192138,0.05643989890813828,-24.640321731567383,0.0004345428897067904,0.0031086234375834465,1.0022734386438968e-05,-3.5412182807922363,9.999999747378752e-06,0.001301106996834278,5252.03515625,-2030.15234375,5630.75390625,-21.13380241394043
25.0,790.028076171875,5416.27294921875,2354.36376953125,-2354.36376953125,5905.84814453125,-23.493783950805664,1.0,1.373992404296587e-07,0.8247610330581666,8.0,0.9978796839714049,0.05917661264538765,-145.4517822265625,0.0008058859966695309,0.005282721947878599,1.0019514775194692e-05,-121.9857177734375,9.999999747378752e-06,0.0011942951241508126,5416.27294921875,-2354.36376953125,5905.84814453125,-23.493783950805664
26.0,628.8109741210938,5608.81005859375,2738.763671875,-2738.763671875,6241.7607421875,-26.026105880737305,1.0,1.413314123510645e-07,0.8271390199661255,8.0,0.9988738298416135,0.06248172372579575,68.61599731445312,0.000851347460411489,0.006831848062574864,1.0009962352341972e-05,94.61994934082033,9.999999747378752e-06,0.001520770601928234,5608.81005859375,-2738.763671875,6241.7607421875,-26.026105880737305
27.0,496.3235168457031,5835.30712890625,3227.70849609375,-3227.70849609375,6668.50146484375,-28.948486328125,1.0,1.424820652573544e-07,0.82770174741745,8.0,0.9698301553726195,0.06346346437931061,97.96698760986328,9.999999747378752e-06,0.006069797556847334,9.70923611021135e-06,129.4435882568359,9.999999747378752e-06,0.00034525361843407154,5835.30712890625,-3227.70849609375,6668.50146484375,-28.948486328125
28.0,395.3313293457031,6085.97607421875,3770.758056640625,-3770.758056640625,7159.44970703125,-31.781587600708008,1.0,1.4763361377845285e-07,0.8287277817726134,8.0,0.991571843624115,0.07233404368162155,61.49293899536133,0.000698429939802736,0.010409480892121792,1.0224180186924057e-05,95.36144256591795,9.999999747378752e-06,0.00084477080963552,6085.97607421875,-3770.758056640625,7159.44970703125,-31.781587600708008
29.0,315.5048217773437,6356.8603515625,4383.85986328125,-4383.85986328125,7721.91015625,-34.59117889404297,1.0,1.4873580767016392e-07,0.8332831859588622,8.0,0.9987519979476928,0.07722547650337219,-173.24722290039062,0.0012527054641395807,0.01524381712079048,1.0072411896544509e-05,-136.9728546142578,9.999999747378752e-06,0.0008825129480101168,6356.8603515625,-4383.85986328125,7721.91015625,-34.59117889404297
30.0,249.33511352539065,6667.18896484375,5084.08984375,-5084.08984375,8384.47265625,-37.32746887207031,1.0,1.5509363038290758e-07,0.8428937196731566,8.0,1.0001953840255735,0.0836104154586792,50.62781524658203,0.0018367425072938204,0.020490316674113277,1.0014451618189923e-05,89.28746795654298,9.999999747378752e-06,0.0010409060632809997,6667.18896484375,-5084.08984375,8384.47265625,-37.32746887207031
31.0,198.6228790283203,7109.48291015625,6103.8046875,-6103.8046875,9370.228515625,-40.64754486083984,1.0,1.6706599126337096e-07,0.8316522836685181,8.0,1.0004445314407349,0.09348191320896147,34.501991271972656,0.0026609760243445635,0.02703540399670601,1.0002491762861608e-05,76.20945739746092,9.999999747378752e-06,0.0013181427493691444,7109.48291015625,-6103.8046875,9370.228515625,-40.64754486083984
32.0,158.005615234375,7623.217773437501,7313.224609375,-7313.224609375,10563.9345703125,-43.8110466003418,1.0,1.6593475038462205e-07,0.8224162459373474,8.0,0.996821880340576,0.10508742183446884,89.50648498535155,0.003605685196816921,0.0342748686671257,9.963789125322364e-06,134.15931701660156,9.999999747378752e-06,0.0011731142876669765,7623.217773437501,-7313.224609375,10563.9345703125,-43.8110466003418
33.0,125.5580368041992,8070.26953125,8394.8388671875,-8394.8388671875,11644.8515625,-46.129302978515625,1.0,1.7052852285814882e-07,0.8365902304649354,8.0,0.985562562942505,0.11501792818307877,-147.27867126464844,0.0048896679654717445,0.04225134477019309,9.887047781376168e-06,-100.4813995361328,9.999999747378752e-06,0.001490125199779868,8070.26953125,-8394.8388671875,11644.8515625,-46.129302978515625
34.0,99.73403930664062,8413.279296875,8993.310546875,-8993.310546875,12315.1494140625,-46.9085350036621,1.0,1.8807563151312934e-07,0.887728214263916,8.0,0.9927916526794432,0.1239771768450737,-144.2830352783203,0.006560147274285554,0.0515819638967514,1.0073349585582037e-05,-96.84445190429688,9.999999747378752e-06,0.0013713858788833022,8413.279296875,-8993.310546875,12315.1494140625,-46.9085350036621
35.0,78.78150939941406,9081.8134765625,10549.6611328125,-10549.6611328125,13920.2978515625,-49.27605438232422,1.0,1.8529907208630905e-07,0.8936832547187805,8.0,0.9929688572883605,0.13917380571365356,-144.5060882568359,0.008864670060575008,0.06212791800498962,1.0001785085478332e-05,-94.81165313720705,9.999999747378752e-06,0.0010319671127945185,9081.8134765625,-10549.6611328125,13920.2978515625,-49.27605438232422
36.0,62.919464111328125,9781.640625,12159.6708984375,-12159.6708984375,15605.70703125,-51.18565368652344,1.0,1.8655762801245146e-07,0.9018601775169373,8.0,0.9933685064315795,0.156081423163414,-144.81005859375,0.011678742244839668,0.07295813411474229,1.0004025170928799e-05,-93.29039001464845,9.999999747378752e-06,0.001236513373441994,9781.640625,-12159.6708984375,15605.70703125,-51.18565368652344
37.0,49.86701965332031,10752.7197265625,14264.0732421875,-14264.0732421875,17862.943359375,-52.98983001708984,1.0,1.8834104764664522e-07,0.9051519036293028,8.0,0.993774175643921,0.17867478728294373,-146.7228240966797,0.015590890310704708,0.08622951805591582,1.0004083378589712e-05,-93.46835327148435,9.999999747378752e-06,0.0016306148609146476,10752.7197265625,-14264.0732421875,17862.943359375,-52.98983001708984
38.0,39.72457504272461,11843.712890625,16629.69921875,-16629.69921875,20416.181640625,-54.54143905639648,1.0,1.998572116690412e-07,0.9065329432487488,8.0,0.9944908618927002,0.20428907871246335,-147.2339324951172,0.02089527063071728,0.10103372484445572,1.000721204036381e-05,-92.48184967041016,9.999999747378752e-06,0.0012168858665972948,11843.712890625,-16629.69921875,20416.181640625,-54.54143905639648
39.0,31.459732055664062,13162.931640625,19373.2109375,-19373.2109375,23421.87109375,-55.80624771118164,1.0,2.00792456439558e-07,0.9083935618400573,8.0,0.9951081871986387,0.2343497425317764,-147.66397094726562,0.02757105976343155,0.11621687561273573,1.0006207048718352e-05,-91.69091796875,9.999999747378752e-06,0.001450002077035606,13162.931640625,-19373.2109375,23421.87109375,-55.80624771118164
40.0,24.93350982666016,14711.455078125,22302.978515625,-22302.978515625,26717.966796875,-56.590423583984375,1.0,1.9714450161245625e-07,0.9147519469261168,8.0,0.9954941272735597,0.2672730386257172,-147.77963256835935,0.03637540712952614,0.13442756235599515,1.0003878742281811e-05,-91.05701446533203,9.999999747378752e-06,0.0018380943220108747,14711.455078125,-22302.978515625,26717.966796875,-56.590423583984375
41.0,19.862287521362305,16604.744140625,25807.92578125,-25807.92578125,30688.21484375,-57.24288940429688,1.0,2.00218181589662e-07,0.9128172397613523,8.0,0.995726466178894,0.3069462776184082,-147.93603515625,0.047685407102108,0.15348602831363675,1.00023335107835e-05,-90.58786010742189,9.999999747378752e-06,0.00168029370252043,16604.744140625,-25807.92578125,30688.21484375,-57.24288940429688
42.0,15.782828330993652,19046.28125,30029.466796875,-30029.466796875,35560.2265625,-57.61496353149414,1.0,1.8131109413843663e-07,0.9045704007148743,8.0,0.9962076544761655,0.3557685911655426,-147.90248107910156,0.06271874904632568,0.17417743802070615,1.0004832802223971e-05,-90.20384216308592,9.999999747378752e-06,0.001575766014866531,19046.28125,-30029.466796875,35560.2265625,-57.61496353149414
43.0,12.466754913330078,22277.849609375,35243.11328125,-35243.11328125,41693.87890625,-57.70223236083984,1.0,1.5850142176532245e-07,0.8869076371192931,8.0,0.9963294863700866,0.41698578000068653,-147.66455078125,0.08242297917604446,0.19530776143074036,1.0001223017752636e-05,-89.89622497558594,9.999999747378752e-06,0.001797752920538187,22277.849609375,-35243.11328125,41693.87890625,-57.70223236083984
44.0,9.973403930664062,26172.134765625,40929.93359375,-40929.93359375,48582.30078125,-57.40362930297852,1.0,1.3226578232661268e-07,0.8617573976516724,8.0,0.9968694448471069,0.4860833287239074,-147.1068115234375,0.1042366474866867,0.21189141273498532,1.0005419426306617e-05,-89.65032196044922,9.999999747378752e-06,0.0017000525258481503,26172.134765625,-40929.93359375,48582.30078125,-57.40362930297852
45.0,7.878151416778564,31500.1015625,47674.859375,-47674.859375,57141.4765625,-56.54615783691406,1.0,1.1592437942908873e-07,0.8146469593048095,8.0,0.9969751238822936,0.571473240852356,-146.0368194580078,0.12500903010368347,0.2161511480808258,1.0001060218201017e-05,-89.44890594482422,9.999999747378752e-06,0.0017308330861851573,31500.1015625,-47674.859375,57141.4765625,-56.54615783691406
46.0,6.275100231170654,37359.4609375,54125.17578125,-54125.17578125,65766.7421875,-55.38493728637695,1.0,1.325679335195673e-07,0.7535809278488158,8.0,0.9973575472831726,0.6579180359840393,-144.7272796630859,0.13687223196029663,0.20557478070259091,1.0003835996030828e-05,-89.30907440185545,9.999999747378752e-06,0.001601443625986576,37359.4609375,-54125.17578125,65766.7421875,-55.38493728637695
47.0,5.013369083404541,42811.60546875,59854.70703125,-59854.70703125,73589.53125,-54.425418853759766,1.0,1.6507588895819938e-07,0.6992348432540894,8.0,0.9978041052818297,0.7362236380577086,-143.63467407226562,0.14327283203601837,0.1923004984855652,1.000447718979558e-05,-89.18268585205078,9.999999747378752e-06,0.0013848964590579271,42811.60546875,-59854.70703125,73589.53125,-54.425418853759766
