# point,freq,zreal,reflected_zimag,zimag,zmod,zphz,zsig,Idc,Vdc,ie_range,gain,vmod,vphz,vsig,vthd,imod,iphz,isig,ithd,zreal_drift,zimag_drift,zmod_drift,zphz_drift
0.0,250019.53125,26226.482421875,75500.59375,-75500.59375,79926.015625,-70.84441375732422,1.0,4.975663614459337e-07,0.545972466468811,8.0,0.014347296208143234,0.11050149053335188,44.51753616333008,0.014080345630645752,0.12526875734329224,1.3496201063389888e-06,105.00456237792967,9.999999747378752e-06,0.26453736424446106,26226.482421875,-75500.59375,79926.015625,-70.84441375732422
1.0,198691.40625,38393.6328125,89637.1484375,-89637.1484375,97513.5390625,-66.81344604492188,1.0,5.143162411513913e-07,0.6500883102416992,8.0,0.014945074915885924,0.13926386833190915,-179.26412963867188,0.014727063477039335,0.09600974619388579,1.4058518900128547e-06,-120.74378204345705,9.999999747378752e-06,0.25383204221725464,38393.6328125,-89637.1484375,97513.5390625,-66.81344604492188
2.0,157792.96875,54309.6171875,103040.5546875,-103040.5546875,116477.0,-62.20761489868164,1.0,4.6031098577259405e-07,0.7191203236579895,8.0,0.015829045325517654,0.17523671686649323,-34.893917083740234,0.017927255481481552,0.09338364750146864,1.48900517160655e-06,20.691823959350582,9.999999747378752e-06,0.2770397961139679,54309.6171875,-103040.5546875,116477.0,-62.20761489868164
3.0,125332.03125,75979.1953125,116436.9921875,-116436.9921875,139033.859375,-56.87415313720703,1.0,4.882946882389662e-07,0.740256130695343,8.0,0.016808003187179565,0.22133988142013547,148.99574279785156,0.02145308256149292,0.09240067005157471,1.5810936702109757e-06,-159.41238403320312,9.999999747378752e-06,0.269008606672287,75979.1953125,-116436.9921875,139033.859375,-56.87415313720703
4.0,99550.78125,102880.1484375,124462.2421875,-124462.2421875,161478.09375,-50.42295837402344,1.0,3.201388381057768e-07,0.8081535696983337,8.0,0.0178246833384037,0.2708858251571655,27.29998588562012,0.01181772258132696,0.037897683680057526,1.676730676081206e-06,73.75921630859375,9.999999747378752e-06,0.08626562356948851,102880.1484375,-124462.2421875,161478.09375,-50.42295837402344
5.0,79160.15625,131427.5,129017.2734375,-129017.2734375,184170.15625,-44.46978378295898,1.0,3.1386318255499646e-07,0.8065007328987122,8.0,0.01997467875480652,0.3462035059928894,84.28512573242188,0.023928197100758553,0.05328831449151039,1.8789761497828292e-06,125.62274932861328,9.999999747378752e-06,0.11266001313924788,131427.5,-129017.2734375,184170.15625,-44.46978378295898
6.0,62871.09375,160172.875,125759.765625,-125759.765625,203643.984375,-38.137237548828125,1.0,2.980382589612418e-07,0.8508610129356384,8.0,0.022895053029060364,0.4387699067592621,-156.8593597412109,0.0289679616689682,0.06376807391643524,2.153689592887531e-06,-121.2043685913086,9.999999747378752e-06,0.12822994589805603,160172.875,-125759.765625,203643.984375,-38.137237548828125
7.0,49980.46875,185863.890625,116809.1015625,-116809.1015625,219521.640625,-32.1479606628418,1.0,2.7815607950287813e-07,0.8757905960083008,8.0,0.026798561215400692,0.5535932779312134,9.804248809814451,0.03504358232021332,0.0625462755560875,2.520884436307824e-06,39.97837829589844,9.999999747378752e-06,0.14678287506103516,185863.890625,-116809.1015625,219521.640625,-32.1479606628418
8.0,39667.96875,207975.390625,104510.390625,-104510.390625,232757.78125,-26.68013381958008,1.0,2.7569896587920084e-07,0.8874980807304382,8.0,0.03189462423324585,0.6985423564910889,168.99102783203125,0.05615730583667755,0.07899849861860275,3.0002604489709483e-06,-165.8976287841797,9.999999747378752e-06,0.13770829141139984,207975.390625,-104510.390625,232757.78125,-26.68013381958008
9.0,31582.03125,224653.359375,91274.328125,-91274.328125,242487.390625,-22.11139678955078,1.0,2.843183608547406e-07,0.9121589064598083,8.0,0.03847184404730797,0.8777511119842529,-59.57129287719727,0.07030943781137465,0.0788877457380295,3.6189655929774736e-06,-38.71103286743164,9.999999747378752e-06,0.12632213532924652,224653.359375,-91274.328125,242487.390625,-22.11139678955078
10.0,25019.53125,237352.625,76528.7890625,-76528.7890625,249385.09375,-17.87070083618164,1.0,2.683628963495721e-07,0.94491308927536,8.0,0.047242820262908936,1.1084526777267456,-176.44039916992188,0.0934741124510765,0.083322636783123,4.444033038453199e-06,-159.5624542236328,9.999999747378752e-06,0.1149580031633377,237352.625,-76528.7890625,249385.09375,-17.87070083618164
11.0,19863.28125,246231.625,63694.56640625,-63694.56640625,254336.40625,-14.50321578979492,1.0,2.5786221158341505e-07,0.9399069547653198,8.0,0.05835333839058876,1.396249771118164,-141.21990966796875,0.11248837411403656,0.07938218116760254,5.489176146511454e-06,-127.50585174560545,9.999999747378752e-06,0.101981483399868,246231.625,-63694.56640625,254336.40625,-14.50321578979492
12.0,15682.8701171875,252161.453125,51814.62890625,-51814.62890625,257429.90625,-11.611623764038084,1.0,2.604705287012621e-07,0.9661757946014403,8.0,0.07301456481218338,1.768239974975586,175.5649261474609,0.14203870296478271,0.07930249720811844,6.868327091069659e-06,-173.4470977783203,9.999999747378752e-06,0.09270971268415452,252161.453125,-51814.62890625,257429.90625,-11.611623764038084
13.0,12597.65625,256473.53125,43448.65625,-43448.65625,260127.765625,-9.615073204040527,1.0,2.3128082204948441e-07,0.967340886592865,8.0,0.08990412205457686,2.2000300884246826,158.8033905029297,0.17624510824680328,0.07910054922103882,8.457092008029576e-06,167.9171905517578,9.999999747378752e-06,0.08854454010725021,256473.53125,-43448.65625,260127.765625,-9.615073204040527
14.0,9895.8330078125,259011.5,34264.1328125,-34264.1328125,261268.046875,-7.535792827606201,1.0,2.277616317769571e-07,0.9732877612113952,8.0,0.11385900527238844,2.7983901500701904,-168.86341857910156,0.22922734916210172,0.0809429958462715,1.0710477909015024e-05,-161.72157287597656,9.255285249309966e-07,0.08496887236833571,259011.5,-34264.1328125,261268.046875,-7.535792827606201
15.0,7910.15625,260568.125,27987.076171875,-27987.076171875,262066.828125,-6.130517005920409,1.0,2.304657442664393e-07,1.001418113708496,8.0,0.15195702016353607,3.497630834579468,-151.1143798828125,0.27940455079078674,0.07890795171260834,1.334606986347353e-05,-145.29884338378906,1.1422198440413922e-06,0.08342133462429047,260568.125,-27987.076171875,262066.828125,-6.130517005920409
16.0,6307.87060546875,261809.671875,22690.408203125,-22690.408203125,262791.09375,-4.953308582305908,1.0,2.043821893948916e-07,1.005509614944458,8.0,0.23976674675941467,4.146524429321289,-61.352005004882805,0.28127366304397583,0.06701428443193436,1.5778588931425475e-05,-56.6499137878418,1.1343322512402665e-06,0.07086453586816788,261809.671875,-22690.408203125,262791.09375,-4.953308582305908
17.0,4973.3232421875,262709.0625,18419.56640625,-18419.56640625,263354.0,-4.010669231414794,1.0,1.5841945355532516e-07,0.9708437323570253,8.0,0.3971331417560577,4.3678388595581055,-138.1835174560547,0.0664762482047081,0.014981081709265707,1.656331187405158e-05,-134.288330078125,9.999999747378752e-06,0.015254042111337183,262709.0625,-18419.56640625,263354.0,-4.010669231414794
18.0,3944.3598632812495,263309.5,15121.00390625,-15121.00390625,263743.3125,-3.2866997718811035,1.0,1.2457570619517358e-07,0.9507364630699155,8.0,0.5620606541633606,3.7364430427551274,-10.872838973999023,0.0070458510890603065,0.0008436735952273011,1.4152953554003032e-05,-7.698681831359862,9.999999747378752e-06,0.001028556260280311,263309.5,-15121.00390625,263743.3125,-3.2866997718811035
19.0,3144.054931640625,263749.34375,12517.2724609375,-12517.2724609375,264046.21875,-2.717159986495972,1.0,1.2782331282323867e-07,0.9575245976448061,8.0,0.6547482013702393,3.078002691268921,50.62400436401367,0.006342957727611065,0.0020605672616511583,1.1649066436802968e-05,53.240249633789055,9.999999747378752e-06,0.000698214746080339,263749.34375,-12517.2724609375,264046.21875,-2.717159986495972
20.0,2488.426025390625,264081.1875,10468.61328125,-10468.61328125,264288.59375,-2.270110607147217,1.0,1.2507467772593373e-07,0.961111843585968,8.0,0.7417470216751098,2.995410203933716,113.05304718017578,0.007938018068671225,0.002507850294932723,1.1328736945870332e-05,115.23731231689452,9.999999747378752e-06,0.0006973666604608296,264081.1875,-10468.61328125,264288.59375,-2.270110607147217
21.0,1976.6566162109373,264452.5625,8970.939453125,-8970.939453125,264604.6875,-1.942881226539612,1.0,1.2127641468850925e-07,0.9619230031967165,8.0,0.8135856986045836,2.903170585632324,-158.56634521484375,0.005987259559333324,0.00039403667324222624,1.0968506103381515e-05,-156.69464111328125,9.999999747378752e-06,0.0006887647323310375,264452.5625,-8970.939453125,264604.6875,-1.942881226539612
22.0,1582.03125,264739.53125,7898.887695312499,-7898.887695312499,264857.34375,-1.7089955806732176,1.0,1.1132860322504713e-07,0.9552063941955566,8.0,0.8710287809371949,2.8361186981201167,91.98387145996092,0.0075255571864545345,0.0005165843176655471,1.0706048669817392e-05,93.63442230224608,9.999999747378752e-06,0.0008151648798957467,264739.53125,-7898.887695312499,264857.34375,-1.7089955806732176
23.0,1253.6336669921875,264971.71875,7042.1962890625,-7042.1962890625,265065.28125,-1.5224008560180664,1.0,1.1062111582305079e-07,0.9560465812683104,8.0,0.9156978726387026,2.7869255542755127,132.08279418945312,0.003535784082487225,0.0005631679086945951,1.0512831067899242e-05,133.5580902099609,9.999999747378752e-06,0.0007695100503042339,264971.71875,-7042.1962890625,265065.28125,-1.5224008560180664
24.0,996.09375,265205.5,6531.24560546875,-6531.24560546875,265285.90625,-1.4107444286346436,1.0,1.0778117598420069e-07,0.9552757143974304,8.0,0.9487317204475402,2.7487733364105225,-21.79593276977539,0.008783754892647266,0.0007235658704303205,1.0360750820836984e-05,-20.422998428344727,9.999999747378752e-06,0.0010059019550681114,265205.5,-6531.24560546875,265285.90625,-1.4107444286346436
25.0,790.028076171875,265569.28125,6390.880859375,-6390.880859375,265646.15625,-1.378547430038452,1.0,9.104853404551248e-08,0.9540863037109376,8.0,0.968645453453064,2.712352752685547,-135.91432189941406,0.005598072893917561,0.0007223447901196778,1.0209898391622119e-05,-134.56594848632812,9.999999747378752e-06,0.0009898991556838153,265569.28125,-6390.880859375,265646.15625,-1.378547430038452
26.0,628.8109741210938,265886.1875,6303.18310546875,-6303.18310546875,265960.875,-1.3580176830291748,1.0,1.0124072247208461e-07,0.9543986916542051,8.0,0.9840776920318605,2.702064752578736,82.28620910644531,0.008472390472888945,0.0009282079990953208,1.015931775327772e-05,83.62010955810547,9.999999747378752e-06,0.0009956290014088154,265886.1875,-6303.18310546875,265960.875,-1.3580176830291748
27.0,496.3235168457031,266357.0625,6467.080078125,-6467.080078125,266435.5625,-1.3908532857894895,1.0,1.0017437546139263e-07,0.9546254277229309,8.0,0.9642643332481384,2.558994770050049,119.04541778564452,0.006576987914741039,0.00028472970006987447,9.798660357773768e-06,122.9628448486328,9.999999747378752e-06,0.0003329095779918134,266357.0625,-6467.080078125,266435.5625,-1.3908532857894895
28.0,395.3313293457031,266698.8125,6742.07177734375,-6742.07177734375,266784.03125,-1.4481129646301267,1.0,1.0165457808852807e-07,0.9636613130569458,8.0,0.9895490407943724,2.705426216125488,85.1553955078125,0.007199882995337248,0.0004821608017664402,1.0262217983836308e-05,88.68919372558594,9.999999747378752e-06,0.0005545549793168902,266698.8125,-6742.07177734375,266784.03125,-1.4481129646301267
29.0,315.5048217773437,267235.96875,7420.279296875,-7420.279296875,267338.96875,-1.590510010719299,1.0,1.1806776711864587e-07,0.9568889737129213,8.0,1.001427173614502,2.6862518787384038,-145.88682556152344,0.003303785575553775,0.0009266922716051341,1.0120035767613444e-05,-142.6141357421875,9.999999747378752e-06,0.0006174026639200747,267235.96875,-7420.279296875,267338.96875,-1.590510010719299
30.0,249.33511352539065,267753.59375,8051.29541015625,-8051.29541015625,267874.625,-1.7223533391952515,1.0,1.035328125453816e-07,0.966161012649536,8.0,1.0052337646484375,2.677544593811035,82.34022521972656,0.004395462106913328,0.0012899159919470549,1.0038012078439351e-05,85.39398956298828,9.999999747378752e-06,0.0007373030530288814,267753.59375,-8051.29541015625,267874.625,-1.7223533391952515
31.0,198.6228790283203,268279.1875,8835.3798828125,-8835.3798828125,268424.625,-1.8862702846527095,1.0,9.741619777514643e-08,0.9755844473838806,8.0,1.0051101446151731,2.676936864852905,69.54178619384766,0.004821333102881908,0.0017647674540057778,9.998770110541953e-06,72.48735046386719,9.999999747378752e-06,0.0009029745124280452,268279.1875,-8835.3798828125,268424.625,-1.8862702846527095
32.0,158.005615234375,269179.59375,10231.876953125,-10231.876953125,269374.0,-2.176841259002685,1.0,1.0464141553256923e-07,0.9588285684585571,8.0,1.0015112161636353,2.6797754764556885,128.44691467285156,0.00809056218713522,0.0023144043516367674,9.964193850464653e-06,131.46505737304688,9.999999747378752e-06,0.0011458247900009155,269179.59375,-10231.876953125,269374.0,-2.176841259002685
33.0,125.5580368041992,270145.53125,11990.4033203125,-11990.4033203125,270411.5,-2.5414040088653564,1.0,1.069428279265594e-07,0.9409659504890442,8.0,0.992118000984192,2.6760709285736084,-105.52129364013672,0.009047755971550941,0.0032607947941869497,9.90620901575312e-06,-102.31230163574217,9.999999747378752e-06,0.0010501869255676863,270145.53125,-11990.4033203125,270411.5,-2.5414040088653564
34.0,99.73403930664062,270452.90625,12334.4130859375,-12334.4130859375,270734.03125,-2.61125111579895,1.0,1.086391208104942e-07,1.0075106620788574,8.0,0.9983657002449037,2.722684860229492,-101.63306427001952,0.010322483256459236,0.00370087381452322,1.0062973160529507e-05,-98.49208068847656,9.999999747378752e-06,0.0006538251182064414,270452.90625,-12334.4130859375,270734.03125,-2.61125111579895
35.0,78.78150939941406,271669.78125,14007.2314453125,-14007.2314453125,272030.65625,-2.95154356956482,1.0,1.1131260890806517e-07,1.013252854347229,8.0,0.9981937408447265,2.718782663345337,-99.47972106933592,0.014025072567164896,0.005030423868447542,9.998278073908295e-06,-96.11003112792967,9.999999747378752e-06,0.0006605776725336909,271669.78125,-14007.2314453125,272030.65625,-2.95154356956482
36.0,62.919464111328125,273491.84375,16294.7548828125,-16294.7548828125,273976.84375,-3.4096751213073726,1.0,1.0397013028295988e-07,1.0141805410385132,8.0,0.9986256957054137,2.7402782440185542,-98.03109741210936,0.019168663769960403,0.006841280963271856,1.0004327123169787e-05,-94.28761291503906,9.999999747378752e-06,0.0007861544145271182,273491.84375,-16294.7548828125,273976.84375,-3.4096751213073726
37.0,49.86701965332031,274156.90625,18354.423828125,-18354.423828125,274770.625,-3.8301570415496826,1.0,1.0801281291605846e-07,1.0159893035888672,8.0,0.999319911003113,2.7491915225982666,-98.35381317138672,0.024413732811808583,0.008746971376240253,1.0006951924879104e-05,-94.25917053222656,9.999999747378752e-06,0.0005246013752184808,274156.90625,-18354.423828125,274770.625,-3.8301570415496826
38.0,39.72457504272461,275808.15625,20847.41015625,-20847.41015625,276594.9375,-4.322575569152832,1.0,1.0773162273380876e-07,1.0135360956192017,8.0,0.9991299510002136,2.7651526927948,-97.6261749267578,0.03086557798087597,0.010999459773302078,9.998098903452046e-06,-93.09295654296876,9.999999747378752e-06,0.0007890175911597908,275808.15625,-20847.41015625,276594.9375,-4.322575569152832
39.0,31.459732055664062,277753.40625,24108.080078125,-24108.080078125,278797.6875,-4.9606523513793945,1.0,1.117811194717433e-07,1.005595088005066,8.0,0.9991400241851807,2.7878339290618896,-97.28165435791016,0.043064359575510025,0.015248948708176613,1.0000100701290648e-05,-92.15420532226561,9.999999747378752e-06,0.00040867849020287395,277753.40625,-24108.080078125,278797.6875,-4.9606523513793945
40.0,24.93350982666016,279921.71875,27548.69921875,-27548.69921875,281274.0625,-5.6207056045532235,1.0,1.2787353398380222e-07,1.0076230764389038,8.0,0.9995633363723754,2.81382417678833,-97.1761245727539,0.05388184264302254,0.01889718882739544,1.0004237083194312e-05,-91.42323303222656,9.999999747378752e-06,0.0005466034053824842,279921.71875,-27548.69921875,281274.0625,-5.6207056045532235
41.0,19.862287521362305,282509.1875,31569.447265625,-31569.447265625,284267.625,-6.376157283782959,1.0,1.2691745610027283e-07,0.9962533116340637,8.0,0.9996222257614136,2.8427741527557373,-97.34458923339844,0.06815361231565475,0.02367757260799408,1.00005890999455e-05,-90.8631362915039,9.999999747378752e-06,0.0005588495987467468,282509.1875,-31569.447265625,284267.625,-6.376157283782959
42.0,15.782828330993652,285909.21875,36806.50390625,-36806.50390625,288268.625,-7.335622310638427,1.0,1.2163502560724737e-07,0.9716910719871522,8.0,0.9998177886009216,2.8832056522369385,-97.81478881835936,0.0891459509730339,0.03054837696254253,1.0001956070482264e-05,-90.39549255371091,9.999999747378752e-06,0.0004681796417571604,285909.21875,-36806.50390625,288268.625,-7.335622310638427
43.0,12.466754913330078,290594.5,43896.4609375,-43896.4609375,293891.21875,-8.590009689331055,1.0,1.3914394969560817e-07,0.9173568487167358,8.0,0.9996344447135923,2.938345193862915,-98.67658996582033,0.11027345806360243,0.03707995265722274,9.998166206059976e-06,-90.02049255371092,9.999999747378752e-06,0.0005499247345142065,290594.5,-43896.4609375,293891.21875,-8.590009689331055
44.0,9.973403930664062,295632.84375,50137.74609375,-50137.74609375,299854.25,-9.625471115112305,1.0,1.3735970583184098e-07,0.8695200681686401,8.0,0.9998170733451843,2.9990718364715576,-99.4193115234375,0.1284230351448059,0.042306657880544656,1.0001826922234612e-05,-89.74097442626953,9.999999747378752e-06,0.00040131821879185736,295632.84375,-50137.74609375,299854.25,-9.625471115112305
45.0,7.878151416778564,301574.5,56221.328125,-56221.328125,306770.3125,-10.560197830200195,1.0,1.2967279872100335e-07,0.8095253109931946,8.0,0.9997997283935546,3.067638397216797,-100.10676574707033,0.13964718580245972,0.04497937485575676,9.999826943385415e-06,-89.50480651855469,9.999999747378752e-06,0.00035579572431743145,301574.5,-56221.328125,306770.3125,-10.560197830200195
46.0,6.275100231170654,307582.34375,61866.11328125,-61866.11328125,313742.4375,-11.37254524230957,1.0,1.2197573084904434e-07,0.7477900385856627,8.0,0.9998352527618408,3.13752818107605,-100.72825622558592,0.14549967646598816,0.04582233726978303,1.0000355359807143e-05,-89.32244873046875,9.999999747378752e-06,0.0002896889054682106,307582.34375,-61866.11328125,313742.4375,-11.37254524230957
47.0,5.013369083404541,313504.71875,67291.046875,-67291.046875,320645.125,-12.114233016967772,1.0,1.1794099208373154e-07,0.6815483570098877,8.0,0.9999487400054932,3.206810235977173,-101.31791687011717,0.14692537486553192,0.04520382732152938,1.0001134796766564e-05,-89.1771011352539,9.999999747378752e-06,0.00018586045189294964,313504.71875,-67291.046875,320645.125,-12.114233016967772
48.0,3.939075708389282,319587.46875,73006.6015625,-73006.6015625,327820.25,-12.867852210998535,1.0,1.0669014471886841e-07,0.607168436050415,8.0,1.0000264644622803,3.278454065322876,-101.93832397460936,0.1448976993560791,0.04366400092840195,1.0000777365348767e-05,-89.04959869384764,9.999999747378752e-06,0.0002784758398775012,319587.46875,-73006.6015625,327820.25,-12.867852210998535
49.0,3.137550115585327,324887.5,78349.5,-78349.5,334201.34375,-13.55849838256836,1.0,1.1029346325130973e-07,0.5341982841491699,8.0,1.0002795457839964,3.3428571224212646,-102.53244018554688,0.14155870676040647,0.04183277115225792,1.0002530871133784e-05,-88.95730590820312,9.999999747378752e-06,0.00021536686108447609,324887.5,-78349.5,334201.34375,-13.55849838256836
50.0,2.485418796539306,330320.78125,82742.0703125,-82742.0703125,340526.15625,-14.062666893005373,1.0,1.1997371984762142e-07,0.48317837715148926,8.0,0.970036506652832,3.297041416168213,-146.87416076660156,0.07452792674303056,0.022336946800351143,9.697653695184272e-06,-132.2634124755859,9.999999747378752e-06,0.000873536744620651,330320.78125,-82742.0703125,340526.15625,-14.062666893005373
