# point,freq,zreal,reflected_zimag,zimag,zmod,zphz,zsig,Idc,Vdc,ie_range,gain,vmod,vphz,vsig,vthd,imod,iphz,isig,ithd,zreal_drift,zimag_drift,zmod_drift,zphz_drift
0.0,250019.53125,4312.6689453125,143.9034881591797,-143.9034881591797,4315.0693359375,-1.911114692687988,1.0,5.359982537811448e-07,0.3615403175354004,8.0,0.040381871163845055,0.01679001934826374,31.134700775146484,0.005302622448652984,0.3068259656429291,3.79863809030212e-06,23.468505859375,9.999999747378752e-06,0.16160178184509277,4312.6689453125,-143.9034881591797,4315.0693359375,-1.911114692687988
1.0,198691.40625,4292.76123046875,105.3998336791992,-105.3998336791992,4294.05517578125,-1.406496286392212,1.0,4.725571898234193e-07,0.4757166802883148,8.0,0.04848165437579154,0.019892973825335503,58.77016448974609,0.003832440124824643,0.17950601875782013,4.560567504086065e-06,52.50349426269531,9.999999747378752e-06,0.14364126324653623,4292.76123046875,-105.3998336791992,4294.05517578125,-1.406496286392212
2.0,157792.96875,4314.93115234375,104.62665557861328,-104.62665557861328,4316.19921875,-1.389012098312378,1.0,4.84901079289557e-07,0.5406697392463684,8.0,0.05909022316336632,0.02424009144306183,80.70296478271484,0.004021256230771542,0.15094690024852753,5.558493285207078e-06,75.96244049072266,9.999999747378752e-06,0.14249567687511444,4314.93115234375,-104.62665557861328,4316.19921875,-1.389012098312378
3.0,125332.03125,4289.68017578125,118.15408325195312,-118.15408325195312,4291.30712890625,-1.577744483947754,1.0,5.501187274603582e-07,0.6119020581245422,8.0,0.07260690629482269,0.029510883614420887,4.791771411895752,0.004156425129622221,0.13290917873382568,6.8299791564641055e-06,1.478302001953125,9.999999747378752e-06,0.12295380234718321,4289.68017578125,-118.15408325195312,4291.30712890625,-1.577744483947754
4.0,99550.78125,4304.72802734375,110.99311065673828,-110.99311065673828,4306.15869140625,-1.4769872426986694,1.0,3.4935237636091193e-07,0.6192695498466492,8.0,0.08761382848024368,0.035506535321474075,-129.5285186767578,0.0021762230899184942,0.046932905912399285,8.241649084084202e-06,-131.7046356201172,9.999999747378752e-06,0.04523450136184692,4304.72802734375,-110.99311065673828,4306.15869140625,-1.4769872426986694
5.0,79160.15625,4302.1005859375,120.46497344970705,-120.46497344970705,4303.787109375,-1.6039447784423828,1.0,2.980421527354338e-07,0.684347927570343,8.0,0.11056540161371232,0.04478154703974724,-11.844791412353516,0.0028195441700518127,0.061249226331710815,1.0400655810371973e-05,-13.126001358032227,9.999999747378752e-06,0.05845692381262779,4302.1005859375,-120.46497344970705,4303.787109375,-1.6039447784423828
6.0,62871.09375,4309.45458984375,132.8732452392578,-132.8732452392578,4311.50244140625,-1.7660390138626099,1.0,2.5108914769589324e-07,0.7036805748939513,8.0,0.14430129528045654,0.05629368871450424,-93.62461090087889,0.004078098572790624,0.0709802582859993,1.3051216228632256e-05,-94.14466094970705,9.386694728164002e-07,0.07000494748353958,4309.45458984375,-132.8732452392578,4311.50244140625,-1.7660390138626099
7.0,49980.46875,4318.3408203125,148.3083038330078,-148.3083038330078,4320.88671875,-1.96698260307312,1.0,1.700593372788717e-07,0.7123150825500488,8.0,0.2256350070238113,0.06758780032396317,-132.6526641845703,0.004835586994886398,0.071054607629776,1.563638033985626e-05,-132.50357055664062,1.10307246359298e-06,0.06961402297019958,4318.3408203125,-148.3083038330078,4320.88671875,-1.96698260307312
8.0,39667.96875,4327.55517578125,170.1232452392578,-170.1232452392578,4330.89794921875,-2.2512311935424805,1.0,1.4476981391453594e-07,0.6941102147102356,8.0,0.3844602406024933,0.0738162025809288,166.21063232421875,0.0030965656042099,0.04157968610525131,1.7039033991750326e-05,167.016845703125,9.999999747378752e-06,0.04280465096235275,4327.55517578125,-170.1232452392578,4330.89794921875,-2.2512311935424805
9.0,31582.03125,4337.1142578125,201.49816894531247,-201.49816894531247,4341.79248046875,-2.65999436378479,1.0,1.389833528264717e-07,0.680345892906189,8.0,0.5519152283668518,0.062342938035726554,-37.279644012451165,0.000586140900850296,0.0037336773239076138,1.4355587154568639e-05,-35.772247314453125,9.999999747378752e-06,0.011244729161262512,4337.1142578125,-201.49816894531247,4341.79248046875,-2.65999436378479
10.0,25019.53125,4350.62109375,237.59112548828125,-237.59112548828125,4357.10400390625,-3.125866413116455,1.0,1.570613221701933e-07,0.6787886619567871,8.0,0.6417489051818848,0.05067102983593941,168.7161102294922,0.0006825466407462955,0.012374219484627247,1.1627671483438462e-05,170.9272918701172,9.999999747378752e-06,0.01298324018716812,4350.62109375,-237.59112548828125,4357.10400390625,-3.125866413116455
11.0,19863.28125,4373.8955078125,273.1835327148437,-273.1835327148437,4382.41845703125,-3.573921203613281,1.0,1.5743611925245204e-07,0.6875259876251221,8.0,0.7208487391471863,0.0492311492562294,-76.72909545898438,0.0006164732039906085,0.001654492225497961,1.123256606661016e-05,-73.88235473632812,9.999999747378752e-06,0.003057936206459999,4373.8955078125,-273.1835327148437,4382.41845703125,-3.573921203613281
12.0,15682.8701171875,4394.18115234375,317.3236083984375,-317.3236083984375,4405.6240234375,-4.130416393280028,1.0,1.6067380670392595e-07,0.7013654112815857,8.0,0.7918822765350341,0.04840108007192612,-82.39804077148438,0.0007924610399641096,0.0016982599627226591,1.0985415428876877e-05,-78.84234619140625,9.999999747378752e-06,0.0033287582919001575,4394.18115234375,-317.3236083984375,4405.6240234375,-4.130416393280028
13.0,12597.65625,4412.37646484375,369.43304443359375,-369.43304443359375,4427.81494140625,-4.786015033721924,1.0,1.62121494895473e-07,0.7115681171417236,8.0,0.8456364274024963,0.04728607460856438,-134.4621429443359,0.0009357945527881386,0.0013799206353724003,1.0678814760467503e-05,-130.13807678222656,9.999999747378752e-06,0.0030075861141085625,4412.37646484375,-369.43304443359375,4427.81494140625,-4.786015033721924
14.0,9895.8330078125,4438.85205078125,450.4300842285156,-450.4300842285156,4461.6474609375,-5.794224739074707,1.0,1.2808244775897037e-07,0.7181594967842102,8.0,0.8910776376724243,0.04701540619134903,-125.89019775390624,0.00027964494074694807,0.0137064503505826,1.053736104950076e-05,-120.45903778076172,9.999999747378752e-06,0.0023043020628392696,4438.85205078125,-450.4300842285156,4461.6474609375,-5.794224739074707
15.0,7910.15625,4484.294921875,529.302978515625,-529.302978515625,4515.4248046875,-6.731750011444092,1.0,1.2905060486900766e-07,0.7289664745330809,8.0,0.9189341068267822,0.046566758304834366,-101.34159851074217,0.0006394434021785855,0.0013668014435097575,1.0312615813745651e-05,-94.90014648437501,9.999999747378752e-06,0.002746779937297106,4484.294921875,-529.302978515625,4515.4248046875,-6.731750011444092
16.0,6307.87060546875,4518.39111328125,617.732666015625,-617.732666015625,4560.42236328125,-7.784939765930174,1.0,1.158459710381976e-07,0.7385442256927489,8.0,0.9421950578689576,0.04675918072462082,-5.171906471252441,0.0007743531023152173,0.001919055706821382,1.0253129403281491e-05,2.3814949989318848,9.999999747378752e-06,0.0014371054712682962,4518.39111328125,-617.732666015625,4560.42236328125,-7.784939765930174
17.0,4973.3232421875,4568.2626953125,728.8519897460938,-728.8519897460938,4626.04052734375,-9.064960479736328,1.0,1.1583788506186465e-07,0.7463681101799011,8.0,0.9290521740913392,0.04567601531744003,-99.38859558105469,9.999999747378752e-06,0.0004911170690320432,9.86050781648373e-06,-90.4236068725586,9.999999747378752e-06,0.000483527488540858,4568.2626953125,-728.8519897460938,4626.04052734375,-9.064960479736328
18.0,3944.3598632812495,4627.3857421875,863.0459594726561,-863.0459594726561,4707.18017578125,-10.564756393432615,1.0,1.001452218929444e-07,0.7472770810127257,8.0,0.9562570452690125,0.04849815368652344,23.62093734741211,0.0006249236757867038,0.0005060833645984529,1.029282429954037e-05,34.08545684814453,9.999999747378752e-06,0.0004851937410421669,4627.3857421875,-863.0459594726561,4707.18017578125,-10.564756393432615
19.0,3144.054931640625,4696.4833984375,1022.5372314453124,-1022.5372314453124,4806.509765625,-12.282975196838377,1.0,1.1404129196534997e-07,0.7442214488983153,8.0,0.9713256955146787,0.048856008797883994,67.07133483886719,0.000707081169821322,0.010485021397471428,1.015757970890263e-05,79.26321411132812,9.999999747378752e-06,0.0008685505599714815,4696.4833984375,-1022.5372314453124,4806.509765625,-12.282975196838377
20.0,2488.426025390625,4780.70263671875,1215.2166748046875,-1215.2166748046875,4932.734375,-14.2620792388916,1.0,1.2870690113686578e-07,0.7416439652442931,8.0,0.9795556664466858,0.04976778104901314,135.80474853515625,0.0006705650012008846,0.011943266727030276,1.008472918329062e-05,149.98873901367188,9.999999747378752e-06,0.001066253753378987,4780.70263671875,-1215.2166748046875,4932.734375,-14.2620792388916
21.0,1976.6566162109373,4881.6650390625,1438.6580810546875,-1438.6580810546875,5089.24267578125,-16.420583724975582,1.0,1.5042473933135625e-07,0.7422726154327391,8.0,0.9849231839179992,0.051186323165893555,-145.48829650878906,0.0004345428897067904,0.001479265745729208,1.0054794984171169e-05,-129.1327362060547,9.999999747378752e-06,0.0009354091016575694,4881.6650390625,-1438.6580810546875,5089.24267578125,-16.420583724975582
22.0,1582.03125,4995.64404296875,1673.604736328125,-1673.604736328125,5268.5302734375,-18.521509170532223,1.0,1.7689657738628742e-07,0.749725103378296,8.0,0.9882631301879882,0.05287408828735352,101.91712188720705,0.0007047168910503387,0.0016525405226275325,1.0033911166829055e-05,120.38511657714844,9.999999747378752e-06,0.0012914510443806648,4995.64404296875,-1673.604736328125,5268.5302734375,-18.521509170532223
23.0,1253.6336669921875,5137.1318359375,1955.8035888671875,-1955.8035888671875,5496.84375,-20.842779159545895,1.0,1.8006244317803066e-07,0.7585861086845398,8.0,0.9902711510658264,0.055086828768253326,133.3723602294922,0.0003617897164076567,0.0022315790411084886,1.002031876851106e-05,154.1719512939453,9.999999747378752e-06,0.0011063163401558995,5137.1318359375,-1955.8035888671875,5496.84375,-20.842779159545895
24.0,996.09375,5301.50146484375,2287.122314453125,-2287.122314453125,5773.80712890625,-23.335865020751957,1.0,1.6658049162288083e-07,0.7643306255340576,8.0,0.991776406764984,0.057830292731523514,-24.369125366210938,0.0007948642596602439,0.0034154620952904224,1.0015200132329483e-05,-1.0679600238800049,9.999999747378752e-06,0.0017894597258418798,5301.50146484375,-2287.122314453125,5773.80712890625,-23.335865020751957
25.0,790.028076171875,5485.08837890625,2633.80126953125,-2633.80126953125,6084.6611328125,-25.649147033691406,1.0,1.6763684129728063e-07,0.7783259749412536,8.0,0.995832085609436,0.06109841912984848,-147.27920532226562,0.0005391031736508012,0.005041337572038174,1.0040893357654568e-05,-121.65778350830078,9.999999747378752e-06,0.0015718075446784496,5485.08837890625,-2633.80126953125,6084.6611328125,-25.649147033691406
26.0,628.8109741210938,5693.091796875,3030.41796875,-3030.41796875,6449.3974609375,-28.026256561279297,1.0,1.6442197647847934e-07,0.7899940013885498,8.0,0.9976115822792051,0.06461121886968613,67.60066986083984,0.00040116396849043673,0.007006924599409103,1.0017869499279186e-05,95.60477447509763,9.999999747378752e-06,0.001899217371828854,5693.091796875,-3030.41796875,6449.3974609375,-28.026256561279297
27.0,496.3235168457031,5932.9501953125,3494.147216796875,-3494.147216796875,6885.4169921875,-30.495500564575195,1.0,1.4871615405809282e-07,0.8025336265563965,8.0,0.9694753289222717,0.06558673083782196,96.98870849609376,0.0004389102687127888,0.006381292827427387,9.717963621369565e-06,130.0123291015625,9.999999747378752e-06,0.0005562533624470234,5932.9501953125,-3494.147216796875,6885.4169921875,-30.495500564575195
28.0,395.3313293457031,6180.81689453125,4008.80859375,-4008.80859375,7367.02392578125,-32.96699142456055,1.0,1.2916002845031474e-07,0.8136627078056334,8.0,0.9905589222908019,0.07438240945339203,60.184375762939446,0.0012354577193036675,0.0109713701531291,1.0217474482487889e-05,95.23828887939453,9.999999747378752e-06,0.0007179455133154988,6180.81689453125,-4008.80859375,7367.02392578125,-32.96699142456055
29.0,315.5048217773437,6516.880859375,4775.65380859375,-4775.65380859375,8079.39404296875,-36.23443984985352,1.0,1.1747419392804659e-07,0.8046056628227235,8.0,0.9967494010925294,0.08072104305028915,-175.0023193359375,0.001373451086692512,0.01590750738978386,1.0062494766316377e-05,-137.084716796875,9.999999747378752e-06,0.0007171464967541397,6516.880859375,-4775.65380859375,8079.39404296875,-36.23443984985352
30.0,249.33511352539065,6843.587890625,5497.62841796875,-5497.62841796875,8778.3037109375,-38.77579879760742,1.0,9.873986783759393e-08,0.8177803754806519,8.0,0.9995687603950499,0.08765863627195358,49.19172668457031,0.0018530257511883972,0.022119542583823204,1.0028285032603888e-05,89.29972076416014,9.999999747378752e-06,0.0011495855869725347,6843.587890625,-5497.62841796875,8778.3037109375,-38.77579879760742
31.0,198.6228790283203,7223.827148437501,6365.42919921875,-6365.42919921875,9628.20703125,-41.38557815551758,1.0,1.0791470117510472e-07,0.8253942131996154,8.0,0.9997097253799438,0.09604524075984953,33.286865234375,0.0028007517103105783,0.028628630563616753,1.00014103736612e-05,75.73236083984375,9.999999747378752e-06,0.0011633996618911624,7223.827148437501,-6365.42919921875,9628.20703125,-41.38557815551758
32.0,158.005615234375,7833.373046875,7801.649414062499,-7801.649414062499,11055.6533203125,-44.88374710083008,1.0,1.1338591576759427e-07,0.8033095598220825,8.0,0.9953250288963316,0.10989449918270112,88.3724594116211,0.004090124275535345,0.03646817058324814,9.956140274880452e-06,134.0979766845703,9.999999747378752e-06,0.001330990926362574,7833.373046875,-7801.649414062499,11055.6533203125,-44.88374710083008
33.0,125.5580368041992,8336.1484375,8998.1533203125,-8998.1533203125,12266.1376953125,-47.18708801269531,1.0,1.3004344623368524e-07,0.8141534328460692,8.0,0.9857009053230285,0.12135370820760726,-148.3485565185547,0.005590681917965412,0.04554112255573273,9.903306818159761e-06,-100.49349212646484,9.999999747378752e-06,0.0013795268023386595,8336.1484375,-8998.1533203125,12266.1376953125,-47.18708801269531
34.0,99.73403930664062,8741.486328125,9693.4921875,-9693.4921875,13052.8681640625,-47.95620346069336,1.0,1.4139263271317762e-07,0.8616394996643065,8.0,0.9918214678764344,0.13125699758529663,-145.337890625,0.007587314117699861,0.05651262775063515,1.0062093679152895e-05,-96.85164642333984,9.999999747378752e-06,0.0013521203072741628,8741.486328125,-9693.4921875,13052.8681640625,-47.95620346069336
35.0,78.78150939941406,9427.5830078125,11341.6767578125,-11341.6767578125,14748.3203125,-50.26550292968751,1.0,1.5366441630249028e-07,0.8686109781265258,8.0,0.9923097491264344,0.14749854803085327,-145.5014495849609,0.010266048833727837,0.0678311437368393,1.0004922842199448e-05,-94.81755065917967,9.999999747378752e-06,0.0013225481379777193,9427.5830078125,-11341.6767578125,14748.3203125,-50.26550292968751
36.0,62.919464111328125,10199.359375,13199.7724609375,-13199.7724609375,16681.154296875,-52.30702209472656,1.0,1.5829486699203699e-07,0.8722744584083557,8.0,0.9931748509407043,0.16691583395004272,-145.93328857421875,0.013723271898925304,0.08017320185899734,1.0008718163589945e-05,-93.29227447509763,9.999999747378752e-06,0.0016889573307707904,10199.359375,-13199.7724609375,16681.154296875,-52.30702209472656
37.0,49.86701965332031,11249.7001953125,15481.837890625,-15481.837890625,19137.478515625,-53.99639892578125,1.0,1.4433059902785317e-07,0.8734253048896788,8.0,0.9932758212089537,0.191364660859108,-147.73748779296875,0.01833589375019073,0.09463298320770264,1.0001016562455332e-05,-93.47660064697264,9.999999747378752e-06,0.0014613494277000427,11249.7001953125,-15481.837890625,19137.478515625,-53.99639892578125
38.0,39.72457504272461,12402.6640625,18037.66796875,-18037.66796875,21890.26171875,-55.48766326904297,1.0,9.140114087813345e-08,0.8747518658638,8.0,0.994099497795105,0.2190627157688141,-148.18580627441406,0.024374250322580338,0.10985611379146576,1.0008292520069516e-05,-92.48749542236328,9.999999747378752e-06,0.0016350789228454232,12402.6640625,-18037.66796875,21890.26171875,-55.48766326904297
39.0,31.459732055664062,13848.0419921875,21113.78125,-21113.78125,25249.951171875,-56.74005508422852,1.0,8.948431684530078e-08,0.8722683787345886,8.0,0.9944764971733091,0.25257977843284607,-148.6088104248047,0.03224446624517441,0.1261340081691742,1.0003792340285145e-05,-91.70195007324217,9.999999747378752e-06,0.0016787769272923467,13848.0419921875,-21113.78125,25249.951171875,-56.74005508422852
40.0,24.93350982666016,15450.68359375,24260.45703125,-24260.45703125,28762.708984375,-57.5082893371582,1.0,9.208165607788033e-08,0.8782640099525452,8.0,0.995028018951416,0.28777551651000977,-148.728515625,0.0420650877058506,0.14442157745361328,1.0005545846070161e-05,-91.08803558349608,9.999999747378752e-06,0.001889780513010919,15450.68359375,-24260.45703125,28762.708984375,-57.5082893371582
41.0,19.862287521362305,17387.994140625,27941.91015625,-27941.91015625,32910.375,-58.10637283325195,1.0,1.0238305492293877e-07,0.8772785067558287,8.0,0.9955117106437683,0.3292556703090668,-148.81251525878906,0.05438833311200142,0.16318610310554504,1.0004860996559728e-05,-90.60084533691406,9.999999747378752e-06,0.0018655919702723624,17387.994140625,-27941.91015625,32910.375,-58.10637283325195
42.0,15.782828330993652,19978.4609375,32582.296875,-32582.296875,38219.69140625,-58.484657287597656,1.0,1.055536813510116e-07,0.8641725182533264,8.0,0.9960047602653505,0.382380336523056,-148.77334594726562,0.07060106843709946,0.18242749571800232,1.0004952855524609e-05,-90.20502471923827,9.999999747378752e-06,0.0018663891823962329,19978.4609375,-32582.296875,38219.69140625,-58.484657287597656
43.0,12.466754913330078,23490.603515625,38305.24609375,-38305.24609375,44934.40234375,-58.48139190673828,1.0,1.2937553606207078e-07,0.8388965725898743,8.0,0.9962449669837952,0.44944804906845087,-148.4459991455078,0.09106225520372391,0.2001935988664627,1.0002411727327852e-05,-89.89851379394531,9.999999747378752e-06,0.0019236993975937369,23490.603515625,-38305.24609375,44934.40234375,-58.48139190673828
44.0,9.973403930664062,27508.814453125,44222.5078125,-44222.5078125,52080.37109375,-58.11613464355469,1.0,1.4428577799208142e-07,0.810116946697235,8.0,0.9964677095413208,0.5209169387817383,-147.8230743408203,0.11098024249076845,0.21052414178848264,1.0002236194850411e-05,-89.65409088134764,9.999999747378752e-06,0.0018769690068438647,27508.814453125,-44222.5078125,52080.37109375,-58.11613464355469
45.0,7.878151416778564,32345.396484375,50274.86328125,-50274.86328125,59781.15625,-57.24394226074219,1.0,1.263112920923959e-07,0.780068039894104,8.0,0.9970157146453856,0.5981379747390747,-146.74453735351562,0.12881232798099515,0.21280480921268463,1.0005499461840373e-05,-89.45883178710938,9.999999747378752e-06,0.0016844260971993208,32345.396484375,-50274.86328125,59781.15625,-57.24394226074219
46.0,6.275100231170654,37830.66015625,56180.8671875,-56180.8671875,67730.703125,-56.04475402832031,1.0,1.0487306667528173e-07,0.7343946695327759,8.0,0.9973825812339783,0.6775546669960022,-145.38348388671875,0.13947972655296323,0.20341967046260837,1.0003679562942123e-05,-89.30546569824217,9.999999747378752e-06,0.0015988190425559878,37830.66015625,-56180.8671875,67730.703125,-56.04475402832031
47.0,5.013369083404541,43492.515625,61942.41015625,-61942.41015625,75686.6015625,-54.925605773925774,1.0,1.4665097580746078e-07,0.6749445796012878,8.0,0.9977905154228209,0.7571743726730346,-144.12887573242188,0.14367541670799255,0.1875068694353104,1.0004089745052624e-05,-89.17670440673827,9.999999747378752e-06,0.001445601345039904,43492.515625,-61942.41015625,75686.6015625,-54.925605773925774
