# point,freq,zreal,reflected_zimag,zimag,zmod,zphz,zsig,Idc,Vdc,ie_range,gain,vmod,vphz,vsig,vthd,imod,iphz,isig,ithd,zreal_drift,zimag_drift,zmod_drift,zphz_drift
0.0,250019.53125,4215.47802734375,-588.5256958007812,588.5256958007812,4256.36181640625,7.947731018066406,1.0,3.406251494197932e-07,0.08139794319868086,8.0,0.10087161511182784,0.004293460864573717,166.03207397460935,0.0006451938534155488,0.10797242075204848,1.0087161399496836e-06,158.0843505859375,9.999999747378752e-06,0.21193864941596985,4215.47802734375,588.5256958007812,4256.36181640625,7.947731018066406
1.0,198691.40625,4242.478515625,-554.9684448242188,554.9684448242188,4278.623046875,7.452676296234131,1.0,5.865240950697627e-07,0.26811257004737854,8.0,0.049616903066635125,0.01996986754238605,-108.17029571533205,0.004019462503492832,0.17702549695968628,4.667358098231489e-06,-115.62297058105467,9.999999747378752e-06,0.14894132316112518,4242.478515625,554.9684448242188,4278.623046875,7.452676296234131
2.0,157792.96875,4117.28076171875,-322.8572692871094,322.8572692871094,4129.91943359375,4.483683109283447,1.0,5.767590209870832e-07,0.39185115694999695,8.0,0.061370797455310815,0.023842120543122288,-142.68954467773435,0.003869902342557907,0.1510154753923416,5.77302216697717e-06,-147.17323303222656,9.999999747378752e-06,0.14127717912197113,4117.28076171875,322.8572692871094,4129.91943359375,4.483683109283447
3.0,125332.03125,4139.03662109375,-233.48605346679688,233.48605346679688,4145.6171875,3.2286746501922607,1.0,5.835622118866013e-07,0.45687705278396606,8.0,0.07511105388402937,0.02929102256894112,173.14959716796875,0.004168439190834761,0.13225603103637695,7.0655396484653465e-06,169.92092895507812,9.493098218626985e-07,0.12860749661922455,4139.03662109375,233.48605346679688,4145.6171875,3.2286746501922607
4.0,99550.78125,4105.11865234375,-152.11119079589844,152.11119079589844,4107.93603515625,2.1220686435699463,1.0,3.8786990330663684e-07,0.53226637840271,8.0,0.09086616337299347,0.03511294722557068,-74.1951904296875,0.0019374062540009616,0.04674278572201729,8.547589459340088e-06,-76.31725311279295,9.999999747378752e-06,0.04545381292700768,4105.11865234375,152.11119079589844,4107.93603515625,2.1220686435699463
5.0,79160.15625,4111.7587890625,-87.74848937988281,87.74848937988281,4112.69482421875,1.2225559949874876,1.0,3.414033926674165e-07,0.5755114555358887,8.0,0.11458950489759444,0.044331543147563934,163.94107055664062,0.0028546294197440147,0.06183533743023872,1.077919478120748e-05,162.718505859375,9.999999747378752e-06,0.058392707258462906,4111.7587890625,87.74848937988281,4112.69482421875,1.2225559949874876
6.0,62871.09375,4115.64306640625,-28.84849739074707,28.84849739074707,4115.744140625,0.4016067683696746,1.0,3.14576396931443e-07,0.599711000919342,8.0,0.1550486534833908,0.055689271539449685,-105.31925201416016,0.003986450843513012,0.07057252526283264,1.3530789146898314e-05,-105.72085571289062,9.774151976671421e-07,0.07004017382860184,4115.64306640625,28.84849739074707,4115.744140625,0.4016067683696746
7.0,49980.46875,4125.0380859375,24.537694931030277,-24.537694931030277,4125.111328125,-0.3408186137676239,1.0,2.3993572995095747e-07,0.6133803725242615,8.0,0.24706317484378812,0.06573183089494705,-125.49137115478516,0.0041131717152893535,0.06183518096804618,1.5934558177832514e-05,-125.15055847167967,1.0760369377749155e-06,0.0666070207953453,4125.0380859375,-24.537694931030277,4125.111328125,-0.3408186137676239
8.0,39667.96875,4135.39013671875,78.0450973510742,-78.0450973510742,4136.12646484375,-1.0811855792999268,1.0,1.6819178938476398e-07,0.6159802079200745,8.0,0.4176584780216217,0.06992091238498688,45.605716705322266,0.0024583882186561823,0.03369075804948807,1.6904927178984508e-05,46.6869010925293,9.999999747378752e-06,0.035096392035484314,4135.39013671875,-78.0450973510742,4136.12646484375,-1.0811855792999268
9.0,31582.03125,4148.8291015625,130.80599975585935,-130.80599975585935,4150.890625,-1.8058468103408811,1.0,1.1893288132114321e-07,0.6047803163528441,8.0,0.5665423274040222,0.05630569532513618,121.90318298339844,0.0007852072594687343,0.004027063958346844,1.3564726941694971e-05,123.70903015136717,9.999999747378752e-06,0.013152463361620905,4148.8291015625,-130.80599975585935,4150.890625,-1.8058468103408811
10.0,25019.53125,4164.4130859375,183.15249633789065,-183.15249633789065,4168.4384765625,-2.5182676315307617,1.0,1.1366144292423996e-07,0.5991228222846985,8.0,0.6536363363265991,0.04809248819947243,-20.0970458984375,0.0007880865596234798,0.014299944043159485,1.1537290447449776e-05,-17.57877731323242,9.999999747378752e-06,0.015153542160987854,4164.4130859375,-183.15249633789065,4168.4384765625,-2.5182676315307617
11.0,19863.28125,4183.3447265625,245.42202758789065,-245.42202758789065,4190.53759765625,-3.357492208480835,1.0,1.2620111533578893e-07,0.6012733578681946,8.0,0.7314985394477843,0.046897206455469125,22.248390197753903,0.0009596931631676852,0.0009089567465707661,1.1191215889994057e-05,25.60587882995605,9.999999747378752e-06,0.002542561152949929,4183.3447265625,-245.42202758789065,4190.53759765625,-3.357492208480835
12.0,15682.8701171875,4207.9990234375,313.9296569824219,-313.9296569824219,4219.69287109375,-4.266537666320801,1.0,1.0861104726700432e-07,0.5998129844665527,8.0,0.7987627983093261,0.04607710987329483,-10.927590370178223,0.0008598464773967862,0.0010028118267655373,1.0919540727627464e-05,-6.661052703857422,9.999999747378752e-06,0.002370349131524563,4207.9990234375,-313.9296569824219,4219.69287109375,-4.266537666320801
13.0,12597.65625,4232.376953125,378.5107116699218,-378.5107116699218,4249.2685546875,-5.110490798950195,1.0,1.1043685077538613e-07,0.5960766673088074,8.0,0.8498644828796386,0.045211203396320336,-84.72451782226561,0.0007448489777743816,0.0012030606158077717,1.0639760148478672e-05,-79.61402130126953,9.999999747378752e-06,0.002704508136957884,4232.376953125,-378.5107116699218,4249.2685546875,-5.110490798950195
14.0,9895.8330078125,4264.830078125,475.55126953125,-475.55126953125,4291.26171875,-6.362502098083496,1.0,8.944607543526217e-08,0.5916047692298889,8.0,0.8917322158813475,0.04502665624022484,-45.84822463989258,0.0006659268401563168,0.013743137009441853,1.0492640285519885e-05,-39.48572540283203,9.999999747378752e-06,0.0022503493819385767,4264.830078125,-475.55126953125,4291.26171875,-6.362502098083496
15.0,7910.15625,4300.31982421875,575.6214599609375,-575.6214599609375,4338.673828125,-7.624036312103271,1.0,1.0799823968454803e-07,0.5902664065361023,8.0,0.9204708933830259,0.04478500410914421,-23.372129440307617,0.0009068107465282081,0.0018615252338349817,1.0322279194951989e-05,-15.74809455871582,9.999999747378752e-06,0.002712808083742857,4300.31982421875,-575.6214599609375,4338.673828125,-7.624036312103271
16.0,6307.87060546875,4344.40869140625,684.3513793945312,-684.3513793945312,4397.9794921875,-8.951936721801756,1.0,1.3414367572295305e-07,0.5897903442382812,8.0,0.9402922987937928,0.04492685943841934,27.84516906738281,0.0007089332793839276,0.0010121369268745184,1.0215339898422826e-05,36.79710388183594,9.999999747378752e-06,0.0038737428840249777,4344.40869140625,-684.3513793945312,4397.9794921875,-8.951936721801756
17.0,4973.3232421875,4402.7060546875,833.6500244140626,-833.6500244140626,4480.9365234375,-10.721988677978516,1.0,1.379405034640513e-07,0.5911325812339783,8.0,0.926623284816742,0.0441579706966877,-69.05380249023438,0.0006453814567066729,0.000574673293158412,9.854629752226172e-06,-58.331817626953125,9.999999747378752e-06,0.0005260792095214128,4402.7060546875,-833.6500244140626,4480.9365234375,-10.721988677978516
18.0,3944.3598632812495,4466.66357421875,994.9242553710936,-994.9242553710936,4576.12890625,-12.5573148727417,1.0,1.2879812061328266e-07,0.5890043377876282,8.0,0.9520010352134703,0.047014571726322174,42.723907470703125,0.0005702656926587224,0.0005584298050962389,1.0273874067934228e-05,55.28121948242188,9.999999747378752e-06,0.0007174143684096633,4466.66357421875,-994.9242553710936,4576.12890625,-12.5573148727417
19.0,3144.054931640625,4539.70458984375,1182.4541015625,-1182.4541015625,4691.17431640625,-14.599405288696287,1.0,1.3312154578670743e-07,0.5902074575424193,8.0,0.9672976732254028,0.04766550660133362,86.90980529785155,0.0005944209988228977,0.013430790044367312,1.0160678357351571e-05,101.5092086791992,9.999999747378752e-06,0.0009996638400480151,4539.70458984375,-1182.4541015625,4691.17431640625,-14.599405288696287
20.0,2488.426025390625,4628.78369140625,1411.220703125,-1411.220703125,4839.13037109375,-16.95538330078125,1.0,1.344681948012294e-07,0.5923545956611633,8.0,0.9759036302566528,0.048821840435266495,149.36875915527344,0.0006313761696219444,0.013678958639502524,1.0088969247590285e-05,166.3241424560547,9.999999747378752e-06,0.0012495167320594192,4628.78369140625,-1411.220703125,4839.13037109375,-16.95538330078125
21.0,1976.6566162109373,4738.79052734375,1679.211669921875,-1679.211669921875,5027.51318359375,-19.51201057434082,1.0,1.515724221690107e-07,0.5981898307800293,8.0,0.9814529418945312,0.050561010837554925,-135.50123596191406,0.00043673202162608493,0.0010901882778853178,1.0056863175122999e-05,-115.98921966552734,9.999999747378752e-06,0.001100123394280672,4738.79052734375,-1679.211669921875,5027.51318359375,-19.51201057434082
22.0,1582.03125,4864.33251953125,1979.9855957031248,-1979.9855957031248,5251.86376953125,-22.148366928100582,1.0,1.7335889879177557e-07,0.6048314571380615,8.0,0.9847240447998048,0.0526936799287796,109.44448852539062,0.0008979596896097064,0.001433077733963728,1.0033329090219922e-05,131.59286499023435,9.999999747378752e-06,0.0012390125775709748,4864.33251953125,-1979.9855957031248,5251.86376953125,-22.148366928100582
23.0,1253.6336669921875,5023.5654296875,2351.1376953125,-2351.1376953125,5546.53564453125,-25.080615997314453,1.0,1.8594762707380141e-07,0.6104540824890137,8.0,0.9864894747734068,0.055564798414707184,134.2529144287109,9.999999747378752e-06,0.0018085815245285632,1.00179286164348e-05,159.3335418701172,9.999999747378752e-06,0.0012786522274836896,5023.5654296875,-2351.1376953125,5546.53564453125,-25.080615997314453
24.0,996.09375,5210.43994140625,2776.24658203125,-2776.24658203125,5903.91650390625,-28.049755096435543,1.0,2.0036544867707562e-07,0.6171982288360596,8.0,0.988199472427368,0.059141501784324646,-25.977048873901367,0.0009268344729207456,0.001972622936591506,1.001733380689984e-05,2.0727059841156006,9.999999747378752e-06,0.0010671988129615784,5210.43994140625,-2776.24658203125,5903.91650390625,-28.049755096435543
25.0,790.028076171875,5435.0625,3261.10009765625,-3261.10009765625,6338.35009765625,-30.964242935180664,1.0,1.9469862877485866e-07,0.6319000720977783,8.0,0.990014374256134,0.06349990516901016,-146.7209014892578,0.0004606436123140156,0.0036866927985101934,1.0018366083386354e-05,-115.75666809082033,9.999999747378752e-06,0.00157897244207561,5435.0625,-3261.10009765625,6338.35009765625,-30.964242935180664
26.0,628.8109741210938,5700.37109375,3813.176025390625,-3813.176025390625,6858.17333984375,-33.779937744140625,1.0,2.0039155401718745e-07,0.64308100938797,8.0,0.9937676787376403,0.06884173303842545,65.18917846679688,0.000860400905366987,0.005398844368755817,1.0037911124527454e-05,98.9691162109375,9.999999747378752e-06,0.0014612715458497405,5700.37109375,-3813.176025390625,6858.17333984375,-33.779937744140625
27.0,496.3235168457031,5708.6689453125,4639.2548828125,-4639.2548828125,7356.05810546875,-39.09967041015625,1.0,2.0906712450141643e-07,0.6552429795265198,8.0,0.9656149744987488,0.07147666811943054,93.10909271240233,0.0007390649407170714,0.005030261352658272,9.716707609186415e-06,132.20875549316406,9.999999747378752e-06,0.0004114359326194972,5708.6689453125,-4639.2548828125,7356.05810546875,-39.09967041015625
28.0,395.3313293457031,6130.3388671875,5404.95703125,-5404.95703125,8172.79736328125,-41.40176773071289,1.0,1.920345766848186e-07,0.6579064130783081,8.0,0.9864761233329774,0.08349362015724182,56.229759216308594,0.001292424276471138,0.008905917406082153,1.0216040209343191e-05,97.63152313232419,9.999999747378752e-06,0.0006824324955232441,6130.3388671875,-5404.95703125,8172.79736328125,-41.40176773071289
29.0,315.5048217773437,6600.05712890625,6311.5830078125,-6311.5830078125,9132.1865234375,-43.72010040283203,1.0,1.9618190094661259e-07,0.6574992537498474,8.0,0.9927790164947508,0.09190534800291059,-179.2118988037109,0.0013441487681120634,0.013651498593389988,1.0063892659673e-05,-135.49180603027344,9.999999747378752e-06,0.0008255830034613609,6600.05712890625,-6311.5830078125,9132.1865234375,-43.72010040283203
30.0,249.33511352539065,7160.7802734375,7268.491210937501,-7268.491210937501,10203.3203125,-45.42769241333008,1.0,2.104040959238773e-07,0.6702145338058472,8.0,0.9959692955017088,0.10236109048128128,45.32487487792969,0.002090676454827189,0.019785964861512184,1.0032134923676495e-05,90.75257110595705,9.999999747378752e-06,0.0010191190522164106,7160.7802734375,-7268.491210937501,10203.3203125,-45.42769241333008
31.0,198.6228790283203,7712.340820312499,8150.805664062499,-8150.805664062499,11221.22265625,-46.583282470703125,1.0,2.0105301246076126e-07,0.695646107196808,8.0,0.9970577955245972,0.11233486980199812,29.8922061920166,0.0031628792639821768,0.027906816452741623,1.0010929145209955e-05,76.4754867553711,9.999999747378752e-06,0.0014156072866171598,7712.340820312499,-8150.805664062499,11221.22265625,-46.583282470703125
32.0,158.005615234375,8461.11328125,9698.3232421875,-9698.3232421875,12870.427734375,-48.897563934326165,1.0,1.89523888138865e-07,0.6810566186904907,8.0,0.9923816919326782,0.1281006634235382,86.18807220458984,0.004501293879002333,0.03462894633412361,9.953100743587129e-06,135.08563232421875,9.999999747378752e-06,0.001757353194989264,8461.11328125,-9698.3232421875,12870.427734375,-48.897563934326165
33.0,125.5580368041992,9181.974609375,11032.79296875,-11032.79296875,14353.7861328125,-50.2312889099121,1.0,1.85236700644964e-07,0.695537269115448,8.0,0.9827636480331421,0.14214669167995453,-150.1747283935547,0.006521032191812992,0.045267805457115166,9.903081263473725e-06,-99.94344329833984,9.999999747378752e-06,0.0017931543989107013,9181.974609375,-11032.79296875,14353.7861328125,-50.2312889099121
34.0,99.73403930664062,9807.2275390625,11711.533203125,-11711.533203125,15275.52734375,-50.05722427368164,1.0,1.8905384990830498e-07,0.7509933710098265,8.0,0.9902482628822327,0.15391862392425537,-147.00970458984375,0.009697120636701584,0.061492480337619775,1.0076159014715811e-05,-96.95248413085936,9.999999747378752e-06,0.0017176889814436436,9807.2275390625,-11711.533203125,15275.52734375,-50.05722427368164
35.0,78.78150939941406,10707.6650390625,13554.423828125,-13554.423828125,17273.578125,-51.69212341308594,1.0,1.7887532521854155e-07,0.7582845687866211,8.0,0.9903924465179443,0.17276091873645782,-146.5787353515625,0.013083797879517078,0.07386938482522963,1.000145584839629e-05,-94.88660430908205,9.999999747378752e-06,0.002197659807279706,10707.6650390625,-13554.423828125,17273.578125,-51.69212341308594
36.0,62.919464111328125,11664.7626953125,15491.6591796875,-15491.6591796875,19392.21875,-53.021331787109375,1.0,1.6700057869911689e-07,0.765950322151184,8.0,0.9915038347244263,0.19413980841636655,-146.35153198242188,0.01732218451797962,0.08709179610013962,1.0011222002503928e-05,-93.3302001953125,9.999999747378752e-06,0.0016275889938697219,11664.7626953125,-15491.6591796875,19392.21875,-53.021331787109375
37.0,49.86701965332031,12907.87109375,17980.1171875,-17980.1171875,22133.6328125,-54.325550079345696,1.0,1.5519214002779338e-07,0.7686694860458374,8.0,0.9926822781562803,0.22159941494464877,-147.83120727539062,0.022753534838557243,0.10142496973276138,1.001188502414152e-05,-93.50565338134764,9.999999747378752e-06,0.001986572751775384,12907.87109375,-17980.1171875,22133.6328125,-54.325550079345696
38.0,39.72457504272461,14287.333984375,20646.962890625,-20646.962890625,25108.265625,-55.31745147705078,1.0,1.3761690809133142e-07,0.7717101573944091,8.0,0.9931277632713316,0.25119534134864807,-147.8470458984375,0.02944502979516983,0.11579067260026932,1.0004488103732e-05,-92.52958679199217,9.999999747378752e-06,0.0021540909074246883,14287.333984375,-20646.962890625,25108.265625,-55.31745147705078
39.0,31.459732055664062,15944.0390625,23800.98046875,-23800.98046875,28647.845703125,-56.18226623535156,1.0,1.3276277854856744e-07,0.7708966135978698,8.0,0.9937415719032288,0.2866554856300354,-147.9198455810547,0.0378858670592308,0.1306059956550598,1.0006180673372e-05,-91.73758697509763,9.999999747378752e-06,0.002003871835768223,15944.0390625,-23800.98046875,28647.845703125,-56.18226623535156
40.0,24.93350982666016,17827.51953125,27023.736328125,-27023.736328125,32374.416015625,-56.58722305297852,1.0,1.3299086276674646e-07,0.7762499451637267,8.0,0.994719922542572,0.32406288385391235,-147.70166015625,0.04840285331010818,0.14758124947547913,1.0009845027525444e-05,-91.11444091796876,9.999999747378752e-06,0.0016734625678509472,17827.51953125,-27023.736328125,32374.416015625,-56.58722305297852
41.0,19.862287521362305,20079.9296875,30812.755859375,-30812.755859375,36778.11328125,-56.90868377685546,1.0,1.2274853133931174e-07,0.7708228826522827,8.0,0.9949467182159424,0.36786496639251703,-147.53431701660156,0.06032378599047661,0.16201938688755035,1.0002279850596096e-05,-90.62562561035155,9.999999747378752e-06,0.002063975436612964,20079.9296875,-30812.755859375,36778.11328125,-56.90868377685546
42.0,15.782828330993652,22968.55078125,35332.81640625,-35332.81640625,42142.16796875,-56.97360229492188,1.0,1.2584854403030477e-07,0.7540551424026489,8.0,0.9955033063888548,0.4216574132442474,-147.203125,0.07525812834501265,0.176357701420784,1.0005594049289355e-05,-90.22953033447264,9.999999747378752e-06,0.002170144347473979,22968.55078125,-35332.81640625,42142.16796875,-56.97360229492188
43.0,12.466754913330078,26328.3984375,40256.2578125,-40256.2578125,48101.46484375,-56.81451034545898,1.0,1.6753494946897263e-07,0.7377306818962097,8.0,0.9959774017333984,0.481243759393692,-146.7305908203125,0.09186933934688568,0.18862782418727875,1.0004762771131936e-05,-89.91608428955078,9.999999747378752e-06,0.0021561817266047,26328.3984375,-40256.2578125,48101.46484375,-56.81451034545898
44.0,9.973403930664062,30043.41015625,45278.53125,-45278.53125,54339.23046875,-56.434757232666016,1.0,1.939927187777357e-07,0.7183551788330078,8.0,0.9962623715400698,0.5435477495193481,-146.1045684814453,0.10810878872871398,0.19653959572315216,1.0002861017710528e-05,-89.66981506347656,9.999999747378752e-06,0.0018913805251941085,30043.41015625,-45278.53125,54339.23046875,-56.434757232666016
45.0,7.878151416778564,34469.24609375,50674.859375,-50674.859375,61286.7890625,-55.77630233764648,1.0,2.1158970753276665e-07,0.6954076886177063,8.0,0.9968743324279784,0.6132442951202393,-145.2459716796875,0.12404018640518188,0.19987377524375916,1.0006142474594524e-05,-89.46965789794922,9.999999747378752e-06,0.0016394476406276226,34469.24609375,-50674.859375,61286.7890625,-55.77630233764648
46.0,6.275100231170654,39226.515625,56036.796875,-56036.796875,68402.0625,-55.00746154785156,1.0,1.8544307067713817e-07,0.6642290949821472,8.0,0.9974233508110046,0.6843973398208617,-144.3196563720703,0.13600999116897583,0.19637660682201383,1.0005507647292688e-05,-89.31220245361328,9.999999747378752e-06,0.0015575254801660776,39226.515625,-56036.796875,68402.0625,-55.00746154785156
47.0,5.013369083404541,44192.94140625,61305.18359375,-61305.18359375,75573.421875,-54.21337890625,1.0,1.5391215413274042e-07,0.6263350248336792,8.0,0.9976475834846495,0.7559040784835814,-143.3906097412109,0.14440929889678955,0.1887800097465515,1.0002248018281534e-05,-89.1772232055664,9.999999747378752e-06,0.001317380229011178,44192.94140625,-61305.18359375,75573.421875,-54.21337890625
