# point,freq,zreal,reflected_zimag,zimag,zmod,zphz,zsig,Idc,Vdc,ie_range,gain,vmod,vphz,vsig,vthd,imod,iphz,isig,ithd,zreal_drift,zimag_drift,zmod_drift,zphz_drift
0.0,250019.53125,4248.7685546875,124.96946716308592,-124.96946716308592,4250.60595703125,-1.6847609281539917,1.0,4.995981157662754e-07,0.13681989908218384,8.0,0.04081420600414276,0.016716264188289642,-6.534129619598389,0.0031384238973259926,0.1726233810186386,3.839306828012923e-06,-14.426679611206055,9.999999747378752e-06,0.15861955285072327,4248.7685546875,-124.96946716308592,4250.60595703125,-1.6847609281539917
1.0,198691.40625,4328.60595703125,242.2554626464844,-242.2554626464844,4335.3798828125,-3.2032833099365234,1.0,5.087960062155616e-07,0.3127356171607971,8.0,0.04835138469934464,0.02003045193850994,56.33120727539063,0.0036336786579340696,0.1727840155363083,4.548313427221728e-06,51.861324310302734,9.999999747378752e-06,0.16331231594085693,4328.60595703125,-242.2554626464844,4335.3798828125,-3.2032833099365234
2.0,157792.96875,4238.18115234375,140.0861358642578,-140.0861358642578,4240.49560546875,-1.8931288719177248,1.0,4.790481966665538e-07,0.3661266267299652,8.0,0.059674791991710656,0.024050530046224598,-163.37074279785156,0.004038074053823948,0.15207476913928983,5.613482699118322e-06,-167.60714721679688,9.999999747378752e-06,0.13913166522979736,4238.18115234375,-140.0861358642578,4240.49560546875,-1.8931288719177248
3.0,125332.03125,4250.990234375,89.0264892578125,-89.0264892578125,4251.92236328125,-1.1997432708740234,1.0,5.378705054681633e-07,0.47226208448410034,8.0,0.07314909994602203,0.029458388686180115,105.37905883789062,0.004079961683601141,0.13354898989200592,6.8809822550974795e-06,101.68758392333984,9.006408276945876e-07,0.12459857761859892,4250.990234375,-89.0264892578125,4251.92236328125,-1.1997432708740234
4.0,99550.78125,4251.8330078125,108.75096130371092,-108.75096130371092,4253.2236328125,-1.4651594161987305,1.0,3.4250169278493564e-07,0.495986133813858,8.0,0.08846072107553482,0.03540905565023422,-123.27375793457033,0.0019658703822642565,0.0463041253387928,8.321314453496596e-06,-125.46170806884764,9.999999747378752e-06,0.045355174690485,4251.8330078125,-108.75096130371092,4253.2236328125,-1.4651594161987305
5.0,79160.15625,4250.79052734375,116.02299499511717,-116.02299499511717,4252.37353515625,-1.5634686946868896,1.0,3.0726772592970525e-07,0.576801598072052,8.0,0.111549973487854,0.04464059695601463,-47.19333267211913,0.002785814693197608,0.0603787899017334,1.0493272384337615e-05,-48.51502227783203,9.999999747378752e-06,0.05885767564177513,4250.79052734375,-116.02299499511717,4252.37353515625,-1.5634686946868896
6.0,62871.09375,4253.39453125,129.4623870849609,-129.4623870849609,4255.3642578125,-1.7433979511260986,1.0,2.833727990037005e-07,0.6175941824913025,8.0,0.1469728797674179,0.056089885532855994,-130.5839385986328,0.00409746216610074,0.0699286162853241,1.3175518688512966e-05,-131.12664794921875,9.498425015408429e-07,0.07015766203403473,4253.39453125,-129.4623870849609,4255.3642578125,-1.7433979511260986
7.0,49980.46875,4260.130859375,148.43190002441406,-148.43190002441406,4262.7158203125,-1.9954980611801147,1.0,1.948988881395053e-07,0.6278887987136841,8.0,0.23106010258197784,0.06703989952802658,17.758943557739254,0.004364917520433664,0.0645715594291687,1.5721274394309148e-05,17.936559677124023,1.099816017813282e-06,0.06904423981904984,4260.130859375,-148.43190002441406,4262.7158203125,-1.9954980611801147
8.0,39667.96875,4270.35302734375,174.15463256835935,-174.15463256835935,4273.90283203125,-2.335356950759888,1.0,1.5172776102190258e-07,0.5979312062263489,8.0,0.3931938409805298,0.07275035977363585,-79.00797271728516,0.002925636013969779,0.03954780474305153,1.7016951460391283e-05,-78.11763000488281,9.999999747378752e-06,0.040866445749998086,4270.35302734375,-174.15463256835935,4273.90283203125,-2.335356950759888
9.0,31582.03125,4283.26708984375,210.76416015625,-210.76416015625,4288.44921875,-2.817047119140625,1.0,1.1748001327305246e-07,0.5958929657936096,8.0,0.5562682151794434,0.06068411841988564,134.92245483398435,0.0007075867615640163,0.003885034238919616,1.4147429283184463e-05,136.5868988037109,9.999999747378752e-06,0.01208437606692314,4283.26708984375,-210.76416015625,4288.44921875,-2.817047119140625
10.0,25019.53125,4299.404296875,244.5856170654297,-244.5856170654297,4306.35595703125,-3.2559478282928462,1.0,1.0871537625689597e-07,0.6015377044677734,8.0,0.644817292690277,0.04992653802037239,30.076128005981445,0.0007666171295568347,0.015810897573828697,1.1591841939662116e-05,32.417388916015625,9.999999747378752e-06,0.014997278340160847,4299.404296875,-244.5856170654297,4306.35595703125,-3.2559478282928462
11.0,19863.28125,4313.095703125,285.7109069824219,-285.7109069824219,4322.54833984375,-3.7898876667022714,1.0,1.0159784125107763e-07,0.5938881635665894,8.0,0.7247847318649293,0.04859140142798424,174.0939788818359,0.000995543086901307,0.001269560307264328,1.1240155799896456e-05,177.1566925048828,9.999999747378752e-06,0.001795358024537563,4313.095703125,-285.7109069824219,4322.54833984375,-3.7898876667022714
12.0,15682.8701171875,4336.361328125,331.4415283203125,-331.4415283203125,4349.009765625,-4.370795726776123,1.0,1.1632201335487481e-07,0.5988050103187561,8.0,0.7937613129615783,0.04763239249587059,146.4193115234375,0.000805146002676338,0.001072100130841136,1.0951684089377522e-05,150.2153778076172,9.999999747378752e-06,0.002616422716528177,4336.361328125,-331.4415283203125,4349.009765625,-4.370795726776123
13.0,12597.65625,4362.9912109375,398.04925537109375,-398.04925537109375,4381.111328125,-5.212841033935546,1.0,1.1590788773219173e-07,0.5986175537109375,8.0,0.8451369404792786,0.04664897918701172,159.19100952148435,0.0006353287608362734,0.0010149487061426044,1.0647242561390156e-05,163.94189453125,9.999999747378752e-06,0.0017465718556195495,4362.9912109375,-398.04925537109375,4381.111328125,-5.212841033935546
14.0,9895.8330078125,4395.07861328125,479.6461486816406,-479.6461486816406,4421.173828125,-6.228187084197998,1.0,1.1387671605689321e-07,0.5974410772323608,8.0,0.888948917388916,0.046505078673362725,-160.9749755859375,0.0007763518369756638,0.014249919913709164,1.05184008134529e-05,-155.1098480224609,9.999999747378752e-06,0.003098896238952875,4395.07861328125,-479.6461486816406,4421.173828125,-6.228187084197998
15.0,7910.15625,4419.29443359375,559.8096313476562,-559.8096313476562,4454.60986328125,-7.219433307647706,1.0,1.2904433788207825e-07,0.5935546159744263,8.0,0.919377028942108,0.046071790158748634,-120.29205322265624,0.0008315130253322423,0.0013435562141239643,1.0342293535359204e-05,-113.3629150390625,9.999999747378752e-06,0.0030678429175168276,4419.29443359375,-559.8096313476562,4454.60986328125,-7.219433307647706
16.0,6307.87060546875,4466.36181640625,671.8792114257812,-671.8792114257812,4516.61474609375,-8.554914474487305,1.0,1.285518465010682e-07,0.5995113253593445,8.0,0.9391578435897827,0.04613849148154259,-40.55584716796875,0.0005775357712991536,0.0011586503824219108,1.0215154361503664e-05,-32.23247146606445,9.999999747378752e-06,0.0032488061115145683,4466.36181640625,-671.8792114257812,4516.61474609375,-8.554914474487305
17.0,4973.3232421875,4516.6650390625,799.8062133789062,-799.8062133789062,4586.93310546875,-10.04177951812744,1.0,1.4638511913744878e-07,0.6087427139282227,8.0,0.9277535080909728,0.045372828841209405,-122.79629516601562,0.00046935994760133326,0.00044713215902447695,9.878568562271539e-06,-112.85448455810545,9.999999747378752e-06,0.0006919542793184519,4516.6650390625,-799.8062133789062,4586.93310546875,-10.04177951812744
18.0,3944.3598632812495,4576.55419921875,951.2688598632812,-951.2688598632812,4674.37255859375,-11.742130279541016,1.0,1.681977721545991e-07,0.6151906847953796,8.0,0.9543935060501098,0.048133563250303275,-2.387955904006958,0.00024267136177513748,0.0006079095182940364,1.02871454146225e-05,9.253939628601074,9.999999747378752e-06,0.0008928634342737495,4576.55419921875,-951.2688598632812,4674.37255859375,-11.742130279541016
19.0,3144.054931640625,4647.63623046875,1125.783447265625,-1125.783447265625,4782.04052734375,-13.616326332092283,1.0,1.768150355019316e-07,0.6218324303627014,8.0,0.9671739935874939,0.04849403351545334,51.307178497314446,0.0006818476831540464,0.008520498871803284,1.0133911928278394e-05,64.83240509033203,9.999999747378752e-06,0.0009072194807231425,4647.63623046875,-1125.783447265625,4782.04052734375,-13.616326332092283
20.0,2488.426025390625,4736.6572265625,1337.406982421875,-1337.406982421875,4921.84716796875,-15.76715850830078,1.0,1.837696288475854e-07,0.631801187992096,8.0,0.9766833186149597,0.04972486943006516,118.93122863769533,0.0004287431947886944,0.010431814938783644,1.0098320672113914e-05,134.6203155517578,9.999999747378752e-06,0.0012310490710660815,4736.6572265625,-1337.406982421875,4921.84716796875,-15.76715850830078
21.0,1976.6566162109373,4839.49267578125,1576.67626953125,-1576.67626953125,5089.8525390625,-18.0452823638916,1.0,1.9154572328261565e-07,0.6449563503265381,8.0,0.9818477034568786,0.051182694733142846,-158.062744140625,0.00024267136177513748,0.001367297605611384,1.0052876859845128e-05,-140.0824737548828,9.999999747378752e-06,0.0008164363098330795,4839.49267578125,-1576.67626953125,5089.8525390625,-18.0452823638916
22.0,1582.03125,4961.16455078125,1848.4144287109373,-1848.4144287109373,5294.31689453125,-20.434221267700195,1.0,1.9040470533582265e-07,0.6530306339263916,8.0,0.9865558743476868,0.05320722982287407,87.04803466796875,0.0006960363243706524,0.0016355415573343635,1.0047951946035028e-05,107.42874145507812,9.999999747378752e-06,0.0012779756216332316,4961.16455078125,-1848.4144287109373,5294.31689453125,-20.434221267700195
23.0,1253.6336669921875,5110.39404296875,2167.844482421875,-2167.844482421875,5551.18701171875,-22.986803054809567,1.0,1.860322953461946e-07,0.6673663854598999,8.0,0.9882411956787107,0.055613454431295395,124.32286071777344,0.0003653962339740247,0.00194766279309988,1.0017082786362153e-05,147.2664794921875,9.999999747378752e-06,0.0011576722608879209,5110.39404296875,-2167.844482421875,5551.18701171875,-22.986803054809567
24.0,996.09375,5280.1396484375,2556.490478515625,-2556.490478515625,5866.47412109375,-25.83491897583008,1.0,1.7824638121055614e-07,0.6707624793052673,8.0,0.9908215403556824,0.05882245674729347,-35.55009841918945,0.0007735829567536711,0.003486438654363156,1.002611043077195e-05,-9.749876976013184,9.999999747378752e-06,0.001603854587301612,5280.1396484375,-2556.490478515625,5866.47412109375,-25.83491897583008
25.0,790.028076171875,5494.22265625,2990.485595703125,-2990.485595703125,6255.35693359375,-28.55929374694824,1.0,1.699517611086776e-07,0.6806132197380066,8.0,0.9927715659141539,0.06267973780632019,-154.7705841064453,0.000519509194418788,0.004304393194615841,1.0019681212725116e-05,-126.23899841308592,9.999999747378752e-06,0.0016211981419473886,5494.22265625,-2990.485595703125,6255.35693359375,-28.55929374694824
26.0,628.8109741210938,5738.052734375,3516.959716796875,-3516.959716796875,6730.1005859375,-31.504909515380856,1.0,1.5529911934208942e-07,0.6838635206222534,8.0,0.9939327836036682,0.06738181412220001,60.42818832397461,0.0009601899073459208,0.0062811365351080894,1.0011696758738252e-05,91.91094207763673,9.999999747378752e-06,0.0011023462284356356,5738.052734375,-3516.959716796875,6730.1005859375,-31.504909515380856
27.0,496.3235168457031,6042.67919921875,4140.14599609375,-4140.14599609375,7324.942382812499,-34.41701889038086,1.0,1.6379898681861962e-07,0.6887651085853577,8.0,0.9671910405158995,0.06986664980649948,90.00863647460938,0.0006637751939706504,0.005614285357296467,9.730950296216177e-06,126.95376586914062,9.999999747378752e-06,0.00047509194700978696,6042.67919921875,-4140.14599609375,7324.942382812499,-34.41701889038086
28.0,395.3313293457031,6371.85791015625,4810.396484375,-4810.396484375,7983.76416015625,-37.05076599121094,1.0,1.6325756746482514e-07,0.6959957480430603,8.0,0.9872105717658995,0.0805266797542572,54.793270111083984,0.0010182742262259124,0.01022922433912754,1.020698618958704e-05,93.93094635009763,9.999999747378752e-06,0.000684315396938473,6371.85791015625,-4810.396484375,7983.76416015625,-37.05076599121094
29.0,315.5048217773437,6744.14208984375,5609.7724609375,-5609.7724609375,8772.2861328125,-39.75365829467773,1.0,1.560195812544407e-07,0.6998106241226196,8.0,0.9950881600379946,0.08779440820217133,179.65594482421875,0.0015332342591136692,0.015705961734056473,1.0079796084028205e-05,-138.9072265625,9.999999747378752e-06,0.0008573313243687152,6744.14208984375,-5609.7724609375,8772.2861328125,-39.75365829467773
30.0,249.33511352539065,7182.10986328125,6481.64794921875,-6481.64794921875,9674.4228515625,-42.06534576416016,1.0,1.3744146087901754e-07,0.7113505005836487,8.0,0.9976635575294495,0.09658397734165192,44.577030181884766,0.002181475283578038,0.02206316217780113,1.0025881238107104e-05,87.97455596923827,9.999999747378752e-06,0.0011863502440974116,7182.10986328125,-6481.64794921875,9674.4228515625,-42.06534576416016
31.0,198.6228790283203,7752.5625,7769.35302734375,-7769.35302734375,10975.658203125,-45.06197738647461,1.0,1.2900326851195132e-07,0.6973619461059569,8.0,0.9973386526107789,0.1094355136156082,28.824501037597656,0.0032313743140548468,0.028925785794854164,9.996743756346403e-06,74.94639587402342,9.999999747378752e-06,0.0012358335079625249,7752.5625,-7769.35302734375,10975.658203125,-45.06197738647461
32.0,158.005615234375,8404.1748046875,9234.8974609375,-9234.8974609375,12486.53125,-47.69638442993164,1.0,1.2150788109011046e-07,0.6893283724784851,8.0,0.9930543899536132,0.12412885576486588,84.6600570678711,0.004568444564938545,0.03636071085929871,9.957042493624611e-06,133.1982269287109,9.999999747378752e-06,0.00143724016379565,8404.1748046875,-9234.8974609375,12486.53125,-47.69638442993164
33.0,125.5580368041992,9015.09375,10513.8701171875,-10513.8701171875,13849.6708984375,-49.38863754272461,1.0,1.2227712886669906e-07,0.7057895660400392,8.0,0.9835892915725709,0.13703931868076324,-151.22544860839844,0.006548832636326552,0.04710966348648071,9.904687431117054e-06,-101.16883087158205,9.999999747378752e-06,0.0016548300627619028,9015.09375,-10513.8701171875,13849.6708984375,-49.38863754272461
34.0,99.73403930664062,9571.5390625,11274.5537109375,-11274.5537109375,14789.5205078125,-49.67039108276367,1.0,1.0661813121259911e-07,0.7550097703933715,8.0,0.9903846979141235,0.1488238126039505,-147.09002685546875,0.00940228532999754,0.06160655990242958,1.0069087693409529e-05,-96.88958740234376,9.999999747378752e-06,0.001668616314418614,9571.5390625,-11274.5537109375,14789.5205078125,-49.67039108276367
35.0,78.78150939941406,10459.759765625,13265.17578125,-13265.17578125,16892.94140625,-51.743770599365234,1.0,1.1273294830971281e-07,0.7554538249969481,8.0,0.9910240173339844,0.16897286474704742,-147.04638671875,0.012890653684735298,0.07446422427892686,1.0006455340771936e-05,-94.88422393798828,9.999999747378752e-06,0.0017609286587685347,10459.759765625,-13265.17578125,16892.94140625,-51.743770599365234
36.0,62.919464111328125,11407.0205078125,15451.1533203125,-15451.1533203125,19205.68359375,-53.56290817260742,1.0,1.1431150426233216e-07,0.7562424540519713,8.0,0.9917120933532714,0.19214279949665067,-147.23402404785156,0.017281819134950634,0.08774756640195847,1.0006942829932086e-05,-93.3373031616211,9.999999747378752e-06,0.0015261863591149447,11407.0205078125,-15451.1533203125,19205.68359375,-53.56290817260742
37.0,49.86701965332031,12609.16015625,17931.115234375,-17931.115234375,21920.669921875,-54.885112762451165,1.0,1.290681268528715e-07,0.7586160898208617,8.0,0.9922520518302915,0.2192921936511993,-148.66221618652344,0.02275719866156578,0.10247109830379486,1.0005444892158266e-05,-93.51261901855469,9.999999747378752e-06,0.0017949887551367283,12609.16015625,-17931.115234375,21920.669921875,-54.885112762451165
38.0,39.72457504272461,13961.93359375,20772.3125,-20772.3125,25028.474609375,-56.09331512451172,1.0,1.3699634848762798e-07,0.7582032084465027,8.0,0.9934199452400208,0.25055482983589167,-148.82997131347656,0.029845317825675007,0.11768682301044464,1.0011770427809095e-05,-92.52600860595705,9.999999747378752e-06,0.0017461529932916164,13961.93359375,-20772.3125,25028.474609375,-56.09331512451172
39.0,31.459732055664062,15565.2666015625,23992.71875,-23992.71875,28599.44140625,-57.02652740478516,1.0,9.766303321612212e-08,0.7586091756820679,8.0,0.993867814540863,0.2861057817935944,-148.9334716796875,0.03870310261845589,0.13365383446216583,1.000450811261544e-05,-91.74013519287107,9.999999747378752e-06,0.002023695735260844,15565.2666015625,-23992.71875,28599.44140625,-57.02652740478516
40.0,24.93350982666016,17529.8125,27605.60546875,-27605.60546875,32701.12890625,-57.584083557128906,1.0,1.1687852463637682e-07,0.756554126739502,8.0,0.994314968585968,0.3271458148956299,-148.8316192626953,0.050059348344802856,0.15117183327674863,1.0004499017668422e-05,-91.11534881591795,9.999999747378752e-06,0.0021727923303842545,17529.8125,-27605.60546875,32701.12890625,-57.584083557128906
41.0,19.862287521362305,19839.4375,31834.4765625,-31834.4765625,37510.49609375,-58.06858825683594,1.0,1.352935043996695e-07,0.7452601790428162,8.0,0.9946124553680421,0.3752080500125885,-148.7873382568359,0.06317783892154694,0.16635830700397491,1.0002991984947585e-05,-90.61344909667967,9.999999747378752e-06,0.0021116391289979215,19839.4375,-31834.4765625,37510.49609375,-58.06858825683594
42.0,15.782828330993652,22298.96484375,36094.29296875,-36094.29296875,42426.8984375,-58.29233169555664,1.0,1.3689843569864024e-07,0.7439753413200377,8.0,0.9953986406326293,0.4245977997779846,-148.60247802734375,0.07824061065912247,0.18207937479019165,1.000790416583186e-05,-90.22647857666016,9.999999747378752e-06,0.002055100398138165,22298.96484375,-36094.29296875,42426.8984375,-58.29233169555664
43.0,12.466754913330078,25534.0859375,41178.6796875,-41178.6796875,48452.796875,-58.197769165039055,1.0,9.648829291108996e-08,0.7340859770774841,8.0,0.9959838986396787,0.4848081767559052,-148.1791534423828,0.09613272547721863,0.19593021273612976,1.0005879630625712e-05,-89.9153060913086,9.999999747378752e-06,0.0020658627618104215,25534.0859375,-41178.6796875,48452.796875,-58.197769165039055
44.0,9.973403930664062,29743.0078125,47074.125,-47074.125,55683.2109375,-57.71393203735352,1.0,1.25468957890007e-07,0.7018396258354187,8.0,0.9963684678077696,0.5570436716079712,-147.43405151367188,0.11317165940999983,0.20075182616710663,1.000386146188248e-05,-89.66725158691406,9.999999747378752e-06,0.0019849122036248446,29743.0078125,-47074.125,55683.2109375,-57.71393203735352
45.0,7.878151416778564,34620.421875,53118.1875,-53118.1875,63404.37890625,-56.905216217041016,1.0,1.717244941801255e-07,0.6689404249191284,8.0,0.9966389536857605,0.6342135071754456,-146.41033935546875,0.12758988142013547,0.19879984855651853,1.0002714589063544e-05,-89.46336364746092,9.999999747378752e-06,0.0017737388843670487,34620.421875,-53118.1875,63404.37890625,-56.905216217041016
46.0,6.275100231170654,39588.421875,58570.24609375,-58570.24609375,70694.53125,-55.944705963134766,1.0,1.3522971187285293e-07,0.6393494009971619,8.0,0.9975596666336061,0.7075967192649841,-145.2832489013672,0.13803260028362274,0.19276463985443115,1.000923839455936e-05,-89.30527496337889,9.999999747378752e-06,0.00148090033326298,39588.421875,-58570.24609375,70694.53125,-55.944705963134766
47.0,5.013369083404541,45185.0234375,64306.63671875,-64306.63671875,78594.0859375,-54.90622329711913,1.0,1.438509826812151e-07,0.5849841237068176,8.0,0.9974945187568665,0.7858883142471313,-144.1071319580078,0.14205598831176755,0.17861804366111755,9.999346730182879e-06,-89.17433166503906,9.999999747378752e-06,0.0014475340722128749,45185.0234375,-64306.63671875,78594.0859375,-54.90622329711913
