# point,freq,zreal,reflected_zimag,zimag,zmod,zphz,zsig,Idc,Vdc,ie_range,gain,vmod,vphz,vsig,vthd,imod,iphz,isig,ithd,zreal_drift,zimag_drift,zmod_drift,zphz_drift
0.0,250019.53125,4292.73095703125,142.5134735107422,-142.5134735107422,4295.09619140625,-1.90145206451416,1.0,5.130675049258571e-07,0.28616029024124146,8.0,0.04052237048745155,0.01677044853568077,-32.68549346923828,0.002986734034493565,0.16998523473739624,3.811854412560933e-06,-40.36135482788086,9.999999747378752e-06,0.1631810963153839,4292.73095703125,-142.5134735107422,4295.09619140625,-1.90145206451416
1.0,198691.40625,4276.12841796875,109.51902770996092,-109.51902770996092,4277.53076171875,-1.4671230316162107,1.0,5.674629619534245e-07,0.40787220001220703,8.0,0.048762049525976174,0.01993103139102459,-18.089826583862305,0.003896560054272413,0.17799532413482666,4.5869437599321836e-06,-24.295869827270508,9.999999747378752e-06,0.1444547474384308,4276.12841796875,-109.51902770996092,4277.53076171875,-1.4671230316162107
2.0,157792.96875,4255.6416015625,115.98055267333984,-115.98055267333984,4257.2216796875,-1.561116337776184,1.0,5.116290822115843e-07,0.4570244252681732,8.0,0.05913897603750229,0.02392859198153019,-77.90863800048828,0.004268734250217676,0.15639212727546692,5.563079412240768e-06,-82.47705841064453,9.999999747378752e-06,0.13904507458209991,4255.6416015625,-115.98055267333984,4257.2216796875,-1.561116337776184
3.0,125332.03125,4268.470703125,109.22250366210936,-109.22250366210936,4269.86767578125,-1.4657763242721555,1.0,5.498680479831819e-07,0.5093392729759216,8.0,0.07298190146684647,0.029515104368329048,45.211029052734375,0.004413377959281206,0.13823740184307098,6.86525481796707e-06,41.78559112548828,9.153362157121593e-07,0.12588801980018616,4268.470703125,-109.22250366210936,4269.86767578125,-1.4657763242721555
4.0,99550.78125,4277.8818359375,113.0357666015625,-113.0357666015625,4279.375,-1.5135916471481323,1.0,3.7129626662135706e-07,0.5969472527503967,8.0,0.08803843706846237,0.03545669466257095,-17.346006393432617,0.001948480843566358,0.047076504677534096,8.281591362901963e-06,-19.485528945922848,9.999999747378752e-06,0.04557066038250923,4277.8818359375,-113.0357666015625,4279.375,-1.5135916471481323
5.0,79160.15625,4286.2275390625,124.0931930541992,-124.0931930541992,4288.0234375,-1.658341884613037,1.0,3.265215013925627e-07,0.6460829973220825,8.0,0.1109187677502632,0.044760122895240784,20.23166275024414,0.002866131952032447,0.06168313696980476,1.0433896022732368e-05,19.00484848022461,9.999999747378752e-06,0.058553300797939294,4286.2275390625,-124.0931930541992,4288.0234375,-1.658341884613037
6.0,62871.09375,4293.44873046875,134.56910705566406,-134.56910705566406,4295.55712890625,-1.7952277660369873,1.0,3.289145240614744e-07,0.6661020517349243,8.0,0.14525368809700012,0.056275803595781326,-142.6525115966797,0.004118211567401886,0.06968965381383896,1.3095501344650984e-05,-143.1433563232422,9.391903290634218e-07,0.07000431418418884,4293.44873046875,-134.56910705566406,4295.55712890625,-1.7952277660369873
7.0,49980.46875,4300.02880859375,152.1087646484375,-152.1087646484375,4302.71826171875,-2.025930166244507,1.0,2.688206279799488e-07,0.7023242115974425,8.0,0.2275458723306656,0.0674285739660263,12.156702995300291,0.004352856893092394,0.06400476396083832,1.566541141073685e-05,12.364751815795898,1.1003263580278144e-06,0.06926707923412323,4300.02880859375,-152.1087646484375,4302.71826171875,-2.025930166244507
8.0,39667.96875,4307.55419921875,174.03355407714844,-174.03355407714844,4311.068359375,-2.3136024475097656,1.0,2.0746080053868357e-07,0.6804218888282776,8.0,0.38772451877594,0.07347980886697769,153.8957366943359,0.003070974722504616,0.04065626487135887,1.7039399608620442e-05,154.7643280029297,9.999999747378752e-06,0.0420890748500824,4307.55419921875,-174.03355407714844,4311.068359375,-2.3136024475097656
9.0,31582.03125,4318.81982421875,199.2968597412109,-199.2968597412109,4323.416015625,-2.642104625701904,1.0,2.020116909307035e-07,0.6936922073364258,8.0,0.5533357858657837,0.06171485781669617,-24.866249084472656,0.0008235902059823274,0.003676622174680233,1.4271364307205658e-05,-23.376739501953125,9.999999747378752e-06,0.010987641289830208,4318.81982421875,-199.2968597412109,4323.416015625,-2.642104625701904
10.0,25019.53125,4339.53955078125,233.06597900390625,-233.06597900390625,4345.7939453125,-3.0742616653442383,1.0,1.906699225173725e-07,0.7043266892433168,8.0,0.6426204442977905,0.05047820508480072,-128.13973999023435,0.0006306204595603049,0.011374148540198801,1.1613570677582175e-05,-125.9801788330078,9.999999747378752e-06,0.014008197002112864,4339.53955078125,-233.06597900390625,4345.7939453125,-3.0742616653442383
11.0,19863.28125,4352.58935546875,270.80731201171875,-270.80731201171875,4361.005859375,-3.5602121353149414,1.0,1.9836122078231713e-07,0.7106878757476808,8.0,0.7225344777107239,0.049038589000701904,-67.08311462402344,9.999999747378752e-06,0.0011184734757989645,1.1243565495533405e-05,-64.25007629394531,9.999999747378752e-06,0.002835269318893552,4352.58935546875,-270.80731201171875,4361.005859375,-3.5602121353149414
12.0,15682.8701171875,4373.24658203125,321.23440551757807,-321.23440551757807,4385.02880859375,-4.201085090637207,1.0,1.808981835438317e-07,0.7155812978744507,8.0,0.7929176688194275,0.0481252521276474,-134.5649261474609,0.0007697208202444018,0.0008135183015838265,1.0974114957207348e-05,-130.93856811523435,9.999999747378752e-06,0.002770841121673584,4373.24658203125,-321.23440551757807,4385.02880859375,-4.201085090637207
13.0,12597.65625,4392.47265625,387.7906188964844,-387.7906188964844,4409.5576171875,-5.045292377471924,1.0,1.529074324935209e-07,0.7175709009170532,8.0,0.8471271991729736,0.04711251705884933,-153.1528167724609,0.0004186139558441937,0.0011750010307878256,1.0683672371669672e-05,-148.56948852539062,9.999999747378752e-06,0.002608734183013439,4392.47265625,-387.7906188964844,4409.5576171875,-5.045292377471924
14.0,9895.8330078125,4427.6787109375,446.0897521972656,-446.0897521972656,4450.09375,-5.753150939941406,1.0,1.745697773003485e-07,0.7283948063850403,8.0,0.8910906910896301,0.046811822801828384,-126.5683822631836,0.000882020336575806,0.012824628502130508,1.0518971066630913e-05,-121.17829132080078,9.999999747378752e-06,0.002694963244721293,4427.6787109375,-446.0897521972656,4450.09375,-5.753150939941406
15.0,7910.15625,4464.72021484375,525.5023193359375,-525.5023193359375,4495.53955078125,-6.712888717651367,1.0,1.8829278758403237e-07,0.732270359992981,8.0,0.9199172258377075,0.04641060531139374,-91.44032287597656,0.0006698535289615393,0.001581006683409214,1.0323497008357663e-05,-85.0177230834961,9.999999747378752e-06,0.0024530566297471523,4464.72021484375,-525.5023193359375,4495.53955078125,-6.712888717651367
16.0,6307.87060546875,4504.78759765625,615.2893676757812,-615.2893676757812,4546.61328125,-7.77765417098999,1.0,1.673121658996024e-07,0.7362959384918211,8.0,0.9417173266410829,0.046544168144464486,-12.888319969177246,0.000453865242889151,0.0011804185342043638,1.0236979505862108e-05,-5.3422040939331055,9.999999747378752e-06,0.0029992100317031145,4504.78759765625,-615.2893676757812,4546.61328125,-7.77765417098999
17.0,4973.3232421875,4555.79638671875,722.54296875,-722.54296875,4612.73779296875,-9.011970520019533,1.0,1.7091684867409643e-07,0.7474004626274109,8.0,0.9289109706878662,0.045560844242572784,-93.1165771484375,0.00010006788215832783,0.00048428625450469553,9.86401028058026e-06,-84.20457458496092,9.999999747378752e-06,0.00055070873349905,4555.79638671875,-722.54296875,4612.73779296875,-9.011970520019533
18.0,3944.3598632812495,4616.88037109375,849.1050415039062,-849.1050415039062,4694.31201171875,-10.420995712280272,1.0,1.707376497961377e-07,0.7546386122703552,8.0,0.9565823674201965,0.04838937893509865,20.290319442749023,0.0005206553032621741,0.0005918548558838665,1.0297891094523948e-05,30.6110782623291,9.999999747378752e-06,0.0008321296190842986,4616.88037109375,-849.1050415039062,4694.31201171875,-10.420995712280272
19.0,3144.054931640625,4688.060546875,989.2637329101561,-989.2637329101561,4791.2998046875,-11.915614128112791,1.0,1.7948201502804298e-07,0.76379257440567,8.0,0.9704471230506898,0.04864080995321274,72.49159240722656,9.999999747378752e-06,0.012154582887887955,1.0144940461032093e-05,84.31610107421875,9.999999747378752e-06,0.0007701783906668424,4688.060546875,-989.2637329101561,4791.2998046875,-11.915614128112791
20.0,2488.426025390625,4774.23486328125,1158.572021484375,-1158.572021484375,4912.80029296875,-13.640389442443848,1.0,1.6641085665014546e-07,0.7701251506805421,8.0,0.9797263145446776,0.04962018504738808,137.8589324951172,0.0006403748411685228,0.012528669089078903,1.0095617653860243e-05,151.42123413085935,9.999999747378752e-06,0.00087911041919142,4774.23486328125,-1158.572021484375,4912.80029296875,-13.640389442443848
21.0,1976.6566162109373,4873.04345703125,1355.3780517578125,-1355.3780517578125,5058.0234375,-15.543265342712402,1.0,1.6391663848480678e-07,0.7738690376281737,8.0,0.9864808917045592,0.05094390735030174,-138.98721313476562,0.00043399387504905457,0.0013929385459050536,1.0068943083751947e-05,-123.50895690917967,9.999999747378752e-06,0.0009261386585421859,4873.04345703125,-1355.3780517578125,5058.0234375,-15.543265342712402
22.0,1582.03125,4983.5986328125,1566.9384765625,-1566.9384765625,5224.1318359375,-17.45414161682129,1.0,1.6040834793784597e-07,0.7806851863861085,8.0,0.9889111518859864,0.05238004773855209,102.73829650878906,0.0005109484773129225,0.0017720044124871492,1.0024636139860377e-05,120.138916015625,9.999999747378752e-06,0.0013312636874616146,4983.5986328125,-1566.9384765625,5224.1318359375,-17.45414161682129
23.0,1253.6336669921875,5119.99755859375,1826.0671386718752,-1826.0671386718752,5435.8896484375,-19.62897491455078,1.0,1.5819779264347744e-07,0.7848021388053894,8.0,0.9922733902931212,0.05455034226179122,135.6847381591797,0.0005046097794547677,0.002524260198697448,1.0033999387815127e-05,155.27052307128906,9.999999747378752e-06,0.0010874957079067826,5119.99755859375,-1826.0671386718752,5435.8896484375,-19.62897491455078
24.0,996.09375,5276.3720703125,2145.084716796875,-2145.084716796875,5695.7431640625,-22.123973846435543,1.0,1.597204573045019e-07,0.7831305265426636,8.0,0.9934493899345397,0.057029332965612405,-26.83024787902832,0.0005863442784175277,0.00374267459847033,1.0011851372837555e-05,-4.7409725189208975,9.999999747378752e-06,0.0014194997493177652,5276.3720703125,-2145.084716796875,5695.7431640625,-22.123973846435543
25.0,790.028076171875,5452.548828125,2477.928955078125,-2477.928955078125,5989.19189453125,-24.4395809173584,1.0,1.5732055658190802e-07,0.7926203608512878,8.0,0.9964788556098938,0.06007748469710351,-143.95249938964844,0.00013101960939820856,0.0050292755477130404,1.0030494195234496e-05,-119.54063415527344,9.999999747378752e-06,0.0011392371961846948,5452.548828125,-2477.928955078125,5989.19189453125,-24.4395809173584
26.0,628.8109741210938,5647.82080078125,2865.750732421875,-2865.750732421875,6333.27783203125,-26.90361213684082,1.0,1.559187978728005e-07,0.7988393306732178,8.0,0.9971040487289428,0.06337448209524155,68.28872680664062,9.999999747378752e-06,0.0071266177110373965,1.0006274351326285e-05,95.17018127441406,9.999999747378752e-06,0.0012563597410917282,5647.82080078125,-2865.750732421875,6333.27783203125,-26.90361213684082
27.0,496.3235168457031,5877.1748046875,3321.553955078125,-3321.553955078125,6750.8447265625,-29.473468780517575,1.0,1.5458481072982977e-07,0.8075588941574096,8.0,0.9698038101196288,0.0643594041466713,98.21134948730467,0.0006429757340811193,0.006358121521770953,9.726204552862328e-06,130.21292114257812,9.999999747378752e-06,0.0005737589672207832,5877.1748046875,-3321.553955078125,6750.8447265625,-29.473468780517575
28.0,395.3313293457031,6144.23876953125,3895.7983398437505,-3895.7983398437505,7275.22607421875,-32.37703323364258,1.0,1.533394708985725e-07,0.8065358400344848,8.0,0.9910548925399779,0.0734674334526062,60.82563400268555,0.0008277771412394941,0.010633087716996668,1.021912794385571e-05,95.28958129882812,9.999999747378752e-06,0.0006291844183579087,6144.23876953125,-3895.7983398437505,7275.22607421875,-32.37703323364258
29.0,315.5048217773437,6441.984375,4554.1943359375,-4554.1943359375,7889.223632812499,-35.25859832763672,1.0,1.491268193376527e-07,0.8075857758522034,8.0,0.9978632926940917,0.07886966317892073,-173.1563720703125,0.0012800979893654585,0.01544392853975296,1.0068698429677168e-05,-136.214599609375,9.999999747378752e-06,0.000814791244920343,6441.984375,-4554.1943359375,7889.223632812499,-35.25859832763672
30.0,249.33511352539065,6820.345703125,5387.3369140625,-5387.3369140625,8691.404296875,-38.30492782592773,1.0,1.5462416058653616e-07,0.8059167265892029,8.0,1.000800609588623,0.08680084347724913,49.40535354614258,0.0019519039196893568,0.02120133861899376,1.0029436452896334e-05,89.04247283935545,9.999999747378752e-06,0.001001130905933678,6820.345703125,-5387.3369140625,8691.404296875,-38.30492782592773
31.0,198.6228790283203,7280.935546875,6428.146484375,-6428.146484375,9712.5224609375,-41.44043731689453,1.0,1.5571934852687266e-07,0.7969802618026732,8.0,0.998404026031494,0.09664067625999449,33.03025817871094,0.00268474780023098,0.027820780873298645,9.97605275188107e-06,75.5306167602539,9.999999747378752e-06,0.0011878552613779902,7280.935546875,-6428.146484375,9712.5224609375,-41.44043731689453
32.0,158.005615234375,7807.08544921875,7632.465820312499,-7632.465820312499,10918.109375,-44.35201644897461,1.0,1.5805065345375624e-07,0.7920278906822205,8.0,0.9962828159332275,0.1087738052010536,88.80205535888672,0.0039153946563601485,0.03512551262974739,9.978753951145336e-06,133.995849609375,9.999999747378752e-06,0.0013563106767833233,7807.08544921875,-7632.465820312499,10918.109375,-44.35201644897461
33.0,125.5580368041992,8257.8759765625,8690.0625,-8690.0625,11987.8974609375,-46.46077346801758,1.0,1.5386100926662039e-07,0.8098521828651427,8.0,0.9870058298110962,0.11864379793405531,-147.4152679443359,0.005249784328043461,0.04342043772339821,9.906883860821837e-06,-100.28652191162108,9.999999747378752e-06,0.0014261577744036913,8257.8759765625,-8690.0625,11987.8974609375,-46.46077346801758
34.0,99.73403930664062,8637.7197265625,9341.9033203125,-9341.9033203125,12723.2607421875,-47.24288177490234,1.0,1.576179045059689e-07,0.8590834140777587,8.0,0.9917924404144288,0.12776964902877808,-144.6167755126953,0.006946183741092682,0.05303109064698219,1.0048496733361388e-05,-96.84384155273438,9.999999747378752e-06,0.0009453376405872403,8637.7197265625,-9341.9033203125,12723.2607421875,-47.24288177490234
35.0,78.78150939941406,9332.4814453125,10905.244140625,-10905.244140625,14353.380859375,-49.44377899169922,1.0,1.527196360484595e-07,0.8662831783294677,8.0,0.9928908348083496,0.1436370313167572,-144.67092895507812,0.00938392523676157,0.06364721804857254,1.001107466436224e-05,-94.8087692260742,9.999999747378752e-06,0.0013942788355052471,9332.4814453125,-10905.244140625,14353.380859375,-49.44377899169922
36.0,62.919464111328125,10067.0087890625,12598.671875,-12598.671875,16126.7236328125,-51.37328720092773,1.0,1.5696451782787338e-07,0.8733704686164856,8.0,0.993131637573242,0.16126658022403717,-144.98439025878906,0.012361582368612288,0.07479503750801086,1.000242536974838e-05,-93.27709197998048,9.999999747378752e-06,0.0011328171240165827,10067.0087890625,-12598.671875,16126.7236328125,-51.37328720092773
37.0,49.86701965332031,11049.357421875,14647.2451171875,-14647.2451171875,18347.482421875,-52.97040557861328,1.0,1.6913280376229523e-07,0.8795527219772339,8.0,0.9938442707061768,0.18357811868190765,-146.71868896484375,0.016355307772755623,0.08795990794897078,1.000717566057574e-05,-93.48365783691406,9.999999747378752e-06,0.0014902264811098576,11049.357421875,-14647.2451171875,18347.482421875,-52.97040557861328
38.0,39.72457504272461,12152.1015625,16932.345703125,-16932.345703125,20841.734375,-54.333541870117195,1.0,1.6732131769003902e-07,0.8851470947265626,8.0,0.9944732189178466,0.20852883160114288,-147.03347778320312,0.02147754840552807,0.10175685584545135,1.0006328011513688e-05,-92.48930358886719,9.999999747378752e-06,0.0014940315159037707,12152.1015625,-16932.345703125,20841.734375,-54.333541870117195
39.0,31.459732055664062,13474.8916015625,19563.025390625,-19563.025390625,23754.677734375,-55.44116973876953,1.0,1.740260699989449e-07,0.890671670436859,8.0,0.9948893189430237,0.23763158917427063,-147.31568908691406,0.027996972203254696,0.11639322340488432,1.0004184332501607e-05,-91.70773315429688,9.999999747378752e-06,0.0013903060462325811,13474.8916015625,-19563.025390625,23754.677734375,-55.44116973876953
40.0,24.93350982666016,15240.52734375,22726.806640625,-22726.806640625,27363.87109375,-56.15431594848633,1.0,1.4037391338206362e-07,0.8889682292938232,8.0,0.995780110359192,0.27387318015098566,-147.3760528564453,0.037504781037569046,0.13525882363319397,1.0008953722717706e-05,-91.08953857421875,9.999999747378752e-06,0.0017282785847783089,15240.52734375,-22726.806640625,27363.87109375,-56.15431594848633
41.0,19.862287521362305,17236.75,26339.91796875,-26339.91796875,31478.513671875,-56.799407958984375,1.0,1.1534846322547308e-07,0.8841751813888551,8.0,0.9955950379371645,0.31471893191337585,-147.50013732910156,0.0488380454480648,0.15331220626831055,9.998141649703028e-06,-90.59544372558592,9.999999747378752e-06,0.0016457288293167949,17236.75,-26339.91796875,31478.513671875,-56.799407958984375
42.0,15.782828330993652,19639.4765625,30327.4296875,-30327.4296875,36131.1796875,-57.07366180419922,1.0,1.5332010150359565e-07,0.8804847002029419,8.0,0.9960772991180421,0.3614812195301056,-147.3608245849609,0.06283843517303467,0.17175498604774475,1.0004843716160394e-05,-90.20349884033203,9.999999747378752e-06,0.0017226034542545676,19639.4765625,-30327.4296875,36131.1796875,-57.07366180419922
43.0,12.466754913330078,23006.64453125,35525.70703125,-35525.70703125,42324.71484375,-57.07268142700195,1.0,1.709021546503209e-07,0.8600231409072877,8.0,0.9964014291763305,0.42338082194328314,-147.03216552734375,0.08191097527742387,0.19116078317165372,1.0003253919421695e-05,-89.89339447021484,9.999999747378752e-06,0.0019280045526102183,23006.64453125,-35525.70703125,42324.71484375,-57.07268142700195
44.0,9.973403930664062,26661.951171875,40787.00390625,-40787.00390625,48728.21875,-56.82786178588867,1.0,1.440144785647135e-07,0.8430683612823486,8.0,0.9969128370285033,0.4875293374061584,-146.52999877929688,0.10199468582868576,0.20671819150447843,1.0005132935475558e-05,-89.6492691040039,9.999999747378752e-06,0.0016662616981193423,26661.951171875,-40787.00390625,48728.21875,-56.82786178588867
45.0,7.878151416778564,32063.890625,47584.78515625,-47584.78515625,57379.48046875,-56.02686309814453,1.0,1.452179532179798e-07,0.7922613620758056,8.0,0.9968873858451843,0.573777973651886,-145.5258331298828,0.1220833659172058,0.21024490892887115,9.999744179367552e-06,-89.45719909667967,9.999999747378752e-06,0.001690784003585577,32063.890625,-47584.78515625,57379.48046875,-56.02686309814453
46.0,6.275100231170654,36832.1171875,53111.9765625,-53111.9765625,64633.48046875,-55.25944900512695,1.0,1.4933242198367225e-07,0.7648200392723083,8.0,0.9974634051322936,0.6467067003250122,-144.59188842773435,0.13648217916488647,0.20854122936725616,1.0005778676713817e-05,-89.2991714477539,9.999999747378752e-06,0.0016085425158962607,36832.1171875,-53111.9765625,64633.48046875,-55.25944900512695
47.0,5.013369083404541,42376.76171875,58910.90234375,-58910.90234375,72569.171875,-54.27115631103516,1.0,1.8339943608225442e-07,0.7110965251922609,8.0,0.9979345202445984,0.7260332703590393,-143.4786376953125,0.14371779561042783,0.19560499489307404,1.0004722753365058e-05,-89.18091583251953,9.999999747378752e-06,0.0013047816464677453,42376.76171875,-58910.90234375,72569.171875,-54.27115631103516
