# point,freq,zreal,reflected_zimag,zimag,zmod,zphz,zsig,Idc,Vdc,ie_range,gain,vmod,vphz,vsig,vthd,imod,iphz,isig,ithd,zreal_drift,zimag_drift,zmod_drift,zphz_drift
0.0,250019.53125,4200.90380859375,-601.6491088867188,601.6491088867188,4243.76904296875,8.150418281555174,1.0,2.659376150404569e-07,0.0849679261445999,8.0,0.10088197141885756,0.004281197674572468,-55.109901428222656,0.0005345526733435689,0.10390956699848176,1.008819708658848e-06,-63.26031875610352,9.999999747378752e-06,0.1046355441212654,4200.90380859375,601.6491088867188,4243.76904296875,8.150418281555174
1.0,198691.40625,4215.61669921875,-456.38427734375,456.38427734375,4240.2490234375,6.1787986755371085,1.0,4.884878421762552e-07,0.26372355222702026,8.0,0.04987085983157158,0.01989205554127693,56.121543884277344,0.004134418908506632,0.18117989599704745,4.691247340815608e-06,49.94274520874024,9.999999747378752e-06,0.14595897495746613,4215.61669921875,456.38427734375,4240.2490234375,6.1787986755371085
2.0,157792.96875,4200.623046875,-334.691162109375,334.691162109375,4213.935546875,4.555506706237793,1.0,4.4800947307521715e-07,0.37489575147628784,8.0,0.06090371310710906,0.02414199151098728,141.39419555664062,0.0039731590077281,0.15293928980827332,5.729084477934521e-06,136.83868408203125,9.999999747378752e-06,0.13497735559940338,4200.623046875,334.691162109375,4213.935546875,4.555506706237793
3.0,125332.03125,4183.712890625,-254.4208221435547,254.4208221435547,4191.44189453125,3.479997396469116,1.0,4.725904716451624e-07,0.44461187720298767,8.0,0.07467466592788696,0.02944273874163628,16.25876808166504,0.0040744501166045674,0.13049986958503723,7.0244896051008254e-06,12.77877140045166,9.106269089897978e-07,0.12585097551345825,4183.712890625,254.4208221435547,4191.44189453125,3.479997396469116
4.0,99550.78125,4153.361328125,-154.59219360351562,154.59219360351562,4156.2373046875,2.131621122360229,1.0,3.071647256547294e-07,0.44036051630973816,8.0,0.0904322639107704,0.03535617142915726,-32.48969650268555,0.0022747565526515245,0.04831448197364807,8.506773156113921e-06,-34.62132263183594,9.999999747378752e-06,0.04483157396316528,4153.361328125,154.59219360351562,4156.2373046875,2.131621122360229
5.0,79160.15625,4168.46240234375,-89.83645629882812,89.83645629882812,4169.43017578125,1.2346166372299194,1.0,2.8913609639857896e-07,0.4796067476272583,8.0,0.11386693269014359,0.04465970396995544,-166.4308319091797,0.002984173595905304,0.06452317535877228,1.071122369467048e-05,-167.6654510498047,9.999999747378752e-06,0.05839306861162186,4168.46240234375,89.83645629882812,4169.43017578125,1.2346166372299194
6.0,62871.09375,4172.65380859375,-30.665000915527344,30.665000915527344,4172.7666015625,0.4210614264011383,1.0,2.995301429109532e-07,0.5267284512519836,8.0,0.15296611189842224,0.056055948138237,-56.35003280639648,0.004060272127389908,0.07016173750162125,1.3433760614134371e-05,-56.771087646484375,9.523501489638875e-07,0.06975585967302321,4172.65380859375,30.665000915527344,4172.7666015625,0.4210614264011383
7.0,49980.46875,4179.9189453125,21.558057785034176,-21.558057785034176,4179.974609375,-0.29550206661224365,1.0,2.3320242803492877e-07,0.5448535680770874,8.0,0.2429315447807312,0.06638383120298386,-128.73861694335935,0.005029640626162291,0.07467833161354065,1.5881396393524483e-05,-128.443115234375,1.0670075880625518e-06,0.06633712351322174,4179.9189453125,-21.558057785034176,4179.974609375,-0.29550206661224365
8.0,39667.96875,4190.4267578125,74.28433227539062,-74.28433227539062,4191.0849609375,-1.0155847072601318,1.0,2.180307347998678e-07,0.5428268909454346,8.0,0.41131931543350214,0.07096131891012192,58.89694213867188,0.0025650339666754007,0.03471942991018295,1.6931489881244488e-05,59.91252136230469,9.999999747378752e-06,0.03548622503876686,4190.4267578125,-74.28433227539062,4191.0849609375,-1.0155847072601318
9.0,31582.03125,4207.41455078125,120.73039245605467,-120.73039245605467,4209.146484375,-1.6436327695846555,1.0,2.1056197851976322e-07,0.5403895974159241,8.0,0.5626990199089049,0.05758256837725639,158.15760803222656,0.0008519773255102336,0.003615460358560085,1.3680345546163151e-05,159.8012542724609,9.999999747378752e-06,0.011496055871248244,4207.41455078125,-120.73039245605467,4209.146484375,-1.6436327695846555
10.0,25019.53125,4218.9462890625,183.73284912109372,-183.73284912109372,4222.9453125,-2.4936249256134038,1.0,1.999165135657677e-07,0.5352113246917725,8.0,0.6499166488647461,0.04877496138215065,-32.35829162597656,0.0009257405763491987,0.018036507070064545,1.1549986993486527e-05,-29.86466789245605,9.999999747378752e-06,0.01585240848362446,4218.9462890625,-183.73284912109372,4222.9453125,-2.4936249256134038
11.0,19863.28125,4237.67333984375,242.88427734375,-242.88427734375,4244.6279296875,-3.2803461551666255,1.0,1.9854392974139046e-07,0.5410528779029846,8.0,0.7283873558044434,0.04757123067975044,27.408716201782223,0.0008896237704902886,0.0012428596382960675,1.1207396710233296e-05,30.689062118530277,9.999999747378752e-06,0.002372291637584567,4237.67333984375,-242.88427734375,4244.6279296875,-3.2803461551666255
12.0,15682.8701171875,4260.93212890625,312.3685607910156,-312.3685607910156,4272.36669921875,-4.192848205566406,1.0,2.053712648830697e-07,0.5447736978530884,8.0,0.796557068824768,0.0467221699655056,15.251277923583984,0.0006382304709404706,0.0017312646377831695,1.0935898899333552e-05,19.44412612915039,9.999999747378752e-06,0.0034412872046232224,4260.93212890625,-312.3685607910156,4272.36669921875,-4.192848205566406
13.0,12597.65625,4314.14501953125,387.12643432617193,-387.12643432617193,4331.4794921875,-5.127658367156982,1.0,2.1080325041111794e-07,0.5533564686775208,8.0,0.8425763249397277,0.045817211270332336,-49.8878059387207,0.000959941593464464,0.0009597247699275613,1.0577727152849548e-05,-44.76014709472656,9.999999747378752e-06,0.0018989064265042543,4314.14501953125,-387.12643432617193,4331.4794921875,-5.127658367156982
14.0,9895.8330078125,4309.38671875,466.4822998046875,-466.4822998046875,4334.56103515625,-6.17809534072876,1.0,2.214223968621809e-07,0.5609193444252014,8.0,0.8918292522430421,0.045879393815994256,-69.24469757080078,0.0008264079224318267,0.014108911156654356,1.0584552001091652e-05,-63.066600799560554,9.999999747378752e-06,0.0037670719902962446,4309.38671875,-466.4822998046875,4334.56103515625,-6.17809534072876
15.0,7910.15625,4348.75732421875,564.3948364257812,-564.3948364257812,4385.22900390625,-7.394686698913574,1.0,2.1332368760340614e-07,0.5720447897911072,8.0,0.9182446599006653,0.04515116289258003,-43.040203094482415,0.0008510673651471734,0.0015478677814826367,1.0296193067915736e-05,-35.6455192565918,9.999999747378752e-06,0.002765585668385029,4348.75732421875,-564.3948364257812,4385.22900390625,-7.394686698913574
16.0,6307.87060546875,4390.697265625,676.8593139648438,-676.8593139648438,4442.5625,-8.763592720031738,1.0,1.913708445044904e-07,0.5800560116767883,8.0,0.9397494196891784,0.045466046780347824,25.714370727539062,0.0003476754645816982,0.0015741114038974047,1.023419463308528e-05,34.47796630859375,9.999999747378752e-06,0.0029052223544567823,4390.697265625,-676.8593139648438,4442.5625,-8.763592720031738
17.0,4973.3232421875,4449.47216796875,823.0574951171875,-823.0574951171875,4524.9560546875,-10.480037689208984,1.0,1.8507704169223873e-07,0.5924937129020691,8.0,0.9259076714515686,0.044583063572645194,-67.95680236816406,0.0005439461674541234,0.0006195586756803095,9.852707989921328e-06,-57.47676467895508,9.999999747378752e-06,0.0007567904540337622,4449.47216796875,-823.0574951171875,4524.9560546875,-10.480037689208984
18.0,3944.3598632812495,4509.12890625,978.735107421875,-978.735107421875,4614.126953125,-12.246447563171387,1.0,1.8734638729256406e-07,0.6035050749778748,8.0,0.9537543058395384,0.04752896353602409,41.770992279052734,0.0004708813794422895,0.00048258391325362027,1.030074963637162e-05,54.01744079589844,9.999999747378752e-06,0.0008567771874368191,4509.12890625,-978.735107421875,4614.126953125,-12.246447563171387
19.0,3144.054931640625,4582.71630859375,1157.4129638671875,-1157.4129638671875,4726.615234375,-14.174234390258787,1.0,1.8290890579919505e-07,0.6135942339897156,8.0,0.9676328897476195,0.047953952103853226,87.64151000976561,0.0002842954418156296,0.011664597317576408,1.0145515261683611e-05,101.81574249267578,9.999999747378752e-06,0.000837740721181035,4582.71630859375,-1157.4129638671875,4726.615234375,-14.174234390258787
20.0,2488.426025390625,4672.2919921875,1380.3421630859375,-1380.3421630859375,4871.92529296875,-16.458799362182617,1.0,1.7401751506440633e-07,0.6219075322151184,8.0,0.9763355851173402,0.04915742576122284,149.0838165283203,0.000397282128687948,0.010784905403852463,1.0089937859447671e-05,165.54261779785156,9.999999747378752e-06,0.0009300577221438288,4672.2919921875,-1380.3421630859375,4871.92529296875,-16.458799362182617
21.0,1976.6566162109373,4778.13916015625,1634.1915283203125,-1634.1915283203125,5049.87109375,-18.88141822814941,1.0,1.7200254376348314e-07,0.6335985660552979,8.0,0.980476438999176,0.050712887197732925,-135.28005981445312,0.0005899925017729402,0.0011143297888338564,1.0042412213806529e-05,-116.3986358642578,9.999999747378752e-06,0.0010275712702423334,4778.13916015625,-1634.1915283203125,5049.87109375,-18.88141822814941
22.0,1582.03125,4900.93505859375,1925.7170410156248,-1925.7170410156248,5265.69580078125,-21.45127868652344,1.0,1.619407896669145e-07,0.6400510668754578,8.0,0.9843866229057312,0.05286694690585136,107.97968292236328,0.0004053028533235192,0.0018417965620756147,1.0039880180556793e-05,129.43096923828125,9.999999747378752e-06,0.0013864882057532668,4900.93505859375,-1925.7170410156248,5265.69580078125,-21.45127868652344
23.0,1253.6336669921875,5055.78759765625,2285.357177734375,-2285.357177734375,5548.3193359375,-24.324296951293945,1.0,1.546569166066547e-07,0.6457743048667908,8.0,0.9868783354759216,0.05562363937497138,135.45159912109375,0.0002990099892485887,0.0017727777594700456,1.0025312803918496e-05,159.77587890625,9.999999747378752e-06,0.0012496119597926736,5055.78759765625,-2285.357177734375,5548.3193359375,-24.324296951293945
24.0,996.09375,5235.8740234375,2713.57568359375,-2713.57568359375,5897.2763671875,-27.396173477172848,1.0,1.1568458546662441e-07,0.6445373892784119,8.0,0.9896458387374878,0.059138137847185135,-25.168878555297848,0.0004551766032818705,0.0025826655328273773,1.0028043107013218e-05,2.2272963523864746,9.999999747378752e-06,0.0014230870874598622,5235.8740234375,-2713.57568359375,5897.2763671875,-27.396173477172848
25.0,790.028076171875,5459.65283203125,3216.35009765625,-3216.35009765625,6336.6171875,-30.50287437438965,1.0,1.106243487924985e-07,0.6480677723884584,8.0,0.9920569658279419,0.06352055817842484,-145.8837432861328,0.0006982592749409378,0.003450271906331181,1.0024363291449845e-05,-115.38086700439452,9.999999747378752e-06,0.0011342604411765933,5459.65283203125,-3216.35009765625,6336.6171875,-30.50287437438965
26.0,628.8109741210938,5725.40673828125,3799.3227539062495,-3799.3227539062495,6871.3271484375,-33.56785583496094,1.0,1.1541722244601261e-07,0.6506295800209044,8.0,0.9937481880187987,0.06883040070533752,65.10951232910156,0.0004916873294860125,0.004800818394869566,1.0017047316068783e-05,98.6773681640625,9.999999747378752e-06,0.0013167307479307055,5725.40673828125,-3799.3227539062495,6871.3271484375,-33.56785583496094
27.0,496.3235168457031,5730.63916015625,4660.85498046875,-4660.85498046875,7386.73095703125,-39.12221908569336,1.0,1.305553070096721e-07,0.6567619442939758,8.0,0.9658037424087523,0.07179014384746552,93.44712829589844,0.0007858143071644008,0.004510687664151192,9.718797628011089e-06,132.5693359375,9.999999747378752e-06,0.00039319024654105306,5730.63916015625,-4660.85498046875,7386.73095703125,-39.12221908569336
28.0,395.3313293457031,6158.4892578125,5450.4892578125,-5450.4892578125,8224.0390625,-41.510009765625,1.0,1.1258363485922018e-07,0.6580449938774109,8.0,0.9862737655639648,0.08398346602916716,55.96809005737305,0.001099229441024363,0.007981270551681519,1.0211948392679915e-05,97.47809600830078,9.999999747378752e-06,0.0006867124466225505,6158.4892578125,-5450.4892578125,8224.0390625,-41.510009765625
29.0,315.5048217773437,6634.8798828125,6307.0595703125,-6307.0595703125,9154.2685546875,-43.54900360107422,1.0,1.1731779636647845e-07,0.6648141741752625,8.0,0.9928800463676452,0.09215585887432097,-178.91534423828125,0.0011247439542785287,0.01210592035204172,1.0066982213174924e-05,-135.36634826660156,9.999999747378752e-06,0.0008453611517325044,6634.8798828125,-6307.0595703125,9154.2685546875,-43.54900360107422
30.0,249.33511352539065,7217.518554687501,7480.98974609375,-7480.98974609375,10395.0849609375,-46.02692031860352,1.0,1.142659016295511e-07,0.6555655002593994,8.0,0.995737850666046,0.10425005108118056,44.78369140625,0.001851545530371368,0.0171390064060688,1.002878252620576e-05,90.81060791015624,9.999999747378752e-06,0.0011302675120532513,7217.518554687501,-7480.98974609375,10395.0849609375,-46.02692031860352
31.0,198.6228790283203,7848.25048828125,8596.3076171875,-8596.3076171875,11640.0830078125,-47.60456848144531,1.0,1.388106056765537e-07,0.6658782362937927,8.0,0.9966050386428832,0.11650221049785614,28.97567176818848,0.002897405065596104,0.023993223905563354,1.0008709068642928e-05,76.58023834228516,9.999999747378752e-06,0.0013728343183174727,7848.25048828125,-8596.3076171875,11640.0830078125,-47.60456848144531
32.0,158.005615234375,8692.970703125,10327.3623046875,-10327.3623046875,13498.9677734375,-49.91128540039063,1.0,1.5357414895333934e-07,0.641791582107544,8.0,0.9910575747489928,0.13423830270767212,84.9639892578125,0.003928221762180328,0.029119735583662983,9.944336852640845e-06,134.87527465820312,9.999999747378752e-06,0.0016407538205385208,8692.970703125,-10327.3623046875,13498.9677734375,-49.91128540039063
33.0,125.5580368041992,9554.5751953125,11867.91015625,-11867.91015625,15236.0498046875,-51.16327667236328,1.0,1.8737534901447361e-07,0.6502220034599304,8.0,0.9826532006263733,0.15106843411922455,-150.97653198242188,0.005993908271193504,0.03909720480442047,9.915197551890742e-06,-99.81326293945312,9.999999747378752e-06,0.0016451160190626979,9554.5751953125,-11867.91015625,15236.0498046875,-51.16327667236328
34.0,99.73403930664062,10266.09765625,12501.6826171875,-12501.6826171875,16176.67578125,-50.607940673828125,1.0,1.8379873267804214e-07,0.7155705094337463,8.0,0.9895966649055482,0.16290980577468872,-147.55746459960935,0.009653137996792792,0.05773915350437164,1.0070660209748892e-05,-96.94953918457033,9.999999747378752e-06,0.0016734873643144963,10266.09765625,-12501.6826171875,16176.67578125,-50.607940673828125
35.0,78.78150939941406,11256.8837890625,14335.4375,-14335.4375,18226.962890625,-51.859272003173835,1.0,1.618815304027521e-07,0.7249213457107544,8.0,0.9906092286109923,0.1824561506509781,-146.75160217285156,0.013322480022907255,0.07127458602190018,1.0010232472268397e-05,-94.89234161376952,9.999999747378752e-06,0.0018914209213107824,11256.8837890625,-14335.4375,18226.962890625,-51.859272003173835
36.0,62.919464111328125,12323.384765625,16368.4794921875,-16368.4794921875,20488.849609375,-53.024898529052734,1.0,1.3502967988188175e-07,0.7309796810150145,8.0,0.9913669824600221,0.2050451934337616,-146.40017700195312,0.017786221578717232,0.08463521301746368,1.0007649507315364e-05,-93.37527465820312,9.999999747378752e-06,0.0015452192164957523,12323.384765625,-16368.4794921875,20488.849609375,-53.024898529052734
37.0,49.86701965332031,13666.1982421875,18852.607421875,-18852.607421875,23284.8828125,-54.0617561340332,1.0,1.2967829832177813e-07,0.7350888252258301,8.0,0.9921762943267822,0.23303890228271484,-147.6149139404297,0.023399271070957184,0.09915731847286224,1.0008163371821864e-05,-93.5531539916992,9.999999747378752e-06,0.0021405208390206094,13666.1982421875,-18852.607421875,23284.8828125,-54.0617561340332
38.0,39.72457504272461,15290.8984375,21814.8046875,-21814.8046875,26640.14453125,-54.971797943115234,1.0,1.4083779831253196e-07,0.7296423316001891,8.0,0.9928774237632751,0.26658967137336725,-147.5348358154297,0.030402870848774907,0.11267179995775221,1.0007066521211527e-05,-92.56303405761719,9.999999747378752e-06,0.0022653394844383,15290.8984375,-21814.8046875,26640.14453125,-54.971797943115234
39.0,31.459732055664062,17116.65625,25049.775390625,-25049.775390625,30339.267578125,-55.654979705810554,1.0,1.615451026282244e-07,0.7277155518531798,8.0,0.9934651851654052,0.30357226729393005,-147.41543579101562,0.03915984928607941,0.12745723128318787,1.0005919648392592e-05,-91.76045227050781,9.999999747378752e-06,0.0023478148505091667,17116.65625,-25049.775390625,30339.267578125,-55.654979705810554
40.0,24.93350982666016,19005.998046875,28177.28125,-28177.28125,33988.046875,-55.9997444152832,1.0,1.91149865713669e-07,0.7380958199501036,8.0,0.9940754175186157,0.34008920192718506,-147.1498565673828,0.049350541085004807,0.14336884021759033,1.0006142474594524e-05,-91.15010833740233,9.999999747378752e-06,0.0022717753890901804,19005.998046875,-28177.28125,33988.046875,-55.9997444152832
41.0,19.862287521362305,21100.470703125,31568.88671875,-31568.88671875,37971.36328125,-56.24145126342773,1.0,1.6352694842680648e-07,0.7438623309135437,8.0,0.994909942150116,0.38003239035606384,-146.87921142578125,0.06069770827889442,0.1578112095594406,1.0008395292970816e-05,-90.63777160644531,9.999999747378752e-06,0.002112832386046648,21100.470703125,-31568.88671875,37971.36328125,-56.24145126342773
42.0,15.782828330993652,23580.357421875,35391.90625,-35391.90625,42527.875,-56.325904846191406,1.0,1.5596089042446692e-07,0.7448557019233703,8.0,0.995404541492462,0.42549020051956177,-146.5653839111328,0.07418332248926161,0.17227424681186676,1.0004971045418642e-05,-90.23948669433592,9.999999747378752e-06,0.0020224961917847395,23580.357421875,-35391.90625,42527.875,-56.325904846191406
43.0,12.466754913330078,26513.509765625,39683.5625,-39683.5625,47725.79296875,-56.252197265625,1.0,1.7532944696085906e-07,0.7421226501464844,8.0,0.995777666568756,0.47743687033653254,-146.166748046875,0.08949194848537445,0.18521572649478912,1.000374868453946e-05,-89.91455078125,9.999999747378752e-06,0.0017995903035625815,26513.509765625,-39683.5625,47725.79296875,-56.252197265625
44.0,9.973403930664062,29587.798828125,43944.44140625,-43944.44140625,52976.8984375,-56.047611236572266,1.0,1.8711324401010643e-07,0.7407233119010925,8.0,0.9965467453002927,0.5301781296730042,-145.72303771972656,0.10529737174510956,0.19625742733478543,1.0007723176386207e-05,-89.6754379272461,9.999999747378752e-06,0.0018374667270109055,29587.798828125,-43944.44140625,52976.8984375,-56.047611236572266
45.0,7.878151416778564,33883.9609375,49289.6953125,-49289.6953125,59813.015625,-55.493614196777344,1.0,1.6363325983093094e-07,0.7182590365409851,8.0,0.996801018714905,0.5982828140258789,-144.96600341796875,0.12181831896305084,0.20119915902614596,1.0002551789511926e-05,-89.47238159179686,9.999999747378752e-06,0.001618031528778374,33883.9609375,-49289.6953125,59813.015625,-55.493614196777344
46.0,6.275100231170654,39119.78515625,55165.1328125,-55165.1328125,67628.0234375,-54.65803146362305,1.0,1.548237804627206e-07,0.6683515310287476,8.0,0.9975889325141906,0.6768147349357605,-143.9614105224609,0.13347268104553223,0.1948723345994949,1.000790416583186e-05,-89.30337524414062,9.999999747378752e-06,0.0015388701576739547,39119.78515625,-55165.1328125,67628.0234375,-54.65803146362305
47.0,5.013369083404541,44435.95703125,60884.2578125,-60884.2578125,75375.375,-53.876419067382805,1.0,1.2143131300490498e-07,0.6157448887825012,8.0,0.9979878067970275,0.7540551424026489,-143.05068969726562,0.1414801925420761,0.18540614843368527,1.0003998795582447e-05,-89.17427062988281,9.999999747378752e-06,0.001314715133048594,44435.95703125,-60884.2578125,75375.375,-53.876419067382805
