# point,freq,zreal,reflected_zimag,zimag,zmod,zphz,zsig,Idc,Vdc,ie_range,gain,vmod,vphz,vsig,vthd,imod,iphz,isig,ithd,zreal_drift,zimag_drift,zmod_drift,zphz_drift
0.0,250019.53125,4247.6474609375,-558.9525146484375,558.9525146484375,4284.26611328125,7.496541023254394,1.0,5.302460408529441e-07,0.3932417929172516,8.0,0.0414741188287735,0.016714565455913544,-66.114501953125,0.0034704785794019695,0.20244230329990384,3.901383479387732e-06,-73.61104583740233,9.999999747378752e-06,0.16487421095371246,4247.6474609375,558.9525146484375,4284.26611328125,7.496541023254394
1.0,198691.40625,4240.251953125,-453.3075256347656,453.3075256347656,4264.41357421875,6.10207462310791,1.0,5.110532015351056e-07,0.4629347622394562,8.0,0.04954887554049492,0.019876256585121155,126.42889404296876,0.003686175914481282,0.1759665310382843,4.660958893509815e-06,120.32682800292967,9.999999747378752e-06,0.14618492126464844,4240.251953125,453.3075256347656,4264.41357421875,6.10207462310791
2.0,157792.96875,4236.5966796875,-369.2213439941406,369.2213439941406,4252.6552734375,4.980769157409668,1.0,4.734913545689778e-07,0.47410792112350464,8.0,0.06051237508654594,0.02420727349817753,74.83128356933594,0.003950064070522785,0.15047715604305267,5.692272225132911e-06,69.85051727294922,9.999999747378752e-06,0.14045350253582,4236.5966796875,369.2213439941406,4252.6552734375,4.980769157409668
3.0,125332.03125,4195.3720703125,-255.8677673339844,255.8677673339844,4203.1669921875,3.4900379180908203,1.0,4.3904134372496633e-07,0.5221784114837646,8.0,0.07437039166688919,0.02940479852259159,145.95655822753906,0.004183490294963121,0.1357869654893875,6.99586689734133e-06,142.46652221679688,9.092111099562318e-07,0.12202372401952744,4195.3720703125,255.8677673339844,4203.1669921875,3.4900379180908203
4.0,99550.78125,4177.96435546875,-159.29673767089844,159.29673767089844,4181.0,2.183506488800049,1.0,3.334440066282696e-07,0.5595453381538391,8.0,0.08992896974086761,0.03536887839436531,59.97693634033203,0.001907268073409796,0.04709213227033615,8.459429409413133e-06,57.79342651367188,9.999999747378752e-06,0.045584443956613534,4177.96435546875,159.29673767089844,4181.0,2.183506488800049
5.0,79160.15625,4178.0244140625,-89.72001647949217,89.72001647949217,4178.98779296875,1.2301958799362183,1.0,2.9846466986782616e-07,0.5824981927871704,8.0,0.1134919673204422,0.04461466893553734,-7.563748836517334,0.0028253726195544004,0.05979378148913384,1.0675951671146322e-05,-8.7939453125,9.999999747378752e-06,0.058246493339538574,4178.0244140625,89.72001647949217,4178.98779296875,1.2301958799362183
6.0,62871.09375,4185.921875,-29.310531616210938,29.310531616210938,4186.0244140625,0.4011881649494171,1.0,2.981961415571277e-07,0.6069709658622742,8.0,0.1520206183195114,0.05607110634446144,-81.58951568603516,0.004040951374918222,0.0706486627459526,1.3394835150393192e-05,-81.9906997680664,9.72740508586867e-07,0.0703125074505806,4185.921875,29.310531616210938,4186.0244140625,0.4011881649494171
7.0,49980.46875,4196.79150390625,24.52399253845215,-24.52399253845215,4196.86328125,-0.33480465412139887,1.0,2.211987037981089e-07,0.6117584705352783,8.0,0.24099528789520264,0.06653204560279846,-129.01112365722656,0.004556085448712111,0.0676102414727211,1.585280188010074e-05,-128.67633056640625,1.0823023330885917e-06,0.06729255616664886,4196.79150390625,-24.52399253845215,4196.86328125,-0.33480465412139887
8.0,39667.96875,4205.72900390625,77.92254638671875,-77.92254638671875,4206.45068359375,-1.0614384412765503,1.0,1.9431057296515067e-07,0.601021409034729,8.0,0.40848243236541754,0.07129853963851929,-98.39437103271484,0.0026474345941096544,0.03547035530209541,1.6949810742517e-05,-97.33293151855469,9.999999747378752e-06,0.037383276969194405,4205.72900390625,-77.92254638671875,4206.45068359375,-1.0614384412765503
9.0,31582.03125,4223.37353515625,127.43258666992188,-127.43258666992188,4225.2958984375,-1.7282711267471311,1.0,1.5921384033390498e-07,0.5802901983261108,8.0,0.5610872507095337,0.05803822726011276,-40.404884338378906,0.0008890876197256147,0.004050335381180048,1.373589657305274e-05,-38.67661285400391,9.999999747378752e-06,0.01348180416971445,4223.37353515625,-127.43258666992188,4225.2958984375,-1.7282711267471311
10.0,25019.53125,4241.22265625,178.6657562255859,-178.6657562255859,4244.984375,-2.4122159481048584,1.0,1.567124456869351e-07,0.5830059051513672,8.0,0.6484216451644897,0.04905724897980689,110.53392791748045,0.0008427627035416663,0.016026863828301426,1.1556520803424064e-05,112.9461441040039,9.999999747378752e-06,0.01610047183930874,4241.22265625,-178.6657562255859,4244.984375,-2.4122159481048584
11.0,19863.28125,4255.68408203125,240.76298522949216,-240.76298522949216,4262.4892578125,-3.238025665283203,1.0,1.643938958295621e-07,0.5851377844810486,8.0,0.7275351881980896,0.04782553389668465,166.4653778076172,0.0006308094598352909,0.0016843589255586267,1.1220094165764747e-05,169.70338439941406,9.999999747378752e-06,0.0032008951529860497,4255.68408203125,-240.76298522949216,4262.4892578125,-3.238025665283203
12.0,15682.8701171875,4281.3818359375,304.9891967773437,-304.9891967773437,4292.23095703125,-4.074647903442383,1.0,1.7823133191541274e-07,0.591805100440979,8.0,0.7960814833641052,0.04696633294224739,118.4707260131836,0.0004890130949206649,0.0011701814364641905,1.094217168429168e-05,122.54537200927734,9.999999747378752e-06,0.002741050207987428,4281.3818359375,-304.9891967773437,4292.23095703125,-4.074647903442383
13.0,12597.65625,4299.09814453125,356.7261962890625,-356.7261962890625,4313.87255859375,-4.743364334106444,1.0,1.5788941709615758e-07,0.5975770950317383,8.0,0.8489359021186829,0.04600284621119499,24.528751373291012,0.0007960631628520786,0.0016154254553839564,1.0663931789167693e-05,29.272117614746094,9.999999747378752e-06,0.0032292085234075785,4299.09814453125,-356.7261962890625,4313.87255859375,-4.743364334106444
14.0,9895.8330078125,4346.1669921875,459.2628784179688,-459.2628784179688,4370.36474609375,-6.0321044921875,1.0,1.6852823137014639e-07,0.5991815328598022,8.0,0.8892695307731628,0.045780044049024575,-20.94123649597168,0.0008027735748328269,0.01426901388913393,1.0475107956153806e-05,-14.90913200378418,9.999999747378752e-06,0.0030648999381810422,4346.1669921875,-459.2628784179688,4370.36474609375,-6.0321044921875
15.0,7910.15625,4381.2822265625,545.78271484375,-545.78271484375,4415.1455078125,-7.100839138031006,1.0,1.8592591288779658e-07,0.6047313213348389,8.0,0.9196065068244934,0.04565766081213951,4.783388614654541,0.0008064774447120726,0.0018460141727700827,1.0341144843550865e-05,11.884227752685547,9.999999747378752e-06,0.003361921058967709,4381.2822265625,-545.78271484375,4415.1455078125,-7.100839138031006
16.0,6307.87060546875,4423.0390625,646.2286987304688,-646.2286987304688,4469.99853515625,-8.31239318847656,1.0,1.7980293876007638e-07,0.6085465550422668,8.0,0.9410790205001832,0.04574371501803398,67.4019775390625,0.0007146276184357703,0.0018269428983330729,1.023349705064902e-05,75.71437072753906,9.999999747378752e-06,0.002127898158505559,4423.0390625,-646.2286987304688,4469.99853515625,-8.31239318847656
17.0,4973.3232421875,4488.2744140625,776.6236572265626,-776.6236572265626,4554.97021484375,-9.81690788269043,1.0,1.6996162344184998e-07,0.6147925853729248,8.0,0.928763210773468,0.0449535958468914,-36.1495475769043,0.000501766917295754,0.0007837464800104499,9.86913073575124e-06,-26.332637786865234,9.999999747378752e-06,0.0004718862473964691,4488.2744140625,-776.6236572265626,4554.97021484375,-9.81690788269043
18.0,3944.3598632812495,4555.47509765625,909.2128295898435,-909.2128295898435,4645.32275390625,-11.287168502807615,1.0,1.709136796534949e-07,0.6217697262763977,8.0,0.9547973275184632,0.04775534942746162,66.16789245605469,0.0002652046096045524,0.0005712927086278796,1.0280309652443975e-05,77.45506286621092,9.999999747378752e-06,0.0007982003153301774,4555.47509765625,-909.2128295898435,4645.32275390625,-11.287168502807615
19.0,3144.054931640625,4633.7138671875,1060.0947265625,-1060.0947265625,4753.4306640625,-12.886283874511719,1.0,1.7611401403883065e-07,0.6276195049285889,8.0,0.9690194725990297,0.04824235662817955,108.59625244140624,0.0005208841757848859,0.011663989163935184,1.0148954970645718e-05,121.48253631591795,9.999999747378752e-06,0.0009009919012896717,4633.7138671875,-1060.0947265625,4753.4306640625,-12.886283874511719
20.0,2488.426025390625,4726.72705078125,1241.4967041015625,-1241.4967041015625,4887.05029296875,-14.716591835021973,1.0,1.7310132705006254e-07,0.6344735622406006,8.0,0.9782330393791199,0.04933516308665276,166.5248260498047,0.000748680206015706,0.012761037796735764,1.0095081051986197e-05,-178.7585906982422,9.999999747378752e-06,0.0009812792995944621,4726.72705078125,-1241.4967041015625,4887.05029296875,-14.716591835021973
21.0,1976.6566162109373,4831.58837890625,1447.4117431640625,-1447.4117431640625,5043.7333984375,-16.67677879333496,1.0,1.6499265598213242e-07,0.6405146718025208,8.0,0.9833254814147949,0.05069989711046218,-120.32622528076172,0.0003300867974758148,0.0012533179251477122,1.005205740511883e-05,-103.64944458007812,9.999999747378752e-06,0.0010667665628716347,4831.58837890625,-1447.4117431640625,5043.7333984375,-16.67677879333496
22.0,1582.03125,4948.80078125,1680.9581298828125,-1680.9581298828125,5226.4951171875,-18.76107406616211,1.0,1.6316347739575576e-07,0.6438841819763184,8.0,0.988398790359497,0.05253460258245468,117.36654663085936,0.0006795710069127381,0.0018983338959515093,1.0051593562820926e-05,136.1276092529297,9.999999747378752e-06,0.0012945723719894886,4948.80078125,-1680.9581298828125,5226.4951171875,-18.76107406616211
23.0,1253.6336669921875,5091.052734375,1962.2611083984373,-1962.2611083984373,5456.12353515625,-21.07832336425781,1.0,1.743696884659585e-07,0.6491371393203735,8.0,0.9902800917625427,0.05466508492827416,149.99205017089844,0.00048583370517008007,0.002705252729356289,1.0019033652497455e-05,171.07037353515625,9.999999747378752e-06,0.0011557993711903691,5091.052734375,-1962.2611083984373,5456.12353515625,-21.07832336425781
24.0,996.09375,5253.46044921875,2281.531005859375,-2281.531005859375,5727.49755859375,-23.474876403808597,1.0,1.8363905951446213e-07,0.6555647850036621,8.0,0.992300033569336,0.057391807436943054,-13.581840515136719,0.0005537203978747129,0.00340853538364172,1.0020397894550113e-05,9.893034934997559,9.999999747378752e-06,0.0015178811736404896,5253.46044921875,-2281.531005859375,5727.49755859375,-23.474876403808597
25.0,790.028076171875,5436.96923828125,2645.635986328125,-2645.635986328125,6046.48876953125,-25.94761276245117,1.0,1.7644669014771353e-07,0.6649705767631531,8.0,0.9938356876373293,0.06055845692753792,-136.0156707763672,0.0005552253569476305,0.004863318521529436,1.001547570922412e-05,-110.0680694580078,9.999999747378752e-06,0.001151885255239904,5436.96923828125,-2645.635986328125,6046.48876953125,-25.94761276245117
26.0,628.8109741210938,5658.283203125,3110.025146484375,-3110.025146484375,6456.6572265625,-28.795005798339844,1.0,1.7353166015254828e-07,0.6635425686836243,8.0,0.9967938065528867,0.06475875526666641,73.76869201660156,0.0006702093523927033,0.006716442760080099,1.0029764780483674e-05,102.56369018554688,9.999999747378752e-06,0.001456339959986508,5658.283203125,-3110.025146484375,6456.6572265625,-28.795005798339844
27.0,496.3235168457031,5636.22900390625,3845.2021484375,-3845.2021484375,6822.95068359375,-34.3029670715332,1.0,1.6255344803539629e-07,0.6652314066886902,8.0,0.9678764939308167,0.06625013798475266,101.30305480957033,0.00036310532595962286,0.0057854121550917625,9.709896403364835e-06,135.60601806640625,9.999999747378752e-06,0.00039213389391079545,5636.22900390625,-3845.2021484375,6822.95068359375,-34.3029670715332
28.0,395.3313293457031,5993.625,4500.42138671875,-4500.42138671875,7495.15380859375,-36.901714324951165,1.0,1.685592678768444e-07,0.6610925793647766,8.0,0.9895077347755432,0.07662664353847502,63.92272186279297,0.0010440545156598091,0.009754336439073084,1.0223491699434817e-05,100.8244400024414,9.999999747378752e-06,0.000618200923781842,5993.625,-4500.42138671875,7495.15380859375,-36.901714324951165
29.0,315.5048217773437,6346.400390625,5160.21875,-5160.21875,8179.52685546875,-39.11434555053711,1.0,1.5414789800161088e-07,0.6705621480941772,8.0,0.9972825646400452,0.08243796229362486,-171.45855712890625,0.001231979113072157,0.013829465955495834,1.0078572813654318e-05,-132.34420776367188,9.999999747378752e-06,0.0009438267443329098,6346.400390625,-5160.21875,8179.52685546875,-39.11434555053711
30.0,249.33511352539065,6758.85498046875,5950.20458984375,-5950.20458984375,9004.8349609375,-41.35929870605469,1.0,1.5511344031438057e-07,0.6818537712097168,8.0,0.9991607666015624,0.0902179479598999,50.71369934082031,0.001718860934488475,0.01877108961343765,1.0018833563663064e-05,92.07299804687501,9.999999747378752e-06,0.0013281707651913166,6758.85498046875,-5950.20458984375,9004.8349609375,-41.35929870605469
31.0,198.6228790283203,7219.08544921875,6862.87353515625,-6862.87353515625,9960.6337890625,-43.550975799560554,1.0,1.6077972020411835e-07,0.6900516748428345,8.0,0.998506486415863,0.09954112023115158,34.5378303527832,0.00238454295322299,0.02402914129197597,9.993451385525985e-06,78.08880615234375,9.999999747378752e-06,0.001202021725475788,7219.08544921875,-6862.87353515625,9960.6337890625,-43.550975799560554
32.0,158.005615234375,7883.12353515625,8239.3037109375,-8239.3037109375,11403.0595703125,-46.26558303833008,1.0,1.4629048905590025e-07,0.6732142567634584,8.0,0.9936781525611875,0.11347918957471848,89.60025787353516,0.0035358103923499584,0.030399851500988007,9.95164464256959e-06,135.8658447265625,9.999999747378752e-06,0.001564503414556384,7883.12353515625,-8239.3037109375,11403.0595703125,-46.26558303833008
33.0,125.5580368041992,8530.3408203125,9535.044921875,-9535.044921875,12793.896484375,-48.18321990966797,1.0,1.498471675631663e-07,0.6811847686767578,8.0,0.9854781031608579,0.12688319385051727,-147.09341430664062,0.004852100741118193,0.03769906237721443,9.917477655108087e-06,-98.91018676757811,9.999999747378752e-06,0.001387513824738562,8530.3408203125,-9535.044921875,12793.896484375,-48.18321990966797
34.0,99.73403930664062,9166.1396484375,10397.9580078125,-10397.9580078125,13861.30078125,-48.60276794433594,1.0,1.414075967431927e-07,0.7257610559463502,8.0,0.9913161396980285,0.13943415880203247,-145.47247314453125,0.006785004399716854,0.04733741655945778,1.0059240594273431e-05,-96.86969757080078,9.999999747378752e-06,0.0012146098306402564,9166.1396484375,-10397.9580078125,13861.30078125,-48.60276794433594
35.0,78.78150939941406,10092.06640625,12128.1123046875,-12128.1123046875,15777.861328125,-50.23542022705078,1.0,1.4449021534801434e-07,0.7292293906211853,8.0,0.9919881820678712,0.1578855663537979,-145.11080932617188,0.009255251847207546,0.057123403996229165,1.0006779120885769e-05,-94.87539672851561,9.999999747378752e-06,0.0010509800631552935,10092.06640625,-12128.1123046875,15777.861328125,-50.23542022705078
36.0,62.919464111328125,11149.2890625,14002.1279296875,-14002.1279296875,17898.77734375,-51.471206665039055,1.0,1.3985426505769283e-07,0.7302130460739135,8.0,0.9927674531936643,0.17912837862968445,-144.8132171630859,0.01234576292335987,0.06720689684152603,1.0007855962612666e-05,-93.34202575683592,9.999999747378752e-06,0.0013980779331177473,11149.2890625,-14002.1279296875,17898.77734375,-51.471206665039055
37.0,49.86701965332031,12434.3837890625,16248.224609375,-16248.224609375,20460.173828125,-52.574024200439446,1.0,1.4984080110025388e-07,0.7324466109275818,8.0,0.992919683456421,0.20463311672210693,-146.0711212158203,0.01637520082294941,0.07903704047203064,1.000153315544594e-05,-93.49710083007811,9.999999747378752e-06,0.0013373256660997868,12434.3837890625,-16248.224609375,20460.173828125,-52.574024200439446
38.0,39.72457504272461,13912.7490234375,18689.60546875,-18689.60546875,23299.482421875,-53.33559417724609,1.0,1.4303310535979108e-07,0.7335181832313538,8.0,0.9937341213226318,0.23318596184253687,-145.86817932128906,0.021635353565216064,0.09170834720134736,1.000820248009404e-05,-92.5325927734375,9.999999747378752e-06,0.0015328942099586127,13912.7490234375,-18689.60546875,23299.482421875,-53.33559417724609
39.0,31.459732055664062,15765.47265625,21623.525390625,-21623.525390625,26760.548828125,-53.90462493896484,1.0,1.2696580142801395e-07,0.7293987274169923,8.0,0.9943909645080566,0.26778239011764526,-145.6520233154297,0.028710912913084034,0.10591377317905426,1.0006609954871236e-05,-91.74740600585936,9.999999747378752e-06,0.0016348687931895256,15765.47265625,-21623.525390625,26760.548828125,-53.90462493896484
40.0,24.93350982666016,17795.47265625,24579.283203125,-24579.283203125,30345.015625,-54.09535217285156,1.0,1.4811864446073741e-07,0.7346592545509337,8.0,0.9951800107955933,0.30369094014167786,-145.21250915527344,0.0373544842004776,0.12151730060577393,1.000793508865172e-05,-91.1171646118164,9.999999747378752e-06,0.0013715313980355859,17795.47265625,-24579.283203125,30345.015625,-54.09535217285156
41.0,19.862287521362305,20282.15625,28111.697265625,-28111.697265625,34664.5859375,-54.190135955810554,1.0,1.3127801423706842e-07,0.7291804552078246,8.0,0.9954988360404968,0.34675690531730646,-144.80801391601562,0.048276770859956734,0.13754521310329437,1.0003203897213096e-05,-90.61787414550781,9.999999747378752e-06,0.0015597607707604764,20282.15625,-28111.697265625,34664.5859375,-54.190135955810554
42.0,15.782828330993652,23368.048828125,32379.646484375,-32379.646484375,39931.28125,-54.18241500854492,1.0,1.3192035908105026e-07,0.7152915000915527,8.0,0.995961844921112,0.3994985520839691,-144.4183349609375,0.06186037883162498,0.15298874676227567,1.0004650903283618e-05,-90.23592376708984,9.999999747378752e-06,0.0016533752204850316,23368.048828125,-32379.646484375,39931.28125,-54.18241500854492
43.0,12.466754913330078,27326.015625,37535.2109375,-37535.2109375,46428.47265625,-53.94500350952149,1.0,1.1769115815241094e-07,0.6913911104202272,8.0,0.996312379837036,0.4644481539726257,-143.86170959472656,0.07893729954957962,0.16792988777160645,1.0003519491874611e-05,-89.91670989990233,9.999999747378752e-06,0.0016695884987711906,27326.015625,-37535.2109375,46428.47265625,-53.94500350952149
44.0,9.973403930664062,31846.84375,43230.8203125,-43230.8203125,53694.7421875,-53.62204360961913,1.0,1.3333574599982967e-07,0.6571575403213501,8.0,0.9965507388114928,0.537075936794281,-143.30043029785156,0.09587520360946657,0.1763912737369537,1.0002392627939116e-05,-89.67839050292967,9.999999747378752e-06,0.0017732300329953432,31846.84375,-43230.8203125,53694.7421875,-53.62204360961913
45.0,7.878151416778564,37287.38671875,49581.99609375,-49581.99609375,62038.08203125,-53.055561065673835,1.0,1.2674087201958173e-07,0.6116682887077332,8.0,0.9969523549079896,0.6206308007240297,-142.53822326660156,0.11062876135110856,0.17613309621810913,1.0004029718402307e-05,-89.48265838623047,9.999999747378752e-06,0.0015433419030159712,37287.38671875,-49581.99609375,62038.08203125,-53.055561065673835
46.0,6.275100231170654,42797.3671875,55611.9453125,-55611.9453125,70173.375,-52.419143676757805,1.0,1.4715426743805438e-07,0.5609737634658812,8.0,0.9972789883613585,0.7019637227058411,-141.7470550537109,0.11873016506433486,0.16713255643844604,1.000327665678924e-05,-89.3279037475586,9.999999747378752e-06,0.0012947299983352423,42797.3671875,-55611.9453125,70173.375,-52.419143676757805
47.0,5.013369083404541,48116.4375,61138.26171875,-61138.26171875,77801.53125,-51.79689407348633,1.0,1.6384932166602084e-07,0.510814905166626,8.0,0.9976437091827391,0.7782998085021972,-140.9824676513672,0.12276941537857056,0.15587323904037476,1.000365682557458e-05,-89.18556976318358,9.999999747378752e-06,0.001131033175624907,48116.4375,-61138.26171875,77801.53125,-51.79689407348633
