# point,freq,zreal,reflected_zimag,zimag,zmod,zphz,zsig,Idc,Vdc,ie_range,gain,vmod,vphz,vsig,vthd,imod,iphz,isig,ithd,zreal_drift,zimag_drift,zmod_drift,zphz_drift
0.0,250019.53125,4256.81298828125,-591.3487548828125,591.3487548828125,4297.69140625,7.908810138702392,1.0,2.5950484427994525e-07,0.0465652272105217,8.0,0.10004428029060364,0.0042995945550501355,125.06085968017578,0.001194078824482858,0.264151394367218,1.0004428077081684e-06,117.15204620361328,9.999999747378752e-06,0.06948982179164886,4256.81298828125,591.3487548828125,4297.69140625,7.908810138702392
1.0,198691.40625,4196.19482421875,-464.3414306640625,464.3414306640625,4221.80810546875,6.314530849456787,1.0,4.677550009546394e-07,0.23588675260543823,8.0,0.050050970166921616,0.019877074286341667,119.94047546386717,0.0038481280207633968,0.17914971709251404,4.708189862867584e-06,113.62594604492188,9.999999747378752e-06,0.14565657079219818,4196.19482421875,464.3414306640625,4221.80810546875,6.314530849456787
2.0,157792.96875,4145.416015625,-324.64404296875,324.64404296875,4158.10888671875,4.477921009063721,1.0,4.6543632947759766e-07,0.3556411862373352,8.0,0.06110096350312233,0.02389930747449398,-121.85075378417967,0.003882787888869643,0.1532013863325119,5.747639534092741e-06,-126.32868194580078,9.999999747378752e-06,0.13357616961002347,4145.416015625,324.64404296875,4158.10888671875,4.477921009063721
3.0,125332.03125,4173.19140625,-257.44244384765625,257.44244384765625,4181.12451171875,3.5300793647766118,1.0,4.438034864051588e-07,0.41673269867897034,8.0,0.07480528205633163,0.02942163683474064,28.49905204772949,0.004087340086698532,0.13397333025932312,7.036775969027076e-06,24.968971252441406,9.999999747378752e-06,0.12112545222043992,4173.19140625,257.44244384765625,4181.12451171875,3.5300793647766118
4.0,99550.78125,4151.61669921875,-151.46817016601562,151.46817016601562,4154.37890625,2.089460611343384,1.0,3.2692310014681425e-07,0.4319498538970947,8.0,0.09053244441747664,0.03537951037287712,49.68107604980469,0.002111978596076369,0.04695767164230347,8.516197340213692e-06,47.59161376953125,9.999999747378752e-06,0.0451405830681324,4151.61669921875,151.46817016601562,4154.37890625,2.089460611343384
5.0,79160.15625,4159.806640625,-81.48703002929686,81.48703002929686,4160.60498046875,1.1222314834594727,1.0,2.9585615379801316e-07,0.4768244326114655,8.0,0.11400958150625227,0.044620998203754425,-98.9946517944336,0.002773076528683305,0.05991320312023162,1.0724642379500436e-05,-100.11688995361328,9.999999747378752e-06,0.05860642343759537,4159.806640625,81.48703002929686,4160.60498046875,1.1222314834594727
6.0,62871.09375,4164.494140625,-24.24714469909668,24.24714469909668,4164.56494140625,0.3335923254489898,1.0,2.8079207936571043e-07,0.4831218719482422,8.0,0.1534971296787262,0.05606973916292191,-128.7262725830078,0.004064468666911125,0.07001428306102753,1.34635292852181e-05,-129.0598602294922,9.510439440418849e-07,0.06965107470750809,4164.494140625,24.24714469909668,4164.56494140625,0.3335923254489898
7.0,49980.46875,4172.07373046875,30.863327026367188,-30.863327026367188,4172.18798828125,-0.4238434433937073,1.0,2.494159616617253e-07,0.5113517045974731,8.0,0.2439904361963272,0.06631875783205032,161.44203186035156,0.004387608263641596,0.0655025765299797,1.5895438991719857e-05,161.86587524414062,1.0614190841806703e-06,0.06590601801872253,4172.07373046875,-30.863327026367188,4172.18798828125,-0.4238434433937073
8.0,39667.96875,4184.6005859375,84.69415283203125,-84.69415283203125,4185.45751953125,-1.1594786643981931,1.0,2.006450188218878e-07,0.5002654790878296,8.0,0.41266420483589167,0.07078918814659119,-159.4405975341797,0.0025844334159046407,0.034576158970594406,1.69131308211945e-05,-158.28111267089844,9.999999747378752e-06,0.034929484128952026,4184.6005859375,-84.69415283203125,4185.45751953125,-1.1594786643981931
9.0,31582.03125,4195.4189453125,149.8142852783203,-149.8142852783203,4198.0927734375,-2.045106887817383,1.0,1.847523805054152e-07,0.5044618248939513,8.0,0.5633822679519653,0.0573137030005455,-16.700088500976562,0.0007482820656150579,0.003172360360622406,1.3652317647938617e-05,-14.654982566833496,9.999999747378752e-06,0.01013681385666132,4195.4189453125,-149.8142852783203,4198.0927734375,-2.045106887817383
10.0,25019.53125,4211.73291015625,191.14260864257807,-191.14260864257807,4216.06787109375,-2.59849214553833,1.0,1.8285138025930794e-07,0.5087091326713562,8.0,0.6496285200119019,0.04861491173505783,155.6154632568359,0.0008965646848082542,0.01826101914048195,1.1530864867381752e-05,158.21395874023435,9.999999747378752e-06,0.015372277237474918,4211.73291015625,-191.14260864257807,4216.06787109375,-2.59849214553833
11.0,19863.28125,4228.5166015625,260.4867553710937,-260.4867553710937,4236.5322265625,-3.5251026153564453,1.0,1.7179841904635398e-07,0.5169242024421692,8.0,0.7278325557708739,0.04746536538004875,156.8818359375,0.0007961380761116742,0.0011889926390722392,1.1203826943528838e-05,160.4069366455078,9.999999747378752e-06,0.0022654975764453407,4228.5166015625,-260.4867553710937,4236.5322265625,-3.5251026153564453
12.0,15682.8701171875,4255.27978515625,329.31594848632807,-329.31594848632807,4268.00341796875,-4.425297737121582,1.0,1.7490225445726537e-07,0.5245051383972168,8.0,0.7962658405303955,0.04669296741485596,58.1267967224121,0.0008722348720766605,0.0013646105071529746,1.0940234460576905e-05,62.55209732055664,9.999999747378752e-06,0.0033496061805635686,4255.27978515625,-329.31594848632807,4268.00341796875,-4.425297737121582
13.0,12597.65625,4320.71044921875,407.3873596191406,-407.3873596191406,4339.87353515625,-5.386330127716064,1.0,1.7235592508768605e-07,0.5322504639625549,8.0,0.839292287826538,0.045743800699710846,8.301878929138182,0.0008714828873053193,0.0016096428735181687,1.054035237757489e-05,13.688208580017088,9.999999747378752e-06,0.0021229416597634554,4320.71044921875,-407.3873596191406,4339.87353515625,-5.386330127716064
14.0,9895.8330078125,4317.01513671875,499.8667602539063,-499.8667602539063,4345.8583984375,-6.6048598289489755,1.0,1.446357487111527e-07,0.5400887727737427,8.0,0.8891707062721251,0.04604129493236542,-16.570756912231445,0.000737934955395758,0.01611950993537903,1.0594291779852936e-05,-9.965896606445312,9.999999747378752e-06,0.0032516971696168184,4317.01513671875,-499.8667602539063,4345.8583984375,-6.6048598289489755
15.0,7910.15625,4356.05810546875,595.0845947265625,-595.0845947265625,4396.517578125,-7.779068946838379,1.0,1.3680734411991582e-07,0.5474076867103577,8.0,0.9171549677848818,0.045348864048719406,-3.4323141574859615,0.0008108997717499733,0.0012420543935149908,1.031472311296966e-05,4.34675407409668,9.999999747378752e-06,0.00318532669916749,4356.05810546875,-595.0845947265625,4396.517578125,-7.779068946838379
16.0,6307.87060546875,4400.02880859375,713.3809204101562,-713.3809204101562,4457.484375,-9.209284782409668,1.0,1.1774030639344347e-07,0.5520675778388977,8.0,0.9384895563125609,0.04561172798275948,58.308841705322266,0.0005668060039170086,0.0014606565237045288,1.0232616659777705e-05,67.51812744140625,9.999999747378752e-06,0.002243179362267256,4400.02880859375,-713.3809204101562,4457.484375,-9.209284782409668
17.0,4973.3232421875,4461.12353515625,867.5403442382812,-867.5403442382812,4544.69482421875,-11.004774093627928,1.0,1.196428058847232e-07,0.5563261508941649,8.0,0.9249824285507202,0.04479285702109337,-29.01306915283203,0.0006717195501551032,0.0005570920184254646,9.856075848801993e-06,-18.0082950592041,9.999999747378752e-06,0.0004663491272367537,4461.12353515625,-867.5403442382812,4544.69482421875,-11.004774093627928
18.0,3944.3598632812495,4528.23095703125,1031.3380126953125,-1031.3380126953125,4644.193359375,-12.830668449401855,1.0,1.2813960381663494e-07,0.5615586042404175,8.0,0.9511722922325134,0.04775688424706459,70.21011352539062,0.0005310830310918391,0.0006332911434583366,1.028313909046119e-05,83.04077911376953,9.999999747378752e-06,0.0007088217535056174,4528.23095703125,-1031.3380126953125,4644.193359375,-12.830668449401855
19.0,3144.054931640625,4607.38525390625,1224.113037109375,-1224.113037109375,4767.2265625,-14.87889289855957,1.0,1.3728191561312997e-07,0.560595691204071,8.0,0.9654875993728637,0.0483897477388382,112.2033920288086,0.0006831576465629041,0.01229516603052616,1.0150502021133434e-05,127.08228302001952,9.999999747378752e-06,0.0009605706436559557,4607.38525390625,-1224.113037109375,4767.2265625,-14.87889289855957
20.0,2488.426025390625,4705.77978515625,1458.851806640625,-1458.851806640625,4926.72412109375,-17.224103927612305,1.0,1.4242047541301872e-07,0.5630674958229065,8.0,0.97477388381958,0.04974111169576645,160.60020446777344,0.0005742237553931773,0.012480364181101322,1.0096182450070044e-05,177.82431030273435,9.999999747378752e-06,0.0012032851809635758,4705.77978515625,-1458.851806640625,4926.72412109375,-17.224103927612305
21.0,1976.6566162109373,4819.7802734375,1732.5413818359375,-1732.5413818359375,5121.716796875,-19.771726608276367,1.0,1.6241685329987376e-07,0.5665510892868042,8.0,0.979552686214447,0.05146825686097145,-124.50794219970705,0.0005887789302505553,0.0010638218373060226,1.0049024240288416e-05,-104.73621368408205,9.999999747378752e-06,0.0009687690180726348,4819.7802734375,-1732.5413818359375,5121.716796875,-19.771726608276367
22.0,1582.03125,4957.41552734375,2042.4564208984373,-2042.4564208984373,5361.6787109375,-22.391674041748047,1.0,1.7269059071622905e-07,0.5694785714149475,8.0,0.9836986064910888,0.05384371429681777,112.90506744384764,0.0005848174332641065,0.0015775745268911123,1.0042324902315158e-05,135.29673767089844,9.999999747378752e-06,0.0012914768885821104,4957.41552734375,-2042.4564208984373,5361.6787109375,-22.391674041748047
23.0,1253.6336669921875,5125.3759765625,2408.93798828125,-2408.93798828125,5663.25537109375,-25.173627853393555,1.0,1.7400773799636227e-07,0.5781095027923584,8.0,0.9869851469993592,0.056821763515472405,141.39749145507812,0.0005403180257417262,0.0019148169085383413,1.003341003524838e-05,166.57110595703125,9.999999747378752e-06,0.0013483809307217596,5125.3759765625,-2408.93798828125,5663.25537109375,-25.173627853393555
24.0,996.09375,5324.5517578125,2842.290771484375,-2842.290771484375,6035.68310546875,-28.093677520751957,1.0,1.8125254541701002e-07,0.5838479995727539,8.0,0.9884969592094419,0.0604492761194706,-21.62384605407715,0.0007571508758701384,0.002875895705074072,1.0015317457146011e-05,6.4698333740234375,9.999999747378752e-06,0.0017536632949486375,5324.5517578125,-2842.290771484375,6035.68310546875,-28.093677520751957
25.0,790.028076171875,5563.4501953125,3365.898193359375,-3365.898193359375,6502.4033203125,-31.17401885986328,1.0,1.9281415575278518e-07,0.5845359563827515,8.0,0.9896183609962464,0.06509780138731003,-143.2080841064453,0.0007490781717933713,0.003853389294818044,1.0011344784288669e-05,-112.0340576171875,9.999999747378752e-06,0.0011743445647880435,5563.4501953125,-3365.898193359375,6502.4033203125,-31.17401885986328
26.0,628.8109741210938,5848.6376953125,3915.2768554687505,-3915.2768554687505,7038.17822265625,-33.79969787597656,1.0,1.9278807883438279e-07,0.5981422662734985,8.0,0.9927455186843872,0.07060418277978897,69.54812622070312,0.0006573687423951924,0.0055885007604956636,1.003159923129715e-05,103.34782409667967,9.999999747378752e-06,0.0012472446542233229,5848.6376953125,-3915.2768554687505,7038.17822265625,-33.79969787597656
27.0,496.3235168457031,5863.5068359375,4780.7236328125,-4780.7236328125,7565.44970703125,-39.19157409667969,1.0,1.983533479688049e-07,0.6040358543395996,8.0,0.9644765853881838,0.07350020110607147,97.5011749267578,0.0007828505476936699,0.0052369204349815845,9.715245141705965e-06,136.6927490234375,9.999999747378752e-06,0.00036916832323186094,5863.5068359375,-4780.7236328125,7565.44970703125,-39.19157409667969
28.0,395.3313293457031,6309.36083984375,5543.9296875,-5543.9296875,8398.9990234375,-41.30523300170898,1.0,2.040982565176819e-07,0.6090939044952393,8.0,0.9847169518470765,0.08575259894132614,58.358646392822266,0.0010878376197069883,0.009263148531317713,1.020985837385524e-05,99.66387176513673,9.999999747378752e-06,0.0008039549575187267,6309.36083984375,-5543.9296875,8398.9990234375,-41.30523300170898
29.0,315.5048217773437,6793.17578125,6342.25537109375,-6342.25537109375,9293.6240234375,-43.033889770507805,1.0,1.901303221529816e-07,0.6214272975921631,8.0,0.9932673573493955,0.09374321252107619,-176.32650756835935,0.0013910875422880051,0.014364738948643208,1.0086831025546417e-05,-133.29261779785156,9.999999747378752e-06,0.0008705827058292924,6793.17578125,-6342.25537109375,9293.6240234375,-43.033889770507805
30.0,249.33511352539065,7361.39794921875,7312.45458984375,-7312.45458984375,10376.0380859375,-44.808895111083984,1.0,1.6831781124437842e-07,0.6305681467056273,8.0,0.9964031577110289,0.10408797115087508,47.74531936645508,0.002130439970642328,0.02048187516629696,1.0031571036961395e-05,92.5542221069336,9.999999747378752e-06,0.0011704418575391171,7361.39794921875,-7312.45458984375,10376.0380859375,-44.808895111083984
31.0,198.6228790283203,8055.837890625,8655.814453125,-8655.814453125,11824.5361328125,-47.056129455566406,1.0,1.6576181849359273e-07,0.6171095371246338,8.0,0.9946765303611756,0.11804045736789703,30.554588317871094,0.0031828109640628095,0.026420189067721367,9.982671144825872e-06,77.61072540283203,9.999999747378752e-06,0.0013279393315315247,8055.837890625,-8655.814453125,11824.5361328125,-47.056129455566406
32.0,158.005615234375,8851.9619140625,10151.0810546875,-10151.0810546875,13468.5439453125,-48.91086959838867,1.0,1.5124643937269866e-07,0.6105257868766785,8.0,0.9916403889656067,0.13427433371543884,86.6808395385742,0.004564894363284111,0.033440165221691125,9.96947619569255e-06,135.5917205810547,9.999999747378752e-06,0.001494477386586368,8851.9619140625,-10151.0810546875,13468.5439453125,-48.91086959838867
33.0,125.5580368041992,9665.98828125,11583.201171875,-11583.201171875,15086.48046875,-50.15556335449219,1.0,1.441514996258775e-07,0.6221994161605834,8.0,0.9837855100631712,0.1496697813272476,-149.05368041992188,0.006562598049640656,0.043305285274982445,9.920789125317242e-06,-98.89812469482419,9.999999747378752e-06,0.0016943105729296803,9665.98828125,-11583.201171875,15086.48046875,-50.15556335449219
34.0,99.73403930664062,10337.548828125,12324.384765625,-12324.384765625,16085.875,-50.01047134399414,1.0,1.6690268012098386e-07,0.6793265342712401,8.0,0.9893695116043091,0.16177178919315338,-146.9535369873047,0.009627037681639193,0.058093149214982986,1.0056760402221698e-05,-96.94306182861328,9.999999747378752e-06,0.0015119180316105485,10337.548828125,-12324.384765625,16085.875,-50.01047134399414
35.0,78.78150939941406,11374.3291015625,14197.2451171875,-14197.2451171875,18191.677734375,-51.29953002929688,1.0,1.6304170458170122e-07,0.6860109567642212,8.0,0.9906899929046631,0.1821595728397369,-146.21926879882812,0.013084106147289276,0.07010013610124588,1.0013346582127268e-05,-94.91974639892578,9.999999747378752e-06,0.0014061034889891744,11374.3291015625,-14197.2451171875,18191.677734375,-51.29953002929688
36.0,62.919464111328125,12480.6884765625,16251.9716796875,-16251.9716796875,20491.318359375,-52.477569580078125,1.0,1.5254509833084742e-07,0.6912714242935181,8.0,0.9913160800933837,0.20504269003868103,-145.84750366210935,0.017242450267076492,0.08205295354127885,1.0006319826061372e-05,-93.36993408203124,9.999999747378752e-06,0.0016373477410525084,12480.6884765625,-16251.9716796875,20491.318359375,-52.477569580078125
37.0,49.86701965332031,13908.765625,18610.0,-18610.0,23233.291015625,-53.22624969482422,1.0,1.653975090221138e-07,0.6968989372253418,8.0,0.9923936724662781,0.23258547484874725,-146.75662231445312,0.022502999752759933,0.09556403756141663,1.001087002805434e-05,-93.53036499023438,9.999999747378752e-06,0.001848408370278776,13908.765625,-18610.0,23233.291015625,-53.22624969482422
38.0,39.72457504272461,15470.0439453125,21182.451171875,-21182.451171875,26230.107421875,-53.85846328735352,1.0,1.6403843972057078e-07,0.7011646628379822,8.0,0.993138551712036,0.2624979317188263,-146.41661071777344,0.028861643746495247,0.10863503068685532,1.0007505807152484e-05,-92.55815124511719,9.999999747378752e-06,0.0021214548032730818,15470.0439453125,-21182.451171875,26230.107421875,-53.85846328735352
39.0,31.459732055664062,17230.123046875,23982.021484375,-23982.021484375,29529.890625,-54.30426788330078,1.0,1.7087275239191513e-07,0.708437979221344,8.0,0.993873655796051,0.2955175042152405,-146.069580078125,0.03673695772886276,0.12281521409749983,1.000740212475648e-05,-91.76531982421875,9.999999747378752e-06,0.0020382897928357124,17230.123046875,-23982.021484375,29529.890625,-54.30426788330078
40.0,24.93350982666016,19292.7890625,27021.744140625,-27021.744140625,33202.20703125,-54.47419738769531,1.0,1.783968599511354e-07,0.7150436043739319,8.0,0.994488775730133,0.33222752809524536,-145.60330200195312,0.0461168959736824,0.1371554136276245,1.0006188858824316e-05,-91.12909698486328,9.999999747378752e-06,0.002048666123300791,19292.7890625,-27021.744140625,33202.20703125,-54.47419738769531
41.0,19.862287521362305,21551.30859375,30317.150390625,-30317.150390625,37196.62109375,-54.59243011474609,1.0,1.816945598420716e-07,0.7187821865081787,8.0,0.9949576258659362,0.37214159965515137,-145.2310791015625,0.05660882592201233,0.15030556917190552,1.0004714567912742e-05,-90.6386489868164,9.999999747378752e-06,0.0020403864327818155,21551.30859375,-30317.150390625,37196.62109375,-54.59243011474609
42.0,15.782828330993652,24231.115234375,34067.140625,-34067.140625,41805.70703125,-54.576698303222656,1.0,1.710919406150424e-07,0.7188018560409546,8.0,0.9955423474311828,0.4183027446269989,-144.81719970703125,0.06923501193523407,0.16354160010814667,1.0005876902141608e-05,-90.24050903320312,9.999999747378752e-06,0.0018996139988303185,24231.115234375,-34067.140625,41805.70703125,-54.576698303222656
43.0,12.466754913330078,27790.359375,38825.83203125,-38825.83203125,47746.72265625,-54.406055450439446,1.0,1.513165841515729e-07,0.7021083831787108,8.0,0.996293365955353,0.47782737016677856,-144.3306427001953,0.08463236689567566,0.17501415312290192,1.0007544005929958e-05,-89.92459106445312,9.999999747378752e-06,0.0018827767344191673,27790.359375,-38825.83203125,47746.72265625,-54.406055450439446
44.0,9.973403930664062,31794.259765625,43940.74609375,-43940.74609375,54237.109375,-54.1115837097168,1.0,1.4366459311077054e-07,0.6780867576599121,8.0,0.9964908957481384,0.542478621006012,-143.79457092285156,0.09977151453495024,0.1817373484373093,1.0001982445828617e-05,-89.6829833984375,9.999999747378752e-06,0.0017933361232280731,31794.259765625,-43940.74609375,54237.109375,-54.1115837097168
45.0,7.878151416778564,36588.9609375,49675.29296875,-49675.29296875,61695.921875,-53.62603378295898,1.0,1.4098802125772636e-07,0.6450587511062622,8.0,0.997077703475952,0.6173225045204163,-143.10546875,0.11426386982202529,0.18289680778980252,1.0005888725572731e-05,-89.47943115234375,9.999999747378752e-06,0.001645705080591142,36588.9609375,-49675.29296875,61695.921875,-53.62603378295898
46.0,6.275100231170654,41598.65625,55334.57421875,-55334.57421875,69226.8984375,-53.06539535522461,1.0,1.0561703334133199e-07,0.6055858135223389,8.0,0.9974276423454285,0.6925119161605834,-142.3732147216797,0.12452420592308044,0.17768554389476776,1.0003509487432892e-05,-89.30781555175781,9.999999747378752e-06,0.001353150466457009,41598.65625,-55334.57421875,69226.8984375,-53.06539535522461
47.0,5.013369083404541,46890.38671875,60930.26953125,-60930.26953125,76884.3671875,-52.419036865234375,1.0,1.6075458120212718e-07,0.5554248094558716,8.0,0.9976193904876709,0.768991470336914,-141.6093292236328,0.13099615275859833,0.16832822561264038,1.00019224191783e-05,-89.19029998779295,9.999999747378752e-06,0.001317760907113552,46890.38671875,-60930.26953125,76884.3671875,-52.419036865234375
