# point,freq,zreal,reflected_zimag,zimag,zmod,zphz,zsig,Idc,Vdc,ie_range,gain,vmod,vphz,vsig,vthd,imod,iphz,isig,ithd,zreal_drift,zimag_drift,zmod_drift,zphz_drift
0.0,250019.53125,4328.47265625,154.7294158935547,-154.7294158935547,4331.2373046875,-2.047273874282837,1.0,5.277743184706196e-07,0.265258252620697,8.0,0.04039041325449944,0.016856495290994644,91.12037658691406,0.002911252900958061,0.16376075148582458,3.799441401497461e-06,83.59034729003906,9.999999747378752e-06,0.15951688587665555,4328.47265625,-154.7294158935547,4331.2373046875,-2.047273874282837
1.0,198691.40625,4299.58349609375,106.20809936523436,-106.20809936523436,4300.89501953125,-1.415029764175415,1.0,4.512466773576307e-07,0.35190898180007935,8.0,0.04858194291591644,0.01996587961912155,62.40634536743164,0.0040737371891736976,0.1820976883172989,4.570001692627557e-06,56.14821243286133,9.999999747378752e-06,0.14288015663623807,4299.58349609375,-106.20809936523436,4300.89501953125,-1.415029764175415
2.0,157792.96875,4358.75048828125,108.88011169433592,-108.88011169433592,4360.10986328125,-1.430931568145752,1.0,4.617181446064933e-07,0.45556336641311646,8.0,0.05870621278882027,0.02432756498456001,102.1027603149414,0.003940326627343893,0.14970310032367706,5.522370429389412e-06,97.4041519165039,9.999999747378752e-06,0.14092843234539032,4358.75048828125,-108.88011169433592,4360.10986328125,-1.430931568145752
3.0,125332.03125,4314.96435546875,112.0802993774414,-112.0802993774414,4316.419921875,-1.487911343574524,1.0,4.881875383944135e-07,0.5148963928222656,8.0,0.07232281565666199,0.029567440971732136,-171.99624633789062,0.004174997564405202,0.13416913151741028,6.803255928389262e-06,-175.39955139160156,9.999999747378752e-06,0.12366165965795516,4314.96435546875,-112.0802993774414,4316.419921875,-1.487911343574524
4.0,99550.78125,4315.01708984375,110.61225128173828,-110.61225128173828,4316.4345703125,-1.4684131145477295,1.0,3.169032538608008e-07,0.5706827640533447,8.0,0.08745861798524857,0.03552822023630142,76.68564605712889,0.001918640919029713,0.0472676157951355,8.22704896563664e-06,74.5009536743164,9.999999747378752e-06,0.04573509469628335,4315.01708984375,-110.61225128173828,4316.4345703125,-1.4684131145477295
5.0,79160.15625,4320.154296875,119.105224609375,-119.105224609375,4321.7958984375,-1.5792256593704224,1.0,2.9396395007097453e-07,0.5578946471214294,8.0,0.11033104360103609,0.04487361758947373,135.38990783691406,0.003057494526728988,0.06455551832914352,1.0378609658800997e-05,134.083984375,9.999999747378752e-06,0.058801330626010895,4320.154296875,-119.105224609375,4321.7958984375,-1.5792256593704224
6.0,62871.09375,4322.4873046875,135.32962036132812,-135.32962036132812,4324.60498046875,-1.7932463884353635,1.0,2.732887480760837e-07,0.6246145963668823,8.0,0.14364731311798096,0.05632826313376427,23.29373359680176,0.0041327462531626225,0.07076573371887207,1.3019664947933052e-05,22.80088806152344,9.386068882122346e-07,0.07009148597717285,4322.4873046875,-135.32962036132812,4324.60498046875,-1.7932463884353635
7.0,49980.46875,4333.46142578125,152.52154541015625,-152.52154541015625,4336.14453125,-2.0157637596130367,1.0,2.3654769165659675e-07,0.6427059769630432,8.0,0.2242722064256668,0.06772373616695404,-81.76858520507811,0.005045129451900721,0.073556549847126,1.5612697097822092e-05,-81.5707015991211,1.102613055081747e-06,0.0696525052189827,4333.46142578125,-152.52154541015625,4336.14453125,-2.0157637596130367
8.0,39667.96875,4343.689453125,174.39834594726562,-174.39834594726562,4347.18896484375,-2.299180269241333,1.0,1.8810919755196664e-07,0.6366809606552124,8.0,0.38203364610672,0.07407361268997192,-152.87924194335935,0.003164537250995636,0.04197720065712929,1.7034373740898445e-05,-152.0250701904297,9.999999747378752e-06,0.04339632391929626,4343.689453125,-174.39834594726562,4347.18896484375,-2.299180269241333
9.0,31582.03125,4352.87939453125,200.53111267089844,-200.53111267089844,4357.49609375,-2.637672185897827,1.0,1.8083956376813148e-07,0.6235391497612,8.0,0.5503424406051636,0.06278640031814575,12.852481842041016,0.0008649610099382697,0.0035113487392663956,1.4405601177713832e-05,14.33755588531494,9.999999747378752e-06,0.010368242859840391,4352.87939453125,-200.53111267089844,4357.49609375,-2.637672185897827
10.0,25019.53125,4367.6396484375,233.9925842285156,-233.9925842285156,4373.90283203125,-3.066641092300415,1.0,1.771911399828241e-07,0.6168137192726135,8.0,0.6400719881057739,0.05087846890091896,-164.7017364501953,0.0008410635637119411,0.015727119520306587,1.163043089036364e-05,-162.54977416992188,9.999999747378752e-06,0.013890606351196764,4367.6396484375,-233.9925842285156,4373.90283203125,-3.066641092300415
11.0,19863.28125,4381.625,278.6053161621094,-278.6053161621094,4390.4736328125,-3.638250112533569,1.0,1.663242414906563e-07,0.6219596862792969,8.0,0.7208586931228637,0.049451548606157296,-17.840457916259766,0.0008319430053234099,0.0010588049190118909,1.1262150110269433e-05,-14.929383277893066,9.999999747378752e-06,0.0023654992692172527,4381.625,-278.6053161621094,4390.4736328125,-3.638250112533569
12.0,15682.8701171875,4405.3701171875,332.9298400878906,-332.9298400878906,4417.9326171875,-4.3218350410461435,1.0,1.5386275720175038e-07,0.6266726851463318,8.0,0.7913077473640442,0.0485004149377346,-127.95766448974608,0.0008541433489881456,0.0012540970928967,1.0977293641190045e-05,-124.21055603027344,9.999999747378752e-06,0.0030294563621282578,4405.3701171875,-332.9298400878906,4417.9326171875,-4.3218350410461435
13.0,12597.65625,4424.52490234375,393.09225463867193,-393.09225463867193,4441.95263671875,-5.077053070068359,1.0,1.5926210039651778e-07,0.6349109411239624,8.0,0.8445380330085753,0.04740983620285988,-139.59613037109375,0.0008171966765075922,0.0015242514200508595,1.067268749466166e-05,-134.98104858398435,9.999999747378752e-06,0.004106136504560709,4424.52490234375,-393.09225463867193,4441.95263671875,-5.077053070068359
14.0,9895.8330078125,4458.4970703125,456.3560180664063,-456.3560180664063,4481.79150390625,-5.844240665435791,1.0,1.5827423283099054e-07,0.6402416229248047,8.0,0.8877907395362854,0.047114670276641846,-145.68280029296875,0.0008272008853964508,0.014532633125782011,1.0512146218388809e-05,-140.2016143798828,9.999999747378752e-06,0.003171475837007165,4458.4970703125,-456.3560180664063,4481.79150390625,-5.844240665435791
15.0,7910.15625,4481.78515625,538.90869140625,-538.90869140625,4514.0693359375,-6.8565659523010245,1.0,1.656525228099781e-07,0.6514725089073181,8.0,0.9201050996780397,0.046784672886133194,-95.76479339599608,0.000746767094824463,0.0014907649019733071,1.0363986802985892e-05,-89.19852447509764,9.999999747378752e-06,0.0026138392277061935,4481.78515625,-538.90869140625,4514.0693359375,-6.8565659523010245
16.0,6307.87060546875,4526.12255859375,654.4419555664064,-654.4419555664064,4573.19140625,-8.227500915527342,1.0,1.7174951949527895e-07,0.658840537071228,8.0,0.9406753182411194,0.046754900366067886,-10.389320373535156,0.000491929706186056,0.0021134526468813415,1.0223563549516255e-05,-2.393357038497925,9.999999747378752e-06,0.002621064893901348,4526.12255859375,-654.4419555664064,4573.19140625,-8.227500915527342
17.0,4973.3232421875,4580.0673828125,769.9110717773436,-769.9110717773436,4644.328125,-9.542229652404783,1.0,1.772031765767679e-07,0.6721890568733215,8.0,0.9278352856636048,0.04587049409747124,-92.99501800537107,0.0003033637476619333,0.0011847413843497632,9.863501873041969e-06,-83.55274963378906,9.999999747378752e-06,0.0007435606094077228,4580.0673828125,-769.9110717773436,4644.328125,-9.542229652404783
18.0,3944.3598632812495,4638.021484375,914.0565185546877,-914.0565185546877,4727.234375,-11.148917198181152,1.0,1.6927371859765117e-07,0.6770772337913513,8.0,0.9552552700042723,0.04871755465865135,19.966604232788082,0.0007670834893360734,0.0006285564741119742,1.0295526408299338e-05,31.01528549194336,9.999999747378752e-06,0.0008618012652732432,4638.021484375,-914.0565185546877,4727.234375,-11.148917198181152
19.0,3144.054931640625,4706.0673828125,1082.089599609375,-1082.089599609375,4828.8701171875,-12.949227333068848,1.0,1.6721953954856875e-07,0.6795397400856018,8.0,0.9690994024276732,0.04902214929461479,69.31309509277344,0.0004989078151993454,0.00942147709429264,1.0144925909116864e-05,82.1712188720703,9.999999747378752e-06,0.0009877831907942893,4706.0673828125,-1082.089599609375,4828.8701171875,-12.949227333068848
20.0,2488.426025390625,4791.88720703125,1287.0076904296875,-1287.0076904296875,4961.71044921875,-15.033744812011719,1.0,1.7851709799288074e-07,0.6850458979606628,8.0,0.9777339100837709,0.05008182302117348,135.25978088378906,0.00030610209796577687,0.010073046199977396,1.0089098395837937e-05,150.21543884277344,9.999999747378752e-06,0.0009683849057182669,4791.88720703125,-1287.0076904296875,4961.71044921875,-15.033744812011719
21.0,1976.6566162109373,4894.68701171875,1517.647705078125,-1517.647705078125,5124.56982421875,-17.22658348083496,1.0,1.9032954412523398e-07,0.6966763734817505,8.0,0.9837109446525572,0.05157411843538284,-145.15150451660156,0.0007234146469272673,0.001207930501550436,1.006113143375842e-05,-127.98992919921876,9.999999747378752e-06,0.0008884578128345311,4894.68701171875,-1517.647705078125,5124.56982421875,-17.22658348083496
22.0,1582.03125,5010.4521484375,1779.501953125,-1779.501953125,5317.072265625,-19.55289840698242,1.0,1.9062633782596095e-07,0.7037590146064758,8.0,0.9874401092529296,0.0533825121819973,97.1654815673828,0.0008228661608882248,0.0015740904491394758,1.003790930553805e-05,116.66486358642578,9.999999747378752e-06,0.0012303552357479928,5010.4521484375,-1779.501953125,5317.072265625,-19.55289840698242
23.0,1253.6336669921875,5155.65673828125,2100.24560546875,-2100.24560546875,5567.0302734375,-22.164371490478516,1.0,1.8148398339690172e-07,0.7090946435928345,8.0,0.9898115396499632,0.05581079423427582,134.18212890625,0.0003779057005885989,0.0018458359409123657,1.0024015864473768e-05,156.30331420898435,9.999999747378752e-06,0.0012287682620808482,5155.65673828125,-2100.24560546875,5567.0302734375,-22.164371490478516
24.0,996.09375,5325.11279296875,2469.5283203125,-2469.5283203125,5869.8720703125,-24.879577636718754,1.0,1.7398170371052402e-07,0.7128303647041321,8.0,0.9926093220710753,0.05886918306350708,-26.67782020568848,9.999999747378752e-06,0.0028098970651626583,1.0028265933215152e-05,-1.8329415321350095,9.999999747378752e-06,0.0014087413437664509,5325.11279296875,-2469.5283203125,5869.8720703125,-24.879577636718754
25.0,790.028076171875,5529.53564453125,2881.16162109375,-2881.16162109375,6235.130859375,-27.521743774414062,1.0,1.871474353265512e-07,0.7277992963790892,8.0,0.9925598502159119,0.06235123798251152,-148.7331390380859,0.000637389428447932,0.004519626963883638,9.999501344282178e-06,-121.2391128540039,9.999999747378752e-06,0.000928605324588716,5529.53564453125,-2881.16162109375,6235.130859375,-27.521743774414062
26.0,628.8109741210938,5758.6416015625,3357.075927734375,-3357.075927734375,6665.7265625,-30.240612030029297,1.0,1.8956012581838882e-07,0.7349395155906677,8.0,0.994882881641388,0.06681535392999649,64.10319519042969,0.000668963126372546,0.006446479354053736,1.0023404684034176e-05,94.32164764404298,9.999999747378752e-06,0.0011766544776037335,5758.6416015625,-3357.075927734375,6665.7265625,-30.240612030029297
27.0,496.3235168457031,6042.2041015625,3936.140625,-3936.140625,7211.202148437501,-33.081878662109375,1.0,1.8585919292490874e-07,0.7419934868812562,8.0,0.9670812487602234,0.06870828568935394,94.39205932617188,0.000442157470388338,0.005983007606118917,9.72055386228021e-06,130.00204467773435,9.999999747378752e-06,0.0006501893512904644,6042.2041015625,-3936.140625,7211.202148437501,-33.081878662109375
28.0,395.3313293457031,6359.43701171875,4616.7216796875,-4616.7216796875,7858.534179687501,-35.978294372558594,1.0,1.738606982826241e-07,0.7423692345619202,8.0,0.9881035089492797,0.07934427261352539,57.80229949951172,0.0010758821154013276,0.01034229341894388,1.02173780760495e-05,95.86751556396483,9.999999747378752e-06,0.0009294064366258682,6359.43701171875,-4616.7216796875,7858.534179687501,-35.978294372558594
29.0,315.5048217773437,6709.767578125,5337.71337890625,-5337.71337890625,8573.9228515625,-38.502735137939446,1.0,1.7253688611162943e-07,0.7509666085243225,8.0,0.9947566986083984,0.08570306748151779,-176.3137054443359,0.001388814765959978,0.01562591828405857,1.0067333278129809e-05,-136.12779235839844,9.999999747378752e-06,0.0009108881349675357,6709.767578125,-5337.71337890625,8573.9228515625,-38.502735137939446
30.0,249.33511352539065,7130.13330078125,6223.23828125,-6223.23828125,9464.0107421875,-41.11471939086913,1.0,1.7916239869464334e-07,0.7579990625381469,8.0,0.9975348114967345,0.09450262784957884,47.033721923828125,0.0020587295293807983,0.022089138627052307,1.0027927601186091e-05,89.48062896728516,9.999999747378752e-06,0.0012411671923473475,7130.13330078125,-6223.23828125,9464.0107421875,-41.11471939086913
31.0,198.6228790283203,7670.76806640625,7460.86865234375,-7460.86865234375,10700.712890625,-44.20526885986328,1.0,1.8482887753634716e-07,0.7447372674942015,8.0,0.9973902702331544,0.10671339184045792,30.2547607421875,0.003199229715391993,0.02914515510201454,9.998550922318829e-06,75.51995086669923,9.999999747378752e-06,0.001333081512711942,7670.76806640625,-7460.86865234375,10700.712890625,-44.20526885986328
32.0,158.005615234375,8279.328125,8853.6396484375,-8853.6396484375,12121.642578125,-46.91988754272461,1.0,1.8016632452599882e-07,0.7385868430137633,8.0,0.9936058521270753,0.12056215107440948,86.32512664794922,0.0044768494553864,0.0366031788289547,9.962056537915489e-06,134.0867919921875,9.999999747378752e-06,0.00162673182785511,8279.328125,-8853.6396484375,12121.642578125,-46.91988754272461
33.0,125.5580368041992,8814.3505859375,10034.25,-10034.25,13355.8583984375,-48.70307540893555,1.0,1.782689764695533e-07,0.7586854696273804,8.0,0.9848039150238035,0.13224290311336517,-149.80615234375,0.006331993266940117,0.04736931994557381,9.911414053931367e-06,-100.43510437011717,9.999999747378752e-06,0.0017414764733985066,8814.3505859375,-10034.25,13355.8583984375,-48.70307540893555
34.0,99.73403930664062,9235.1220703125,10612.953125,-10612.953125,14068.484375,-48.971038818359375,1.0,1.7690037168449635e-07,0.8162038922309875,8.0,0.991288125514984,0.14152254164218903,-146.3708038330078,0.008839143440127373,0.06085380911827088,1.0065842616313603e-05,-96.86971282958984,9.999999747378752e-06,0.001527532935142517,9235.1220703125,-10612.953125,14068.484375,-48.971038818359375
35.0,78.78150939941406,9974.73828125,12322.8408203125,-12322.8408203125,15853.9521484375,-51.01152038574219,1.0,1.6164723604106257e-07,0.8259978890419006,8.0,0.9917432069778441,0.15855078399181363,-146.25035095214844,0.011914089322090147,0.07321615517139433,1.00045908766333e-05,-94.8204345703125,9.999999747378752e-06,0.001829468761570752,9974.73828125,-12322.8408203125,15853.9521484375,-51.01152038574219
36.0,62.919464111328125,10839.4716796875,14247.849609375,-14247.849609375,17902.384765625,-52.73686981201172,1.0,1.5834774558243225e-07,0.8333790302276611,8.0,0.9924769401550293,0.17911212146282196,-146.39273071289062,0.015820560976862907,0.0861605778336525,1.0007398486777674e-05,-93.32186126708984,9.999999747378752e-06,0.0020188880153000355,10839.4716796875,-14247.849609375,17902.384765625,-52.73686981201172
37.0,49.86701965332031,11791.3310546875,16548.7578125,-16548.7578125,20319.86328125,-54.529346466064446,1.0,1.6315645723352645e-07,0.8396515250205994,8.0,0.9929075837135315,0.20325540006160736,-148.28175354003906,0.020658042281866077,0.1003766804933548,1.000433894660091e-05,-93.48793792724608,9.999999747378752e-06,0.0017058099620044231,11791.3310546875,-16548.7578125,20319.86328125,-54.529346466064446
38.0,39.72457504272461,12912.576171875,19084.673828125,-19084.673828125,23042.556640625,-55.91795349121094,1.0,1.6652992940180414e-07,0.8458727002143859,8.0,0.993842363357544,0.2306199669837952,-148.6411895751953,0.0269690603017807,0.11549530178308486,1.0009414836531503e-05,-92.51258087158205,9.999999747378752e-06,0.001488378969952464,12912.576171875,-19084.673828125,23042.556640625,-55.91795349121094
39.0,31.459732055664062,14273.8447265625,22069.69921875,-22069.69921875,26283.345703125,-57.10674285888672,1.0,1.6020632642721466e-07,0.8502969741821289,8.0,0.9942356944084167,0.2629213631153106,-148.98745727539062,0.0348300077021122,0.1308670789003372,1.0003957868320867e-05,-91.71392059326173,9.999999747378752e-06,0.0020129785407334566,14273.8447265625,-22069.69921875,26283.345703125,-57.10674285888672
40.0,24.93350982666016,15871.3095703125,25326.60546875,-25326.60546875,29888.716796875,-57.926048278808594,1.0,1.5778786632836272e-07,0.8564322590827942,8.0,0.9948884844779968,0.29907187819480896,-149.12901306152344,0.04516451805830002,0.1491871029138565,1.000656538963085e-05,-91.07077026367188,9.999999747378752e-06,0.002137616975232959,15871.3095703125,-25326.60546875,29888.716796875,-57.926048278808594
41.0,19.862287521362305,17652.068359375,28851.1484375,-28851.1484375,33822.8359375,-58.54035568237305,1.0,1.5776312523030358e-07,0.8624081015586853,8.0,0.9952235221862794,0.33833399415016174,-149.2541961669922,0.05688419193029404,0.16610434651374817,1.0003367606259417e-05,-90.60854339599608,9.999999747378752e-06,0.001765639055520296,17652.068359375,-28851.1484375,33822.8359375,-58.54035568237305
42.0,15.782828330993652,20058.05859375,33358.40625,-33358.40625,38924.40234375,-58.981948852539055,1.0,1.411204948453815e-07,0.8553669452667235,8.0,0.9958184361457824,0.3894706964492798,-149.2760009765625,0.072950579226017,0.18506877124309537,1.0005977856053503e-05,-90.21038818359376,9.999999747378752e-06,0.0020428607240319248,20058.05859375,-33358.40625,38924.40234375,-58.981948852539055
43.0,12.466754913330078,23229.154296875,38826.22265625,-38826.22265625,45244.546875,-59.10853958129882,1.0,1.3577070490100598e-07,0.839887797832489,8.0,0.9961474537849425,0.45259058475494385,-149.07077026367188,0.09292588382959363,0.2028677612543106,1.0003303941630293e-05,-89.89613342285155,9.999999747378752e-06,0.00182670378126204,23229.154296875,-38826.22265625,45244.546875,-59.10853958129882
44.0,9.973403930664062,27038.19140625,44673.05078125,-44673.05078125,52218.24609375,-58.815742492675774,1.0,1.3057626802037703e-07,0.8166880011558532,8.0,0.9964599013328552,0.5223430991172792,-148.5250701904297,0.11299600452184676,0.2137557119131088,1.0003136594605166e-05,-89.65645599365233,9.999999747378752e-06,0.0019342375453561544,27038.19140625,-44673.05078125,52218.24609375,-58.815742492675774
45.0,7.878151416778564,32095.099609375,51162.734375,-51162.734375,60396.36328125,-57.899375915527344,1.0,1.3388496711286282e-07,0.7777262330055236,8.0,0.9968331456184387,0.604187548160553,-147.40228271484375,0.1306379586458206,0.21366119384765625,1.0003745956055354e-05,-89.4611587524414,9.999999747378752e-06,0.001810586778447032,32095.099609375,-51162.734375,60396.36328125,-57.899375915527344
46.0,6.275100231170654,37502.91015625,57193.59375,-57193.59375,68392.796875,-56.746395111083984,1.0,1.3516680041902873e-07,0.7315152287483214,8.0,0.9970659613609314,0.6840860843658447,-146.08164978027344,0.1410473883152008,0.20374552905559537,1.0002335329772905e-05,-89.30198669433594,9.999999747378752e-06,0.001712930272333324,37502.91015625,-57193.59375,68392.796875,-56.746395111083984
47.0,5.013369083404541,43130.60546875,62937.3828125,-62937.3828125,76297.859375,-55.577396392822266,1.0,1.4356648136981678e-07,0.6745879054069519,8.0,0.997632086277008,0.7634105682373047,-144.78240966796875,0.14559592306613922,0.18846167623996732,1.000567772280192e-05,-89.17842864990233,9.999999747378752e-06,0.001470062183216214,43130.60546875,-62937.3828125,76297.859375,-55.577396392822266
