# point,freq,zreal,reflected_zimag,zimag,zmod,zphz,zsig,Idc,Vdc,ie_range,gain,vmod,vphz,vsig,vthd,imod,iphz,isig,ithd,zreal_drift,zimag_drift,zmod_drift,zphz_drift
0.0,250019.53125,4280.48681640625,122.37689208984376,-122.37689208984376,4282.23583984375,-1.6376104354858398,1.0,5.121822823639377e-07,0.2792700231075287,8.0,0.040638361126184464,0.016768094152212143,4.962843418121338,0.003966601565480232,0.22737163305282593,3.822765393124428e-06,-2.9768552780151367,9.999999747378752e-06,0.16112253069877625,4280.48681640625,-122.37689208984376,4282.23583984375,-1.6376104354858398
1.0,198691.40625,4299.9873046875,126.28782653808592,-126.28782653808592,4301.84130859375,-1.6822562217712402,1.0,4.962572575095693e-07,0.3548867106437683,8.0,0.048590395599603646,0.019973745569586757,-95.11003875732419,0.00410350924357772,0.18100926280021667,4.570796590996905e-06,-101.10094451904295,9.999999747378752e-06,0.14614564180374143,4299.9873046875,-126.28782653808592,4301.84130859375,-1.6822562217712402
2.0,157792.96875,4281.90966796875,122.60261535644533,-122.60261535644533,4283.66455078125,-1.6400846242904663,1.0,4.834166134060069e-07,0.4743845760822296,8.0,0.059052035212516785,0.02404182590544224,-130.5067138671875,0.004002856556326151,0.15175622701644895,5.554901235882426e-06,-134.99615478515625,9.999999747378752e-06,0.1380624771118164,4281.90966796875,-122.60261535644533,4283.66455078125,-1.6400846242904663
3.0,125332.03125,4297.89794921875,117.38213348388672,-117.38213348388672,4299.50048828125,-1.5644459724426267,1.0,4.846796173296752e-07,0.5095164775848389,8.0,0.0726117342710495,0.029569197446107864,-100.55094909667967,0.00444435840472579,0.13573920726776123,6.830433449067641e-06,-103.87771606445312,9.07477044620464e-07,0.12453531473875044,4297.89794921875,-117.38213348388672,4299.50048828125,-1.5644459724426267
4.0,99550.78125,4294.95166015625,117.78498840332033,-117.78498840332033,4296.56640625,-1.570888876914978,1.0,3.5050544511250337e-07,0.5934008955955504,8.0,0.08776360005140305,0.035488009452819824,-96.69354248046876,0.002016430022194981,0.04632512480020523,8.255738066509366e-06,-98.77577209472656,9.999999747378752e-06,0.04553760960698128,4294.95166015625,-117.78498840332033,4296.56640625,-1.570888876914978
5.0,79160.15625,4299.56396484375,123.7587890625,-123.7587890625,4301.3447265625,-1.6487483978271484,1.0,3.3662757914498803e-07,0.6513965725898743,8.0,0.11066655814647675,0.04479708522558212,-122.5030517578125,0.0028710770420730114,0.06178848445415497,1.041017094394192e-05,-123.73944854736328,9.999999747378752e-06,0.05840834602713585,4299.56396484375,-123.7587890625,4301.3447265625,-1.6487483978271484
6.0,62871.09375,4308.3037109375,134.05014038085935,-134.05014038085935,4310.388671875,-1.78214693069458,1.0,3.254468197155802e-07,0.6612764000892639,8.0,0.14455311000347135,0.05632582306861877,169.2428436279297,0.004110678564757109,0.07092022150754929,1.3062041034572756e-05,168.7388916015625,9.445745945413364e-07,0.07032454013824463,4308.3037109375,-134.05014038085935,4310.388671875,-1.78214693069458
7.0,49980.46875,4315.099609375,149.61488342285156,-149.61488342285156,4317.6923828125,-1.9857870340347288,1.0,2.776775431811984e-07,0.7004635334014893,8.0,0.2261151671409607,0.06756366789340973,-54.66024398803711,0.0048851557075977325,0.07152360677719116,1.5642359358025715e-05,-54.49233627319336,1.1053800790250534e-06,0.06968390941619873,4315.099609375,-149.61488342285156,4317.6923828125,-1.9857870340347288
8.0,39667.96875,4323.51611328125,170.70294189453125,-170.70294189453125,4326.884765625,-2.261002540588379,1.0,2.3143925886870423e-07,0.7085738778114319,8.0,0.38523620367050165,0.07373972982168196,139.47987365722656,0.0030491980724036694,0.04116208851337433,1.703716770862229e-05,140.2958526611328,9.999999747378752e-06,0.04243855178356171,4323.51611328125,-170.70294189453125,4326.884765625,-2.261002540588379
9.0,31582.03125,4334.8798828125,199.46583557128903,-199.46583557128903,4339.466796875,-2.6345584392547607,1.0,1.762645780445382e-07,0.7083815932273865,8.0,0.5521202683448792,0.06220713630318642,-16.877683639526367,0.0008186541381292045,0.003721053944900632,1.4331993952509949e-05,-15.395721435546877,9.999999747378752e-06,0.010498377494513988,4334.8798828125,-199.46583557128903,4339.466796875,-2.6345584392547607
10.0,25019.53125,4347.626953125,232.0297088623047,-232.0297088623047,4353.81396484375,-3.054936170578003,1.0,1.661611293002352e-07,0.6996527910232544,8.0,0.642509400844574,0.0506739430129528,-163.487548828125,0.0007938137860037385,0.014448705129325388,1.1637127499852795e-05,-161.3472900390625,9.999999747378752e-06,0.012952661141753197,4347.626953125,-232.0297088623047,4353.81396484375,-3.054936170578003
11.0,19863.28125,4369.08447265625,273.4765014648437,-273.4765014648437,4377.63525390625,-3.581673622131348,1.0,1.5988482005013793e-07,0.6990390419960022,8.0,0.7212058901786803,0.04914354905486106,-63.89861297607422,0.0006381371058523655,0.0016132344026118517,1.122482990467688e-05,-61.04411315917969,9.999999747378752e-06,0.0022652591578662395,4369.08447265625,-273.4765014648437,4377.63525390625,-3.581673622131348
12.0,15682.8701171875,4386.77294921875,321.3109130859375,-321.3109130859375,4398.5244140625,-4.189170837402344,1.0,1.270749407922267e-07,0.6982153058052063,8.0,0.7928435206413269,0.0483577772974968,-125.6821060180664,0.0007262106519192457,0.0017053525662049651,1.0993303476425352e-05,-122.0676498413086,9.999999747378752e-06,0.0037207691930234432,4386.77294921875,-321.3109130859375,4398.5244140625,-4.189170837402344
13.0,12597.65625,4398.3837890625,376.2038879394531,-376.2038879394531,4414.443359375,-4.8887410163879395,1.0,1.0768507507918913e-07,0.7064396739006041,8.0,0.8472840785980223,0.04717785492539406,-129.58078002929688,0.0008154443348757922,0.0012518547009676695,1.0686649147828575e-05,-125.15399932861328,9.999999747378752e-06,0.002291533164680004,4398.3837890625,-376.2038879394531,4414.443359375,-4.8887410163879395
14.0,9895.8330078125,4441.12158203125,449.13037109375,-449.13037109375,4463.77392578125,-5.774685859680176,1.0,9.655386890017324e-08,0.7151710391044617,8.0,0.8904078602790833,0.04691106081008911,-126.63147735595705,0.000680447556078434,0.013719920068979263,1.0508964805922004e-05,-121.2198486328125,9.999999747378752e-06,0.0031164807733148336,4441.12158203125,-449.13037109375,4463.77392578125,-5.774685859680176
15.0,7910.15625,4470.1826171875,528.1189575195312,-528.1189575195312,4501.27099609375,-6.737839698791504,1.0,1.2480246880386406e-07,0.7209047079086303,8.0,0.919952630996704,0.04650719836354256,-94.12661743164062,0.00040939988684840495,0.0014179532881826162,1.033181160892127e-05,-87.67906951904298,9.999999747378752e-06,0.0030214847065508366,4470.1826171875,-528.1189575195312,4501.27099609375,-6.737839698791504
16.0,6307.87060546875,4511.59228515625,624.4571533203125,-624.4571533203125,4554.60302734375,-7.880337715148925,1.0,1.2211259559080645e-07,0.7222420573234558,8.0,0.9415863752365112,0.04661768674850464,-8.940130233764648,0.0007222602143883705,0.0014452519826591015,1.0235161425953264e-05,-1.2913305759429932,9.999999747378752e-06,0.003965401090681553,4511.59228515625,-624.4571533203125,4554.60302734375,-7.880337715148925
17.0,4973.3232421875,4563.90771484375,742.0401000976561,-742.0401000976561,4623.837890625,-9.23484134674072,1.0,1.3054906844445213e-07,0.7231701612472534,8.0,0.9280502200126649,0.04563451185822487,-92.15689849853517,0.00040056923171505327,0.0005588066414929926,9.856241376837716e-06,-83.02202606201172,9.999999747378752e-06,0.0006218917551450431,4563.90771484375,-742.0401000976561,4623.837890625,-9.23484134674072
18.0,3944.3598632812495,4623.33544921875,878.065673828125,-878.065673828125,4705.97802734375,-10.753564834594727,1.0,1.6033669680837193e-07,0.7305083274841309,8.0,0.9567075371742249,0.0485609769821167,31.867938995361328,0.0003854020906146616,0.0005304943770170212,1.0308790479029994e-05,42.52126693725586,9.999999747378752e-06,0.0008427379070781171,4623.33544921875,-878.065673828125,4705.97802734375,-10.753564834594727
19.0,3144.054931640625,4692.7822265625,1027.690673828125,-1027.690673828125,4803.99365234375,-12.352422714233398,1.0,1.8525307154959594e-07,0.7396414279937744,8.0,0.9700597524642944,0.048743825405836105,73.88880920410156,0.0008297908352687955,0.0122005520388484,1.0139564437849913e-05,86.15012359619139,9.999999747378752e-06,0.0008315025479532777,4692.7822265625,-1027.690673828125,4803.99365234375,-12.352422714233398
20.0,2488.426025390625,4781.53466796875,1214.5458984375,-1214.5458984375,4933.37548828125,-14.252147674560547,1.0,1.8874833074278285e-07,0.7443333268165587,8.0,0.9781017899513245,0.04976522922515869,137.0302276611328,0.0003033637476619333,0.009145011194050312,1.0082902008434756e-05,151.2042999267578,9.999999747378752e-06,0.0010382469044998288,4781.53466796875,-1214.5458984375,4933.37548828125,-14.252147674560547
21.0,1976.6566162109373,4880.7998046875,1432.8021240234375,-1432.8021240234375,5086.76025390625,-16.360071182250977,1.0,1.7774743810150542e-07,0.7456406354904176,8.0,0.9836891889572144,0.05117321014404297,-143.74508666992188,0.0006598123582080008,0.001294864690862596,1.0057125109597108e-05,-127.45003509521484,9.999999747378752e-06,0.000988794257864356,4880.7998046875,-1432.8021240234375,5086.76025390625,-16.360071182250977
22.0,1582.03125,4995.95458984375,1668.2972412109375,-1668.2972412109375,5267.14111328125,-18.46569061279297,1.0,1.7354469150632212e-07,0.7522676587104796,8.0,0.9890057444572448,0.052966225892305374,98.48793029785155,9.999999747378752e-06,0.001790811074897647,1.0054047379526308e-05,116.90010833740234,9.999999747378752e-06,0.00121292972471565,4995.95458984375,-1668.2972412109375,5267.14111328125,-18.46569061279297
23.0,1253.6336669921875,5136.5966796875,1942.4060058593752,-1942.4060058593752,5491.5908203125,-20.71413230895996,1.0,1.4599385167457513e-07,0.7630407214164733,8.0,0.9910703301429747,0.0550372302532196,131.98452758789062,9.999999747378752e-06,0.002329706214368344,1.0020875379268544e-05,152.65548706054688,9.999999747378752e-06,0.0011704008793458343,5136.5966796875,-1942.4060058593752,5491.5908203125,-20.71413230895996
24.0,996.09375,5301.3525390625,2261.7109375,-2261.7109375,5763.65087890625,-23.1045036315918,1.0,1.310349517780196e-07,0.7688486576080321,8.0,0.9931519627571106,0.0577620230615139,-27.069067001342773,0.0007361558382399379,0.0032957943622022867,1.0021003618021496e-05,-3.9992640018463135,9.999999747378752e-06,0.001773037132807076,5301.3525390625,-2261.7109375,5763.65087890625,-23.1045036315918
25.0,790.028076171875,5489.1396484375,2657.135986328125,-2657.135986328125,6098.4443359375,-25.83030128479004,1.0,1.235032556223814e-07,0.7716647386550902,8.0,0.9949612021446227,0.06109852343797684,-146.14076232910156,9.999999747378752e-06,0.004993310663849115,1.0018216926255263e-05,-120.33818054199217,9.999999747378752e-06,0.0012653486337512732,5489.1396484375,-2657.135986328125,6098.4443359375,-25.83030128479004
26.0,628.8109741210938,5705.8779296875,3093.1748046875,-3093.1748046875,6490.35986328125,-28.46226501464844,1.0,1.1687795620218822e-07,0.7760468721389769,8.0,0.9964728951454161,0.06500422954559326,67.02008056640625,0.0006915690028108656,0.006848030723631382,1.001519376586657e-05,95.46018981933592,9.999999747378752e-06,0.0013760707806795835,5705.8779296875,-3093.1748046875,6490.35986328125,-28.46226501464844
27.0,496.3235168457031,5967.236328125,3637.355712890625,-3637.355712890625,6988.43798828125,-31.364583969116207,1.0,1.1279233547156765e-07,0.7776951193809509,8.0,0.9678469896316528,0.0665321871638298,96.58304595947264,0.0008631674572825431,0.006257160566747189,9.712727660371456e-06,130.47573852539062,9.999999747378752e-06,0.0006704168044961989,5967.236328125,-3637.355712890625,6988.43798828125,-31.364583969116207
28.0,395.3313293457031,6277.50927734375,4332.82861328125,-4332.82861328125,7627.616210937501,-34.61400604248047,1.0,1.1213369077722744e-07,0.7681690454483032,8.0,0.989583134651184,0.07706709951162338,58.21622467041016,0.0008630293305031955,0.010671205818653107,1.0224582183582243e-05,94.91714477539062,9.999999747378752e-06,0.0006060961168259382,6277.50927734375,-4332.82861328125,7627.616210937501,-34.61400604248047
29.0,315.5048217773437,6656.88330078125,5211.765625,-5211.765625,8454.3828125,-38.057884216308594,1.0,1.3075100468995518e-07,0.753078043460846,8.0,0.9965916275978088,0.08453746885061264,-176.99024963378906,0.0014446029672399163,0.015610617585480211,1.0070823009300511e-05,-137.2491912841797,9.999999747378752e-06,0.0009784204885363577,6656.88330078125,-5211.765625,8454.3828125,-38.057884216308594
30.0,249.33511352539065,7066.84716796875,6076.25146484375,-6076.25146484375,9319.93359375,-40.689765930175774,1.0,1.461076948316986e-07,0.7597391009330748,8.0,0.9979541301727296,0.09293163567781448,47.7060432434082,0.0019576973281800743,0.021868780255317688,1.0013671271735802e-05,89.72799682617188,9.999999747378752e-06,0.0013116927584633231,7066.84716796875,-6076.25146484375,9319.93359375,-40.689765930175774
31.0,198.6228790283203,7444.74853515625,6838.22119140625,-6838.22119140625,10108.6865234375,-42.56839370727539,1.0,1.64751369879923e-07,0.7830772399902343,8.0,0.999391496181488,0.10096921771764757,31.900203704833984,0.0030574752017855644,0.0293558556586504,1.0014403414970728e-05,75.52851104736328,9.999999747378752e-06,0.001156678539700806,7444.74853515625,-6838.22119140625,10108.6865234375,-42.56839370727539
32.0,158.005615234375,8000.1796875,8083.59033203125,-8083.59033203125,11373.095703125,-45.29713439941406,1.0,1.8373046373199034e-07,0.7798538804054259,8.0,0.9946541786193848,0.11300968378782272,88.32369995117188,0.0042663877829909325,0.03672074899077416,9.952597793017048e-06,134.4626007080078,9.999999747378752e-06,0.0016106970142573118,8000.1796875,-8083.59033203125,11373.095703125,-45.29713439941406
33.0,125.5580368041992,8433.9326171875,9092.927734375,-9092.927734375,12402.1181640625,-47.15325927734375,1.0,1.8035885318568037e-07,0.8040348887443542,8.0,0.9848644733428957,0.12267757952213287,-147.8589324951172,0.005699729546904564,0.04620152339339256,9.90157695923699e-06,-100.03770446777344,9.999999747378752e-06,0.0014829017454758286,8433.9326171875,-9092.927734375,12402.1181640625,-47.15325927734375
34.0,99.73403930664062,8788.8388671875,9668.048828125,-9668.048828125,13065.7890625,-47.727272033691406,1.0,1.4647284274360572e-07,0.858077883720398,8.0,0.992198646068573,0.13154853880405426,-145.12518310546875,0.007658264599740505,0.05681769177317619,1.007446917355992e-05,-96.86785888671875,9.999999747378752e-06,0.0012333797058090568,8788.8388671875,-9668.048828125,13065.7890625,-47.727272033691406
35.0,78.78150939941406,9503.26171875,11323.8310546875,-11323.8310546875,14783.13671875,-49.99572753906249,1.0,1.2407976157646772e-07,0.8636826276779175,8.0,0.9922927618026732,0.14778803288936615,-145.2567901611328,0.010294800624251364,0.06796894967556,1.00009483503527e-05,-94.84265899658205,9.999999747378752e-06,0.0014400818618014455,9503.26171875,-11323.8310546875,14783.13671875,-49.99572753906249
36.0,62.919464111328125,10281.4951171875,13168.75,-13168.75,16707.037109375,-52.019081115722656,1.0,1.1581135339611137e-07,0.8688939213752745,8.0,0.9926697015762328,0.16709263622760773,-145.66065979003906,0.013774815015494823,0.08044812083244324,1.0003798706748055e-05,-93.3075714111328,9.999999747378752e-06,0.001483545289374888,10281.4951171875,-13168.75,16707.037109375,-52.019081115722656
37.0,49.86701965332031,11388.3828125,15517.498046875,-15517.498046875,19248.064453125,-53.72483825683594,1.0,1.349837361885875e-07,0.8662458658218383,8.0,0.9937723875045776,0.1926647126674652,-147.45809936523435,0.018525393679738045,0.09495742619037628,1.0011108315666206e-05,-93.46878814697264,9.999999747378752e-06,0.0016761921579018235,11388.3828125,-15517.498046875,19248.064453125,-53.72483825683594
38.0,39.72457504272461,12633.189453125,18183.91796875,-18183.91796875,22141.642578125,-55.210548400878906,1.0,1.7521078632398712e-07,0.8627750873565674,8.0,0.9938977360725402,0.22142270207405088,-147.92808532714844,0.02466734312474728,0.11007940024137496,1.000126121653011e-05,-92.50689697265624,9.999999747378752e-06,0.0015576523728668688,12633.189453125,-18183.91796875,22141.642578125,-55.210548400878906
39.0,31.459732055664062,13947.6337890625,20924.03515625,-20924.03515625,25146.60546875,-56.31319808959961,1.0,1.874108335186975e-07,0.870343029499054,8.0,0.9944295287132264,0.2515851557254791,-148.16929626464844,0.03217143937945366,0.12634681165218353,1.000535030470928e-05,-91.6893081665039,9.999999747378752e-06,0.00182036473415792,13947.6337890625,-20924.03515625,25146.60546875,-56.31319808959961
40.0,24.93350982666016,15373.046875,23678.125,-23678.125,28230.908203125,-57.006309509277344,1.0,1.6655624790473667e-07,0.8857848048210144,8.0,0.9950739741325377,0.2824811637401581,-148.21365356445312,0.04075375571846961,0.14253957569599152,1.0006480806623584e-05,-91.07515716552734,9.999999747378752e-06,0.0015456655528396368,15373.046875,-23678.125,28230.908203125,-57.006309509277344
41.0,19.862287521362305,17260.609375,27102.322265625,-27102.322265625,32131.986328125,-57.50823211669922,1.0,1.2260792914275953e-07,0.8886748552322388,8.0,0.9957470893859864,0.3215293288230896,-148.2151641845703,0.05218834429979324,0.1603496819734573,1.0006764568970539e-05,-90.60163116455078,9.999999747378752e-06,0.0018662887159734964,17260.609375,-27102.322265625,32131.986328125,-57.50823211669922
42.0,15.782828330993652,19829.537109375,31620.412109375,-31620.412109375,37323.73046875,-57.90768432617188,1.0,1.4511438450881542e-07,0.8756369948387147,8.0,0.9959422349929808,0.37330472469329834,-148.20452880859375,0.06778878718614578,0.17942015826702115,1.0001959708461072e-05,-90.21317291259763,9.999999747378752e-06,0.0019058086909353733,19829.537109375,-31620.412109375,37323.73046875,-57.90768432617188
43.0,12.466754913330078,23051.34375,36772.4296875,-36772.4296875,43400.18359375,-57.91784667968751,1.0,1.49346504940695e-07,0.8611316680908203,8.0,0.9964193105697632,0.4342055916786194,-147.8660125732422,0.08728507161140442,0.1986288279294968,1.0004790055972988e-05,-89.88208007812499,9.999999747378752e-06,0.0019150227308273315,23051.34375,-36772.4296875,43400.18359375,-57.91784667968751
44.0,9.973403930664062,27103.705078125,42617.08203125,-42617.08203125,50505.70703125,-57.54436492919922,1.0,1.2244143476891622e-07,0.8320972323417662,8.0,0.9965881109237671,0.5051394701004028,-147.25094604492188,0.1081010103225708,0.21145448088645932,1.0001694136008155e-05,-89.65370178222656,9.999999747378752e-06,0.0018102793255820873,27103.705078125,-42617.08203125,50505.70703125,-57.54436492919922
45.0,7.878151416778564,32192.787109375,49008.3125,-49008.3125,58636.08203125,-56.6997184753418,1.0,1.4602019859921714e-07,0.7917911410331726,8.0,0.9969152808189392,0.5865511298179625,-146.19776916503906,0.12663587927818298,0.2133369147777557,1.0003283023252152e-05,-89.45628356933594,9.999999747378752e-06,0.0017693776171654463,32192.787109375,-49008.3125,58636.08203125,-56.6997184753418
46.0,6.275100231170654,37537.609375,54936.1015625,-54936.1015625,66536.0625,-55.655364990234375,1.0,1.5535931652266302e-07,0.7462491393089294,8.0,0.9975089430809022,0.6657552123069763,-144.9827117919922,0.13819274306297302,0.20511794090271,1.000595511868596e-05,-89.29407501220702,9.999999747378752e-06,0.001518956269137561,37537.609375,-54936.1015625,66536.0625,-55.655364990234375
47.0,5.013369083404541,42661.66796875,60277.94921875,-60277.94921875,73847.46875,-54.71108245849609,1.0,1.4482033350304846e-07,0.7056632041931152,8.0,0.9979017972946168,0.7387644648551941,-143.9118499755859,0.14552868902683258,0.1946564018726349,1.0003937859437428e-05,-89.1741943359375,9.999999747378752e-06,0.00142838922329247,42661.66796875,-60277.94921875,73847.46875,-54.71108245849609
