# point,freq,zreal,reflected_zimag,zimag,zmod,zphz,zsig,Idc,Vdc,ie_range,gain,vmod,vphz,vsig,vthd,imod,iphz,isig,ithd,zreal_drift,zimag_drift,zmod_drift,zphz_drift
0.0,250019.53125,4199.76171875,-585.4705200195312,585.4705200195312,4240.37451171875,7.936208724975587,1.0,2.640621517002728e-07,0.004675435833632946,8.0,0.1010388731956482,0.00428442656993866,-141.9982147216797,0.0006286249263212085,0.1012856438755989,1.010388700706244e-06,-149.93443298339844,9.999999747378752e-06,0.12515360116958618,4199.76171875,585.4705200195312,4240.37451171875,7.936208724975587
1.0,198691.40625,4180.9794921875,-457.60443115234375,457.60443115234375,4205.947265625,6.246109485626221,1.0,5.164437766325136e-07,0.20425833761692047,8.0,0.05017208680510521,0.019850317388772964,-63.889747619628906,0.003916024230420589,0.18268363177776337,4.719583102996694e-06,-70.13585662841797,9.999999747378752e-06,0.14558055996894836,4180.9794921875,457.60443115234375,4205.947265625,6.246109485626221
2.0,157792.96875,4171.337890625,-305.8495788574219,305.8495788574219,4182.53564453125,4.193519592285156,1.0,5.388490080804331e-07,0.3281332850456238,8.0,0.06090083345770836,0.02396097034215927,-133.32806396484375,0.0038094699848443274,0.1509816199541092,5.728813903260743e-06,-137.52159118652344,9.999999747378752e-06,0.1349612772464752,4171.337890625,305.8495788574219,4182.53564453125,4.193519592285156
3.0,125332.03125,4118.5302734375,-254.80191040039065,254.80191040039065,4126.40478515625,3.5402169227600098,1.0,4.6945245912866085e-07,0.41522189974784846,8.0,0.0757070779800415,0.029386624693870544,150.70388793945312,0.0041263522580266,0.13601702451705933,7.12160590410349e-06,147.16366577148435,9.051576626006865e-07,0.12353945523500443,4118.5302734375,254.80191040039065,4126.40478515625,3.5402169227600098
4.0,99550.78125,4141.1298828125,-164.5746307373047,164.5746307373047,4144.3984375,2.2758214473724365,1.0,3.26257975302724e-07,0.48037990927696234,8.0,0.09065759181976318,0.03534330800175667,28.932376861572266,0.001682729460299015,0.046233661472797394,8.52796983963344e-06,26.65655708312988,9.999999747378752e-06,0.04580744355916977,4141.1298828125,164.5746307373047,4144.3984375,2.2758214473724365
5.0,79160.15625,4144.50732421875,-89.8304443359375,89.8304443359375,4145.48046875,1.24166738986969,1.0,2.99790968938396e-07,0.52530837059021,8.0,0.11435889452695847,0.044595014303922646,-93.9599380493164,0.0027179112657904625,0.05925125256180763,1.0757501513580792e-05,-95.20159912109376,9.999999747378752e-06,0.05856477469205856,4144.50732421875,89.8304443359375,4145.48046875,1.24166738986969
6.0,62871.09375,4147.87158203125,-30.054176330566406,30.054176330566406,4147.98046875,0.4151400029659271,1.0,2.721712917264085e-07,0.5148508548736572,8.0,0.154499351978302,0.05603939294815064,-57.236846923828125,0.004101519007235765,0.07028785347938538,1.3510042663256172e-05,-57.6519889831543,9.687370265965e-07,0.07045072317123413,4147.87158203125,30.054176330566406,4147.98046875,0.4151400029659271
7.0,49980.46875,4157.06982421875,22.765825271606445,-22.765825271606445,4157.13232421875,-0.3137721419334412,1.0,2.0653956767091586e-07,0.5210447907447815,8.0,0.246150404214859,0.06623197346925735,-70.05529022216797,0.004705205094069242,0.07017968595027924,1.5932131645968184e-05,-69.74151611328125,1.0653415074557415e-06,0.06603677570819855,4157.06982421875,-22.765825271606445,4157.13232421875,-0.3137721419334412
8.0,39667.96875,4166.8291015625,76.0458755493164,-76.0458755493164,4167.52294921875,-1.0455490350723267,1.0,1.3549606592277996e-07,0.5243937373161316,8.0,0.41634938120841974,0.07049127668142319,35.99105453491211,0.0024087661877274518,0.03354480490088463,1.691442957962863e-05,37.03660202026367,9.999999747378752e-06,0.03421833738684654,4166.8291015625,-76.0458755493164,4167.52294921875,-1.0455490350723267
9.0,31582.03125,4178.787109375,137.22291564941406,-137.22291564941406,4181.03955078125,-1.8808016777038572,1.0,1.3044096647263362e-07,0.5150052905082704,8.0,0.5653895139694214,0.056777216494083405,133.1187286376953,0.0008163210004568101,0.003811779664829373,1.357968994852854e-05,134.99954223632812,9.999999747378752e-06,0.011438471265137196,4178.787109375,-137.22291564941406,4181.03955078125,-1.8808016777038572
10.0,25019.53125,4195.3466796875,185.28620910644528,-185.28620910644528,4199.43603515625,-2.5288074016571045,1.0,1.149754851326179e-07,0.5119138360023499,8.0,0.6513636708259584,0.04838010296225548,-36.007835388183594,0.0009064162732101978,0.017618194222450256,1.1520617590576876e-05,-33.479026794433594,9.999999747378752e-06,0.01603936403989792,4195.3466796875,-185.28620910644528,4199.43603515625,-2.5288074016571045
11.0,19863.28125,4212.5927734375,244.187255859375,-244.187255859375,4219.6640625,-3.3174962997436523,1.0,1.2182236730495788e-07,0.5065057873725891,8.0,0.7296515703201294,0.04726829379796982,22.734453201293945,0.0008495953516103326,0.000870004645548761,1.1201907909708096e-05,26.05194854736328,9.999999747378752e-06,0.002197721973061561,4212.5927734375,-244.187255859375,4219.6640625,-3.3174962997436523
12.0,15682.8701171875,4233.50048828125,316.2770080566406,-316.2770080566406,4245.29833984375,-4.272524833679199,1.0,1.3685637156868324e-07,0.5035173892974854,8.0,0.7981853485107421,0.04644044861197472,-31.49701499938965,0.0009071393287740648,0.0016085144598037004,1.0939266758214217e-05,-27.22448921203613,9.999999747378752e-06,0.0022878043819218874,4233.50048828125,-316.2770080566406,4245.29833984375,-4.272524833679199
13.0,12597.65625,4230.0166015625,363.5650634765625,-363.5650634765625,4245.61181640625,-4.912434101104736,1.0,1.507130775735277e-07,0.5099565982818604,8.0,0.8530389070510864,0.0453738234937191,-75.99764251708984,0.0008430455345660448,0.00102991855237633,1.0687228495953605e-05,-71.085205078125,9.999999747378752e-06,0.00199368130415678,4230.0166015625,-363.5650634765625,4245.61181640625,-4.912434101104736
14.0,9895.8330078125,4288.70361328125,474.8171997070313,-474.8171997070313,4314.90771484375,-6.3176846504211435,1.0,1.509544347300107e-07,0.5104699730873108,8.0,0.8917026519775391,0.045104797929525375,-76.37754821777342,0.0007427654927596451,0.013929939828813076,1.0453247341501992e-05,-70.05986022949219,9.999999747378752e-06,0.0038692785892635584,4288.70361328125,-474.8171997070313,4314.90771484375,-6.3176846504211435
15.0,7910.15625,4322.85498046875,576.358154296875,-576.358154296875,4361.10791015625,-7.5943498611450195,1.0,1.7395993268110033e-07,0.5181981325149536,8.0,0.920437753200531,0.045016445219516754,-30.325370788574215,0.0009102222393266856,0.0013847006484866142,1.0322250091121532e-05,-22.73102378845215,9.999999747378752e-06,0.002637934405356645,4322.85498046875,-576.358154296875,4361.10791015625,-7.5943498611450195
16.0,6307.87060546875,4365.82958984375,690.3245239257812,-690.3245239257812,4420.06982421875,-8.985213279724121,1.0,1.660046535789661e-07,0.5231547355651855,8.0,0.9402835965156556,0.04515371844172478,28.711151123046875,0.0008251086110249162,0.0014855220215395093,1.0215612746833356e-05,37.69636535644531,9.999999747378752e-06,0.0028773720841854806,4365.82958984375,-690.3245239257812,4420.06982421875,-8.985213279724121
17.0,4973.3232421875,4426.6494140625,842.3311157226561,-842.3311157226561,4506.0791015625,-10.773802757263184,1.0,1.856183757809049e-07,0.5308923125267029,8.0,0.9259465336799619,0.044373717159032815,-69.51439666748047,0.0005988167831674217,0.0012792840134352443,9.84752387012122e-06,-58.740589141845696,9.999999747378752e-06,0.0010556406341493128,4426.6494140625,-842.3311157226561,4506.0791015625,-10.773802757263184
18.0,3944.3598632812495,4485.93994140625,1001.6612548828124,-1001.6612548828124,4596.40966796875,-12.587042808532715,1.0,1.886700999875757e-07,0.5433246493339539,8.0,0.9532366394996643,0.04731878265738487,43.61226272583008,0.0006345778238028288,0.0005501481355167924,1.029472696245648e-05,56.199310302734375,9.999999747378752e-06,0.000836217193864286,4485.93994140625,-1001.6612548828124,4596.40966796875,-12.587042808532715
19.0,3144.054931640625,4560.3896484375,1191.1702880859375,-1191.1702880859375,4713.3896484375,-14.638557434082031,1.0,1.4097929579293123e-07,0.5488051772117615,8.0,0.9663453698158264,0.04778206720948219,91.27719116210936,0.0007363177719525994,0.015222293324768543,1.0137518074770924e-05,105.9157485961914,9.999999747378752e-06,0.0010379935847595334,4560.3896484375,-1191.1702880859375,4713.3896484375,-14.638557434082031
20.0,2488.426025390625,4647.83154296875,1423.3807373046875,-1423.3807373046875,4860.89990234375,-17.027008056640625,1.0,1.0858654064804797e-07,0.5552723407745361,8.0,0.9747353792190552,0.049031041562557214,147.64674377441406,0.0006274936604313552,0.011752817779779434,1.0086821930599397e-05,164.6737518310547,9.999999747378752e-06,0.0010127119021490216,4647.83154296875,-1423.3807373046875,4860.89990234375,-17.027008056640625
21.0,1976.6566162109373,4755.90087890625,1697.5037841796875,-1697.5037841796875,5049.763671875,-19.642793655395508,1.0,1.270048386459166e-07,0.5586089491844177,8.0,0.9800283908843994,0.05077184736728668,-136.16055297851562,0.00048077729297801847,0.0008553127408958972,1.0054302038042806e-05,-116.51773834228516,9.999999747378752e-06,0.00101526768412441,4755.90087890625,-1697.5037841796875,5049.763671875,-19.642793655395508
22.0,1582.03125,4879.11865234375,2017.1833496093752,-2017.1833496093752,5279.66162109375,-22.461763381958008,1.0,1.1230351759650149e-07,0.5557919144630432,8.0,0.9828640222549438,0.052949387580156326,103.44895935058592,0.0008274890715256332,0.0011994302039965987,1.0028934411820956e-05,125.91072845458984,9.999999747378752e-06,0.0011434516636654735,4879.11865234375,-2017.1833496093752,5279.66162109375,-22.461763381958008
23.0,1253.6336669921875,5033.88134765625,2408.541015625,-2408.541015625,5580.4150390625,-25.569528579711918,1.0,1.2929370996062062e-07,0.5579349398612976,8.0,0.9864262342453003,0.056006401777267456,135.4824676513672,9.999999747378752e-06,0.0013463632203638551,1.0036243111244403e-05,161.05201721191406,9.999999747378752e-06,0.0013520980719476938,5033.88134765625,-2408.541015625,5580.4150390625,-25.569528579711918
24.0,996.09375,5221.81494140625,2864.399169921875,-2864.399169921875,5955.84912109375,-28.746740341186523,1.0,1.523583250673255e-07,0.5629010200500488,8.0,0.9878395795822144,0.05964381992816925,-26.943418502807617,0.0007125393603928387,0.002125621074810624,1.0014327926910482e-05,1.8033232688903809,9.999999747378752e-06,0.0017176936380565166,5221.81494140625,-2864.399169921875,5955.84912109375,-28.746740341186523
25.0,790.028076171875,5445.71630859375,3420.774169921875,-3420.774169921875,6430.9814453125,-32.135345458984375,1.0,1.585988513852499e-07,0.5610356330871582,8.0,0.9911882281303405,0.06452781707048416,-149.415771484375,0.0004284650494810194,0.002828920958563685,1.0033898433903232e-05,-117.28042602539062,9.999999747378752e-06,0.0013396799331530929,5445.71630859375,-3420.774169921875,6430.9814453125,-32.135345458984375
26.0,628.8109741210938,5720.7841796875,4047.662109375,-4047.662109375,7007.919921875,-35.28078842163086,1.0,1.7923747464010378e-07,0.5669264197349548,8.0,0.9917508959770202,0.0701189860701561,63.61675262451172,0.0007474850863218307,0.0038251252844929695,1.0005676813307218e-05,98.89753723144531,9.999999747378752e-06,0.0015463606687262654,5720.7841796875,-4047.662109375,7007.919921875,-35.28078842163086
27.0,496.3235168457031,5728.36865234375,4983.74951171875,-4983.74951171875,7592.88916015625,-41.023658752441406,1.0,1.750345290929545e-07,0.5726562142372131,8.0,0.9643140435218813,0.07382831722497939,93.35186004638672,0.0004472506989259273,0.0033726398833096027,9.723349648993462e-06,134.37551879882812,9.999999747378752e-06,0.0003808671608567238,5728.36865234375,-4983.74951171875,7592.88916015625,-41.023658752441406
28.0,395.3313293457031,6176.11376953125,5833.6044921875,-5833.6044921875,8495.60546875,-43.366405487060554,1.0,1.849072077675373e-07,0.57816481590271,8.0,0.9834151864051818,0.0866388753056526,54.355178833007805,0.0009056268027052284,0.006520331371575594,1.019807950797258e-05,97.72158813476561,9.999999747378752e-06,0.0005019732634536922,6176.11376953125,-5833.6044921875,8495.60546875,-43.366405487060554
29.0,315.5048217773437,6678.98583984375,6818.05029296875,-6818.05029296875,9544.3515625,-45.59031677246094,1.0,1.8454846895110682e-07,0.5821106433868408,8.0,0.9926550984382627,0.09634029865264893,179.02076721191406,0.001063736155629158,0.010045444592833517,1.0093957826029508e-05,-135.38893127441406,9.999999747378752e-06,0.0005147050833329558,6678.98583984375,-6818.05029296875,9544.3515625,-45.59031677246094
30.0,249.33511352539065,7303.77001953125,7943.341796875,-7943.341796875,10790.8173828125,-47.401981353759766,1.0,1.784189009867987e-07,0.5930402874946593,8.0,0.9946430921554563,0.1081242710351944,43.1442985534668,0.0016236727824434638,0.014698113314807417,1.0020026820711792e-05,90.54627227783203,9.999999747378752e-06,0.0012311246246099472,7303.77001953125,-7943.341796875,10790.8173828125,-47.401981353759766
31.0,198.6228790283203,7971.159179687501,9007.1943359375,-9007.1943359375,12027.83984375,-48.49191284179688,1.0,1.684744859176135e-07,0.6188673377037048,8.0,0.9944856762886048,0.1202593445777893,28.753286361694332,0.0026826378889381886,0.02184513956308365,9.998417226597665e-06,77.24520111083984,9.999999747378752e-06,0.0015668089035898447,7971.159179687501,-9007.1943359375,12027.83984375,-48.49191284179688
32.0,158.005615234375,8836.64453125,10698.61328125,-10698.61328125,13876.1171875,-50.44459915161133,1.0,1.4649887702944397e-07,0.6008979082107544,8.0,0.9904295206069945,0.1381952166557312,84.30017852783203,0.003819298930466175,0.026823598891496655,9.959213457477745e-06,134.74476623535156,9.999999747378752e-06,0.0015971047105267644,8836.64453125,-10698.61328125,13876.1171875,-50.44459915161133
33.0,125.5580368041992,9834.451171875,12576.466796875,-12576.466796875,15965.0849609375,-51.97557067871094,1.0,1.317585685001177e-07,0.5901325941085817,8.0,0.9814355373382568,0.15820108354091644,-151.57339477539062,0.005462402943521737,0.03394573554396629,9.909191248880232e-06,-99.59781646728516,9.999999747378752e-06,0.0016752413939684627,9834.451171875,-12576.466796875,15965.0849609375,-51.97557067871094
34.0,99.73403930664062,10759.751953125,13436.2763671875,-13436.2763671875,17213.53515625,-51.31230163574219,1.0,1.3590903336080373e-07,0.651651918888092,8.0,0.9885463714599608,0.17338253557682037,-148.2637939453125,0.009348454885184765,0.05262751877307892,1.007245373330079e-05,-96.95149230957033,9.999999747378752e-06,0.0018237381009384988,10759.751953125,-13436.2763671875,17213.53515625,-51.31230163574219
35.0,78.78150939941406,11955.025390625,15473.6162109375,-15473.6162109375,19553.912109375,-52.310073852539055,1.0,1.4159030570226605e-07,0.6558085083961487,8.0,0.9894195795059203,0.19571182131767273,-147.23260498046875,0.013040054589509964,0.06501219421625137,1.000883275992237e-05,-94.92253875732419,9.999999747378752e-06,0.0014768544351682067,11955.025390625,-15473.6162109375,19553.912109375,-52.310073852539055
36.0,62.919464111328125,13206.3193359375,17624.25,-17624.25,22023.193359375,-53.15480422973633,1.0,1.5755865945266126e-07,0.6593425273895264,8.0,0.990572154521942,0.2204884886741638,-146.5623321533203,0.01759537309408188,0.07787659764289856,1.001164946501376e-05,-93.40753936767578,9.999999747378752e-06,0.0019456874579191208,13206.3193359375,-17624.25,22023.193359375,-53.15480422973633
37.0,49.86701965332031,14713.4541015625,20129.865234375,-20129.865234375,24933.857421875,-53.8359375,1.0,1.8525612688335968e-07,0.6650887727737427,8.0,0.9916267395019532,0.24960400164127347,-147.40707397460935,0.023371530696749687,0.09250048547983168,1.0010646292357704e-05,-93.57112884521484,9.999999747378752e-06,0.0022022449411451817,14713.4541015625,-20129.865234375,24933.857421875,-53.8359375
38.0,39.72457504272461,16302.828125,22794.158203125,-22794.158203125,28024.201171875,-54.42691040039063,1.0,1.902933774999838e-07,0.672802746295929,8.0,0.9922288060188291,0.2804121673107147,-147.0092010498047,0.03034787438809872,0.10693152248859404,1.0006071534007788e-05,-92.58229064941406,9.999999747378752e-06,0.0021377408411353822,16302.828125,-22794.158203125,28024.201171875,-54.42691040039063
39.0,31.459732055664062,18136.216796875,25789.603515625,-25789.603515625,31528.177734375,-54.88367462158203,1.0,1.6149351722560823e-07,0.6796340942382812,8.0,0.9931426048278807,0.3155721426010132,-146.6551971435547,0.038731146603822715,0.12126512825489044,1.0009209290728904e-05,-91.77152252197264,9.999999747378752e-06,0.001877912669442594,18136.216796875,-25789.603515625,31528.177734375,-54.88367462158203
40.0,24.93350982666016,20276.564453125,29046.529296875,-29046.529296875,35423.71875,-55.08219146728516,1.0,1.380154799335287e-07,0.6849163770675659,8.0,0.9939334988594056,0.3545193076133728,-146.2417449951172,0.048879291862249374,0.13621921837329865,1.0007963282987475e-05,-91.15956115722656,9.999999747378752e-06,0.0022099444177001715,20276.564453125,-29046.529296875,35423.71875,-55.08219146728516
41.0,19.862287521362305,22482.689453125,32410.3125,-32410.3125,39444.89453125,-55.25136947631836,1.0,1.5064368596995337e-07,0.691352128982544,8.0,0.9947421550750732,0.39476987719535833,-145.9074249267578,0.06008724868297577,0.1503959447145462,1.0008136086980812e-05,-90.65606689453124,9.999999747378752e-06,0.0020440900698304176,22482.689453125,-32410.3125,39444.89453125,-55.25136947631836
42.0,15.782828330993652,24981.408203125,36093.69140625,-36093.69140625,43895.6171875,-55.3118553161621,1.0,1.6535857128019418e-07,0.6950770020484924,8.0,0.9953857064247132,0.4392402172088623,-145.56752014160156,0.07258200645446777,0.1632823944091797,1.0006469892687164e-05,-90.25566101074217,9.999999747378752e-06,0.0019060106715187433,24981.408203125,-36093.69140625,43895.6171875,-55.3118553161621
43.0,12.466754913330078,27728.326171875,40046.8671875,-40046.8671875,48709.4609375,-55.30139160156249,1.0,1.8481829044958434e-07,0.7009761929512024,8.0,0.995868980884552,0.48733109235763544,-145.22720336914062,0.08677393198013306,0.17595534026622772,1.0004854630096816e-05,-89.92580413818358,9.999999747378752e-06,0.0019115469185635448,27728.326171875,-40046.8671875,48709.4609375,-55.30139160156249
44.0,9.973403930664062,30738.513671875,44132.375,-44132.375,53782.1796875,-55.14251708984375,1.0,1.7354800263547077e-07,0.7025441527366638,8.0,0.9966617226600648,0.538249909877777,-144.8177947998047,0.10146486014127731,0.18627583980560303,1.000796055450337e-05,-89.67527770996092,9.999999747378752e-06,0.0017590398201718926,30738.513671875,-44132.375,53782.1796875,-55.14251708984375
45.0,7.878151416778564,34913.796875,49346.3515625,-49346.3515625,60448.62109375,-54.719623565673835,1.0,1.5817688847619138e-07,0.6813621520996094,8.0,0.9970921874046323,0.6047472357749938,-144.18569946289062,0.11641810089349745,0.19022569060325625,1.0004318937717471e-05,-89.46607971191406,9.999999747378752e-06,0.0015251038130372763,34913.796875,-49346.3515625,60448.62109375,-54.719623565673835
46.0,6.275100231170654,39750.47265625,54798.88671875,-54798.88671875,67697.9921875,-54.04330825805664,1.0,1.5666687147586345e-07,0.6447501182556152,8.0,0.9975741505622864,0.67730712890625,-143.3756103515625,0.12837162613868713,0.1872875392436981,1.0004833711718675e-05,-89.33229064941406,9.999999747378752e-06,0.0014843128155916927,39750.47265625,-54798.88671875,67697.9921875,-54.04330825805664
47.0,5.013369083404541,44774.13671875,60350.34375,-60350.34375,75145.7734375,-53.42814636230469,1.0,1.2382409408928652e-07,0.599531888961792,8.0,0.9979103803634644,0.7517110109329223,-142.60968017578125,0.13686205446720123,0.17991258203983307,1.0003370334743522e-05,-89.18153381347656,9.999999747378752e-06,0.0011988703627139328,44774.13671875,-60350.34375,75145.7734375,-53.42814636230469
