# point,freq,zreal,reflected_zimag,zimag,zmod,zphz,zsig,Idc,Vdc,ie_range,gain,vmod,vphz,vsig,vthd,imod,iphz,isig,ithd,zreal_drift,zimag_drift,zmod_drift,zphz_drift
0.0,250019.53125,3697.3916015625,-485.1389465332031,485.1389465332031,3729.083740234375,7.475141048431396,1.0,2.9925797662144765e-07,0.1647222191095352,8.0,0.11203931272029875,0.004178039263933897,-155.7936859130859,0.0008381773950532079,0.17574426531791687,1.1203931080672191e-06,-163.26881408691406,9.999999747378752e-06,0.1904069185256958,3697.3916015625,485.1389465332031,3729.083740234375,7.475141048431396
1.0,198691.40625,3705.381591796875,-444.7653503417969,444.7653503417969,3731.979248046875,6.844595909118652,1.0,4.979050345355064e-07,0.3206159174442291,8.0,0.05807310715317726,0.019343892112374306,-72.76534271240233,0.003888973267748952,0.18143610656261444,5.183279427001253e-06,-79.60993957519531,9.999999747378752e-06,0.14640340209007263,3705.381591796875,444.7653503417969,3731.979248046875,6.844595909118652
2.0,157792.96875,3679.23828125,-292.0550537109375,292.0550537109375,3690.8115234375,4.538577556610107,1.0,4.888022431259743e-07,0.4241852760314941,8.0,0.06741805374622345,0.02340666390955448,141.92498779296875,0.003895737696439028,0.15454897284507751,6.3418747231480666e-06,137.38641357421875,9.173706985166065e-07,0.13792945444583893,3679.23828125,292.0550537109375,3690.8115234375,4.538577556610107
3.0,125332.03125,3645.9208984375,-234.9620513916016,234.9620513916016,3653.484130859375,3.6873383522033687,1.0,4.646524018880882e-07,0.46968841552734375,8.0,0.08295087516307831,0.028508193790912628,-73.33357238769531,0.004015486221760511,0.13441525399684906,7.803015250829048e-06,-77.02091217041014,1.0320114824935445e-06,0.12725426256656647,3645.9208984375,234.9620513916016,3653.484130859375,3.6873383522033687
4.0,99550.78125,3632.3276367187505,-144.3072967529297,144.3072967529297,3635.193115234375,2.2750847339630127,1.0,3.2900078394959564e-07,0.5052542090415955,8.0,0.10020940750837326,0.03426710516214371,-115.36122894287108,0.0017988376785069704,0.04630565270781517,9.426488759345377e-06,-117.63630676269533,9.999999747378752e-06,0.04541127756237984,3632.3276367187505,144.3072967529297,3635.193115234375,2.2750847339630127
5.0,79160.15625,3639.515380859375,-91.46787261962889,91.46787261962889,3640.6645507812495,1.4396477937698364,1.0,2.9933980272289773e-07,0.5506381392478943,8.0,0.1262269914150238,0.04322891309857368,135.1481475830078,0.002760970266535878,0.0608488917350769,1.1873908078996465e-05,133.70851135253906,9.999999747378752e-06,0.05888006836175919,3639.515380859375,91.46787261962889,3640.6645507812495,1.4396477937698364
6.0,62871.09375,3643.683349609375,-37.59307861328125,37.59307861328125,3643.877197265625,0.5911183953285217,1.0,2.591187353573332e-07,0.5629850029945374,8.0,0.18519751727581024,0.0534621849656105,-39.243778228759766,0.0036774093750864263,0.06769122183322905,1.467178481107112e-05,-39.83489227294922,1.0238846925858525e-06,0.06778886169195175,3643.683349609375,37.59307861328125,3643.877197265625,0.5911183953285217
7.0,49980.46875,3651.226318359375,9.82004737854004,-9.82004737854004,3651.239501953125,-0.1540977954864502,1.0,1.984107456109996e-07,0.5578344464302063,8.0,0.30929049849510193,0.06097780168056488,-147.05642700195312,0.0033532872330397367,0.054805997759103775,1.6700574633432552e-05,-146.90231323242188,9.53978542383993e-07,0.056305285543203354,3651.226318359375,-9.82004737854004,3651.239501953125,-0.1540977954864502
8.0,39667.96875,3657.748291015625,53.83449935913086,-53.83449935913086,3658.14453125,-0.8432146906852721,1.0,1.7127489115864594e-07,0.5468354225158691,8.0,0.49792721867561346,0.05889252573251724,41.185916900634766,0.0008890205645002424,0.013929470442235468,1.60990148287965e-05,42.02913665771484,9.999999747378752e-06,0.018003197386860847,3657.748291015625,-53.83449935913086,3658.14453125,-0.8432146906852721
9.0,31582.03125,3669.128173828125,99.47996520996092,-99.47996520996092,3670.4765625,-1.5530626773834229,1.0,1.7106364680330446e-07,0.5378989577293396,8.0,0.6057277321815491,0.044651295989751816,118.94783782958984,0.0006186930113472044,0.005331952124834061,1.2164985491835976e-05,120.50090026855467,9.999999747378752e-06,0.015334760770201685,3669.128173828125,-99.47996520996092,3670.4765625,-1.5530626773834229
10.0,25019.53125,3683.071533203125,146.21595764160156,-146.21595764160156,3685.97265625,-2.2734177112579346,1.0,1.584730426884562e-07,0.531875729560852,8.0,0.6903696656227112,0.0420103557407856,-50.34486770629882,0.0006723403930664064,0.014148962683975697,1.13973592306138e-05,-48.07144927978516,9.999999747378752e-06,0.016463149338960648,3683.071533203125,-146.21595764160156,3685.97265625,-2.2734177112579346
11.0,19863.28125,3702.676513671875,194.23928833007807,-194.23928833007807,3707.767822265625,-3.002935647964477,1.0,1.5537881381533225e-07,0.5301225185394287,8.0,0.7649171948432921,0.041081402450799935,29.558080673217773,0.0007401126204058528,0.001601851312443614,1.1079820069426203e-05,32.56101989746094,9.999999747378752e-06,0.003178639803081751,3702.676513671875,-194.23928833007807,3707.767822265625,-3.002935647964477
12.0,15682.8701171875,3725.670654296875,245.13088989257807,-245.13088989257807,3733.7260742187505,-3.7643558979034415,1.0,1.6504930044902721e-07,0.5293756127357483,8.0,0.8280196785926819,0.04041743278503417,-9.546908378601074,0.0005115314270369709,0.0011826627887785435,1.0824958735611288e-05,-5.782552242279053,9.999999747378752e-06,0.003355456981807947,3725.670654296875,-245.13088989257807,3733.7260742187505,-3.7643558979034415
13.0,12597.65625,3757.203125,296.73583984375,-296.73583984375,3768.902587890625,-4.515724658966064,1.0,1.882376636785921e-07,0.5296233892440796,8.0,0.8726145029067993,0.03971884772181511,-77.50826263427734,0.0006499828887172043,0.0017930356552824378,1.053857158694882e-05,-72.99253845214844,9.999999747378752e-06,0.0027827026788145304,3757.203125,-296.73583984375,3768.902587890625,-4.515724658966064
14.0,9895.8330078125,3775.6254882812495,364.79028320312494,-364.79028320312494,3793.20703125,-5.518627166748047,1.0,1.76917254179898e-07,0.5357795953750609,8.0,0.9113391637802125,0.039615411311388016,-47.24662399291992,0.0006204246892593801,0.01268048956990242,1.0443777682667132e-05,-41.72799682617188,9.999999747378752e-06,0.003479017410427332,3775.6254882812495,-364.79028320312494,3793.20703125,-5.518627166748047
15.0,7910.15625,3801.273193359375,442.2657470703125,-442.2657470703125,3826.914794921875,-6.636340141296387,1.0,1.465040497805603e-07,0.5364439487457275,8.0,0.9372746348381041,0.0393582358956337,-30.13392448425293,0.0006486058700829744,0.0017646568594500422,1.0284586096531712e-05,-23.497583389282223,9.999999747378752e-06,0.0029535451903939247,3801.273193359375,-442.2657470703125,3826.914794921875,-6.636340141296387
16.0,6307.87060546875,3841.838623046875,526.1552734375,-526.1552734375,3877.7006835937505,-7.798372745513917,1.0,1.6608287012331857e-07,0.5385277271270752,8.0,0.954838752746582,0.03950367122888565,51.434375762939446,0.0006429757340811193,0.002124169841408729,1.0187395673710851e-05,59.23274612426758,9.999999747378752e-06,0.0035406630486249924,3841.838623046875,-526.1552734375,3877.7006835937505,-7.798372745513917
17.0,4973.3232421875,3888.643798828125,629.1032104492188,-629.1032104492188,3939.203125,-9.189666748046877,1.0,1.7151356246358773e-07,0.5457531809806824,8.0,0.9378402233123779,0.038690757006406784,-65.5470962524414,0.00043151466525159776,0.0013223368441686034,9.821975254453719e-06,-56.35742950439453,9.999999747378752e-06,0.0009337171213701368,3888.643798828125,-629.1032104492188,3939.203125,-9.189666748046877
18.0,3944.3598632812495,3939.609130859375,741.133056640625,-741.133056640625,4008.7153320312495,-10.654162406921387,1.0,1.414227455143191e-07,0.5512374043464661,8.0,0.9631100296974182,0.04116729274392128,48.58969497680664,0.0004156131180934608,0.0004752268141601234,1.0269446647726e-05,59.243850708007805,9.999999747378752e-06,0.0007784214103594422,3939.609130859375,-741.133056640625,4008.7153320312495,-10.654162406921387
19.0,3144.054931640625,3998.24609375,873.069091796875,-873.069091796875,4092.459228515625,-12.317926406860352,1.0,1.2883735678315134e-07,0.5539987087249756,8.0,0.976685643196106,0.041501447558403015,89.14018249511719,0.0004547835851553828,0.008845970034599304,1.0140955964743624e-05,101.4581069946289,9.999999747378752e-06,0.0006824525189585984,3998.24609375,-873.069091796875,4092.459228515625,-12.317926406860352
20.0,2488.426025390625,4070.7880859375,1040.043212890625,-1040.043212890625,4201.5478515625,-14.331878662109377,1.0,1.1976344183040058e-07,0.5514626502990723,8.0,0.983957588672638,0.042328312993049615,150.0035858154297,0.00044161794357933104,0.012562505900859833,1.0074455531139392e-05,164.33546447753906,9.999999747378752e-06,0.0008706704247742891,4070.7880859375,-1040.043212890625,4201.5478515625,-14.331878662109377
21.0,1976.6566162109373,4155.7958984375,1233.428955078125,-1233.428955078125,4334.97265625,-16.530746459960938,1.0,1.3135438337030794e-07,0.5506340265274048,8.0,0.9898069500923156,0.043607424944639206,-131.9810333251953,0.0004151826433371753,0.0012795397778972983,1.0059447049570736e-05,-115.45027923583984,9.999999747378752e-06,0.0010112248128280044,4155.7958984375,-1233.428955078125,4334.97265625,-16.530746459960938
22.0,1582.03125,4255.134765625,1459.2667236328125,-1459.2667236328125,4498.4033203125,-18.92902183532715,1.0,1.6264824864720143e-07,0.5479049682617188,8.0,0.9921951293945312,0.04509256780147552,107.16622924804688,0.00052849535131827,0.0015836431412026286,1.0024127732322084e-05,126.09525299072264,9.999999747378752e-06,0.0012542889453470707,4255.134765625,-1459.2667236328125,4498.4033203125,-18.92902183532715
23.0,1253.6336669921875,4373.9140625,1730.9124755859375,-1730.9124755859375,4703.9541015625,-21.590457916259766,1.0,2.0086750396330896e-07,0.5491146445274353,8.0,0.9947944283485411,0.04716276749968529,138.16148376464844,0.0002019147796090692,0.0016586697893217206,1.002619774226332e-05,159.7519378662109,9.999999747378752e-06,0.0013560258084908128,4373.9140625,-1730.9124755859375,4703.9541015625,-21.590457916259766
24.0,996.09375,4516.74365234375,2050.472900390625,-2050.472900390625,4960.38427734375,-24.41669464111328,1.0,1.953116850472725e-07,0.5488138198852539,8.0,0.9949414730072019,0.0496111735701561,-21.93424415588379,0.0002618116559460759,0.002740425756201148,1.0001477676269133e-05,2.482451200485229,9.999999747378752e-06,0.001780775375664234,4516.74365234375,-2050.472900390625,4960.38427734375,-24.41669464111328
25.0,790.028076171875,4682.55810546875,2428.298828125,-2428.298828125,5274.74951171875,-27.41052436828613,1.0,1.9072732015956722e-07,0.5541084408760071,8.0,0.99619859457016,0.052814140915870667,-144.3884124755859,0.00026811042334884405,0.0029279368463903666,1.0012635357270481e-05,-116.97789001464844,9.999999747378752e-06,0.0013482130598276851,4682.55810546875,-2428.298828125,5274.74951171875,-27.41052436828613
26.0,628.8109741210938,4880.01123046875,2859.730712890625,-2859.730712890625,5656.197265625,-30.370689392089844,1.0,2.1764572011306882e-07,0.5593627691268921,8.0,0.998692512512207,0.05670357495546341,68.8329086303711,0.0004370048991404474,0.0039535709656775,1.0025034498539752e-05,99.20359802246092,9.999999747378752e-06,0.0012037670239806175,4880.01123046875,-2859.730712890625,5656.197265625,-30.370689392089844
27.0,496.3235168457031,4868.705078125,3546.98486328125,-3546.98486328125,6023.73583984375,-36.07435989379882,1.0,2.036678665717773e-07,0.563770055770874,8.0,0.9688076972961424,0.05843481793999672,96.43698120117188,0.000546133378520608,0.00318613788112998,9.700760529085528e-06,132.51133728027344,9.999999747378752e-06,0.00023380773200187832,4868.705078125,-3546.98486328125,6023.73583984375,-36.07435989379882
28.0,395.3313293457031,5188.29541015625,4136.48828125,-4136.48828125,6635.43115234375,-38.56441116333008,1.0,1.8810249002854104e-07,0.5679271221160889,8.0,0.9896745681762696,0.06778349727392197,60.106060028076165,0.0005225978093221784,0.005586220882833004,1.0215387192147318e-05,98.67047882080078,9.999999747378752e-06,0.0005173099343664944,5188.29541015625,-4136.48828125,6635.43115234375,-38.56441116333008
29.0,315.5048217773437,5550.1142578125,4833.90576171875,-4833.90576171875,7360.05517578125,-41.0544319152832,1.0,1.963906584023789e-07,0.5706673264503479,8.0,0.9981504678726195,0.07423089444637297,-176.54527282714844,0.0005429590819403529,0.008248138241469858,1.00856432254659e-05,-135.4908447265625,9.999999747378752e-06,0.0006418688572011888,5550.1142578125,-4833.90576171875,7360.05517578125,-41.0544319152832
30.0,249.33511352539065,5994.17724609375,5654.58154296875,-5654.58154296875,8240.4150390625,-43.33013153076172,1.0,1.8860455952562918e-07,0.5771130323410033,8.0,1.000654697418213,0.08261090517044067,47.509647369384766,0.0008621310116723181,0.010916149243712423,1.002508906822186e-05,90.83978271484376,9.999999747378752e-06,0.0008779543568380178,5994.17724609375,-5654.58154296875,8240.4150390625,-43.33013153076172
31.0,198.6228790283203,6524.3896484375,6669.138671875,-6669.138671875,9329.794921875,-45.628582000732415,1.0,1.529743371975201e-07,0.5700075030326843,8.0,0.9983950853347777,0.09308725595474243,30.88507843017578,0.0013324801111593843,0.014395208097994328,9.977417903428432e-06,76.51365661621092,9.999999747378752e-06,0.001008861232548952,6524.3896484375,-6669.138671875,9329.794921875,-45.628582000732415
32.0,158.005615234375,7171.0810546875,7892.20263671875,-7892.20263671875,10663.548828125,-47.74081802368164,1.0,1.2997499254652214e-07,0.5609636902809143,8.0,0.9962773919105528,0.10640929639339448,87.5139923095703,0.0019832574762403965,0.018048463389277455,9.978789421438703e-06,135.2548065185547,9.999999747378752e-06,0.0010624205460771918,7171.0810546875,-7892.20263671875,10663.548828125,-47.74081802368164
33.0,125.5580368041992,7867.99560546875,9077.9716796875,-9077.9716796875,12013.115234375,-49.084102630615234,1.0,1.3275260357659138e-07,0.5759513378143312,8.0,0.9866303205490112,0.11896789819002151,-148.86854553222656,0.0027861783746629958,0.02309870719909668,9.903168574965092e-06,-99.78445434570312,9.999999747378752e-06,0.0012094059493392704,7867.99560546875,-9077.9716796875,12013.115234375,-49.084102630615234
34.0,99.73403930664062,8714.1318359375,10116.4912109375,-10116.4912109375,13352.1337890625,-49.25908660888672,1.0,1.5519427165600066e-07,0.6121519207954407,8.0,0.9912717342376709,0.1341494768857956,-146.12005615234375,0.004342864733189344,0.031466320157051086,1.0047043360827956e-05,-96.86096954345705,9.999999747378752e-06,0.000624500447884202,8714.1318359375,-10116.4912109375,13352.1337890625,-49.25908660888672
35.0,78.78150939941406,9772.2734375,11805.9013671875,-11805.9013671875,15325.685546875,-50.38391876220703,1.0,1.5431716349212365e-07,0.6104171872138977,8.0,0.9922817349433899,0.15341301262378693,-145.25570678710935,0.006092098541557789,0.03865249454975128,1.0010188816522712e-05,-94.87178802490233,9.999999747378752e-06,0.0007583609549328685,9772.2734375,-11805.9013671875,15325.685546875,-50.38391876220703
36.0,62.919464111328125,11007.17578125,13618.888671875,-13618.888671875,17510.912109375,-51.05386352539063,1.0,1.5967131616889674e-07,0.608684480190277,8.0,0.992780327796936,0.17519712448120117,-144.38021850585935,0.00837311800569296,0.04661547392606735,1.0005024705606049e-05,-93.32635498046876,9.999999747378752e-06,0.0009300361271016301,11007.17578125,-13618.888671875,17510.912109375,-51.05386352539063
37.0,49.86701965332031,12400.9111328125,15645.974609375,-15645.974609375,19964.447265625,-51.599857330322266,1.0,1.8945598867503577e-07,0.6089614629745483,8.0,0.9933876395225525,0.1997665911912918,-145.1107177734375,0.01123086642473936,0.05548271536827088,1.0006117008742876e-05,-93.5108642578125,9.999999747378752e-06,0.0010208063758909702,12400.9111328125,-15645.974609375,19964.447265625,-51.599857330322266
38.0,39.72457504272461,13946.9111328125,17727.900390625,-17727.900390625,22556.48046875,-51.80712890625,1.0,2.1225987723028086e-07,0.6140226125717163,8.0,0.99396014213562,0.22569479048252103,-144.33712768554688,0.014969849959015846,0.06551385670900345,1.0005763215303887e-05,-92.53000640869139,9.999999747378752e-06,0.001204991596750915,13946.9111328125,-17727.900390625,22556.48046875,-51.80712890625
39.0,31.459732055664062,15776.2392578125,20069.888671875,-20069.888671875,25528.22265625,-51.83034896850586,1.0,1.9403246653837414e-07,0.6183603405952454,8.0,0.9949225187301636,0.25552940368652344,-143.56619262695312,0.019975557923316956,0.0772143006324768,1.0009682227973826e-05,-91.73584747314452,9.999999747378752e-06,0.0008873828337527812,15776.2392578125,-20069.888671875,25528.22265625,-51.83034896850586
40.0,24.93350982666016,17977.111328125,22782.1484375,-22782.1484375,29020.73046875,-51.72346496582031,1.0,1.514842011829387e-07,0.6164917945861816,8.0,0.9954125285148621,0.2903502583503723,-142.83856201171875,0.026393683627247807,0.08977069705724716,1.0004925570683552e-05,-91.1150894165039,9.999999747378752e-06,0.0012592623243108392,17977.111328125,-22782.1484375,29020.73046875,-51.72346496582031
41.0,19.862287521362305,20429.19921875,25858.78125,-25858.78125,32954.94921875,-51.69022750854492,1.0,1.6335148700363789e-07,0.6096386909484863,8.0,0.9958302378654481,0.32968780398368835,-142.31944274902344,0.034151047468185425,0.10231439024209976,1.0004196155932732e-05,-90.62921142578125,9.999999747378752e-06,0.001017330214381218,20429.19921875,-25858.78125,32954.94921875,-51.69022750854492
42.0,15.782828330993652,23346.599609375,29475.09765625,-29475.09765625,37601.1328125,-51.61800384521484,1.0,1.7056925116776259e-07,0.5979083776473999,8.0,0.995983362197876,0.37606915831565857,-141.85194396972656,0.04438400268554688,0.11658158153295516,1.0001537702919448e-05,-90.23394012451172,9.999999747378752e-06,0.001250869478099048,23346.599609375,-29475.09765625,37601.1328125,-51.61800384521484
43.0,12.466754913330078,26932.1640625,34044.82421875,-34044.82421875,43409.578125,-51.653202056884766,1.0,1.343481557114501e-07,0.5735864043235779,8.0,0.9969043135643004,0.43449717760086054,-141.57235717773435,0.05755352973937988,0.1308680474758148,1.0009246580011675e-05,-89.91915893554686,9.999999747378752e-06,0.0012104309862479568,26932.1640625,-34044.82421875,43409.578125,-51.653202056884766
44.0,9.973403930664062,30885.794921875,39142.6875,-39142.6875,49860.62890625,-51.724563598632805,1.0,1.2895206680241245e-07,0.5455084443092345,8.0,0.9968789219856262,0.4985935389995575,-141.39797973632812,0.07225005328655243,0.1431671380996704,9.999745088862255e-06,-89.67340850830078,9.999999747378752e-06,0.0011572958901524544,30885.794921875,-39142.6875,49860.62890625,-51.724563598632805
45.0,7.878151416778564,35682.90234375,45443.19140625,-45443.19140625,57778.484375,-51.86028671264648,1.0,1.1798727683753897e-07,0.5050333142280579,8.0,0.9973405599594115,0.5780524015426636,-141.32606506347656,0.08883443474769592,0.1518440544605255,1.000463089440018e-05,-89.46578979492188,9.999999747378752e-06,0.001142998575232923,35682.90234375,-45443.19140625,57778.484375,-51.86028671264648
46.0,6.275100231170654,40924.53515625,52144.0546875,-52144.0546875,66285.8984375,-51.87389755249024,1.0,1.1651912501520201e-07,0.45404294133186335,8.0,0.9976597428321838,0.6630710363388062,-141.18643188476562,0.10157497972249983,0.15136656165122983,1.000320025923429e-05,-89.31253051757811,9.999999747378752e-06,0.001022013952024281,40924.53515625,-52144.0546875,66285.8984375,-51.87389755249024
47.0,5.013369083404541,46461.96875,58278.43359375,-58278.43359375,74532.4765625,-51.43670272827149,1.0,1.2797892168237013e-07,0.3942811191082001,8.0,0.9978904724121092,0.745497167110443,-140.6240692138672,0.10627314448356628,0.1408585011959076,1.000231259240536e-05,-89.18737030029295,9.999999747378752e-06,0.0009481030283495786,46461.96875,-58278.43359375,74532.4765625,-51.43670272827149
