# point,freq,zreal,reflected_zimag,zimag,zmod,zphz,zsig,Idc,Vdc,ie_range,gain,vmod,vphz,vsig,vthd,imod,iphz,isig,ithd,zreal_drift,zimag_drift,zmod_drift,zphz_drift
0.0,250019.53125,4122.697265625,-642.150390625,642.150390625,4172.408203125,8.853238105773924,1.0,2.6606889491631597e-07,0.11970485001802444,8.0,0.10308890789747238,0.004301289562135935,-171.07936096191406,0.0009647851111367344,0.20768876373767847,1.0308890523447187e-06,-179.93258666992188,9.999999747378752e-06,0.20675864815711972,4122.697265625,642.150390625,4172.408203125,8.853238105773924
1.0,198691.40625,4166.21484375,-411.9964904785156,411.9964904785156,4186.53662109375,5.647611141204834,1.0,5.454987785924459e-07,0.2926147580146789,8.0,0.050374105572700494,0.019838264212012287,164.9185028076172,0.004103930667042732,0.17861483991146088,4.738586540042888e-06,159.27088928222656,9.999999747378752e-06,0.14755968749523163,4166.21484375,411.9964904785156,4186.53662109375,5.647611141204834
2.0,157792.96875,4059.5185546875,-357.0914306640625,357.0914306640625,4075.1938476562495,5.027026176452637,1.0,4.7516036261185945e-07,0.40374028682708735,8.0,0.061929766088724136,0.023740464821457863,-26.076740264892575,0.00387230422347784,0.1528184711933136,5.82560323891812e-06,-31.103767395019528,9.999999747378752e-06,0.1389537751674652,4059.5185546875,357.0914306640625,4075.1938476562495,5.027026176452637
3.0,125332.03125,4054.7729492187505,-250.36756896972656,250.36756896972656,4062.495361328125,3.5333213806152344,1.0,4.57277337773121e-07,0.43801847100257874,8.0,0.07620905339717865,0.029123319312930107,51.12618637084961,0.004206720739603043,0.13763073086738586,7.168825959524838e-06,47.592864990234375,9.266655638384692e-07,0.12521155178546903,4054.7729492187505,250.36756896972656,4062.495361328125,3.5333213806152344
4.0,99550.78125,4048.6694335937505,-150.90638732910156,150.90638732910156,4051.4809570312495,2.1346020698547363,1.0,3.684364742184698e-07,0.49323126673698425,8.0,0.0918196514248848,0.03499378636479378,-66.6427993774414,0.0022842483595013614,0.04756955429911613,8.637282007839529e-06,-68.77740478515625,9.999999747378752e-06,0.04542746022343636,4048.6694335937505,150.90638732910156,4051.4809570312495,2.1346020698547363
5.0,79160.15625,4055.9619140625,-87.70383453369139,87.70383453369139,4056.909912109375,1.2387386560440063,1.0,2.861010273136344e-07,0.5658529996871948,8.0,0.11574570089578629,0.04417145997285842,127.23514556884764,0.002771850908175111,0.05938689783215522,1.0887955795624292e-05,125.99640655517578,9.999999747378752e-06,0.05850706994533538,4055.9619140625,87.70383453369139,4056.909912109375,1.2387386560440063
6.0,62871.09375,4064.613525390625,-26.730762481689453,26.730762481689453,4064.701416015625,0.3767979145050049,1.0,2.63969184288726e-07,0.6036695837974548,8.0,0.1580429375171661,0.05550074949860573,-78.8116683959961,0.004069524817168713,0.0709652230143547,1.3654323993250728e-05,-79.18846893310547,9.815836392590427e-07,0.06975676864385605,4064.613525390625,26.730762481689453,4064.701416015625,0.3767979145050049
7.0,49980.46875,4068.962890625,24.592832565307617,-24.592832565307617,4069.037353515625,-0.3462917804718017,1.0,1.913407459142036e-07,0.5967758297920227,8.0,0.2531424462795257,0.06517507135868073,-151.34217834472656,0.004220752976834774,0.0639086440205574,1.6017320376704447e-05,-150.99588012695312,1.0625988124957075e-06,0.06542912870645523,4068.962890625,-24.592832565307617,4069.037353515625,-0.3462917804718017
8.0,39667.96875,4081.027099609375,74.51683807373047,-74.51683807373047,4081.707275390625,-1.0460665225982666,1.0,1.9626028802122167e-07,0.5838728547096252,8.0,0.42640876770019526,0.06875479966402054,43.784862518310554,0.0022720035631209608,0.03162938728928565,1.6844618585309945e-05,44.83092880249024,9.999999747378752e-06,0.03313051909208298,4081.027099609375,-74.51683807373047,4081.707275390625,-1.0460665225982666
9.0,31582.03125,4094.5126953125,128.4683837890625,-128.4683837890625,4096.52734375,-1.797108173370361,1.0,1.6669449109940618e-07,0.567858099937439,8.0,0.5706333518028259,0.054820995777845376,117.94791412353516,0.0008115610689856112,0.00456677470356226,1.3382308679865671e-05,119.74501800537108,9.999999747378752e-06,0.013947023078799248,4094.5126953125,-128.4683837890625,4096.52734375,-1.797108173370361
10.0,25019.53125,4105.70361328125,186.67694091796875,-186.67694091796875,4109.9453125,-2.6033148765563965,1.0,1.494026804493842e-07,0.5727355480194092,8.0,0.6578576564788817,0.04738171771168709,-27.73202514648437,0.0008444584091193974,0.01667862758040428,1.1528552022355141e-05,-25.128707885742188,9.999999747378752e-06,0.015397516079246996,4105.70361328125,-186.67694091796875,4109.9453125,-2.6033148765563965
11.0,19863.28125,4128.33642578125,246.44560241699216,-246.44560241699216,4135.68603515625,-3.4162805080413814,1.0,1.5556473442757126e-07,0.5817968249320984,8.0,0.7344603538513182,0.04617255553603172,54.98445892333984,0.0009495783597230912,0.0011483026901260018,1.1164426723553332e-05,58.40074157714844,9.999999747378752e-06,0.0028353920206427574,4128.33642578125,-246.44560241699216,4135.68603515625,-3.4162805080413814
12.0,15682.8701171875,4147.2666015625,310.5509948730469,-310.5509948730469,4158.87744140625,-4.282366752624512,1.0,1.647232181767322e-07,0.5927296876907349,8.0,0.8026424050331116,0.04544957727193832,-28.782100677490234,0.0008048498420976102,0.00160519452765584,1.0928328265435992e-05,-24.49972915649414,9.999999747378752e-06,0.002266677096486092,4147.2666015625,-310.5509948730469,4158.87744140625,-4.282366752624512
13.0,12597.65625,4176.60693359375,381.2757263183594,-381.2757263183594,4193.97412109375,-5.215982437133789,1.0,1.304136674207257e-07,0.6017633676528931,8.0,0.8521045446395874,0.044524237513542175,-88.296875,0.0006753478664904833,0.001609051483683288,1.0616241524985524e-05,-83.08089447021484,9.999999747378752e-06,0.00207059015519917,4176.60693359375,-381.2757263183594,4193.97412109375,-5.215982437133789
14.0,9895.8330078125,4206.546875,469.0475158691406,-469.0475158691406,4232.6162109375,-6.362436771392822,1.0,1.1411464129196248e-07,0.6049219369888306,8.0,0.8929890990257262,0.044357001781463616,-69.85382843017578,0.0008139811106957494,0.01555840205401182,1.0479806405783164e-05,-63.49139022827149,9.999999747378752e-06,0.0030682107899338007,4206.546875,-469.0475158691406,4232.6162109375,-6.362436771392822
15.0,7910.15625,4242.5927734375,561.157958984375,-561.157958984375,4279.54345703125,-7.534644603729248,1.0,1.1383102815898383e-07,0.6058719158172609,8.0,0.9217474460601807,0.044173646718263626,-51.6486930847168,0.0007828505476936699,0.0012859705602750182,1.0322046364308333e-05,-44.11404800415039,9.999999747378752e-06,0.0024279432836920023,4242.5927734375,-561.157958984375,4279.54345703125,-7.534644603729248
16.0,6307.87060546875,4287.1552734375,676.12890625,-676.12890625,4340.14404296875,-8.962320327758789,1.0,1.3294703649080475e-07,0.6070991158485413,8.0,0.9410462379455566,0.04431014508008957,30.834156036376957,0.0007419625762850046,0.0017221576999872923,1.0209371794189792e-05,39.796478271484375,9.999999747378752e-06,0.001938402885571122,4287.1552734375,-676.12890625,4340.14404296875,-8.962320327758789
17.0,4973.3232421875,4346.623046875,823.1290283203125,-823.1290283203125,4423.87548828125,-10.723238945007324,1.0,1.5733047575849926e-07,0.6048360466957092,8.0,0.927821397781372,0.04361705482006073,-58.71211624145508,0.0006231088773347436,0.0008283370989374816,9.859466445050202e-06,-47.98887634277344,9.999999747378752e-06,0.0009232515003532172,4346.623046875,-823.1290283203125,4423.87548828125,-10.723238945007324
18.0,3944.3598632812495,4409.5556640625,978.2127685546877,-978.2127685546877,4516.755859375,-12.507899284362791,1.0,1.6282773174225443e-07,0.6121914982795715,8.0,0.95440536737442,0.04646170511841773,53.10702896118164,0.000464765791548416,0.0006156493327580392,1.0286520591762383e-05,65.61492156982422,9.999999747378752e-06,0.0007538488134741782,4409.5556640625,-978.2127685546877,4516.755859375,-12.507899284362791
19.0,3144.054931640625,4484.19091796875,1155.9822998046875,-1155.9822998046875,4630.79541015625,-14.455579757690428,1.0,1.7783546013561138e-07,0.6183872222900392,8.0,0.9668710231781005,0.0469127893447876,92.50716400146483,0.000574846169911325,0.013103416189551352,1.013061137200566e-05,106.96273803710936,9.999999747378752e-06,0.0008028346346691251,4484.19091796875,-1155.9822998046875,4630.79541015625,-14.455579757690428
20.0,2488.426025390625,4578.01123046875,1367.0792236328125,-1367.0792236328125,4777.7705078125,-16.626604080200195,1.0,1.9975900045210443e-07,0.6338745951652527,8.0,0.9760869145393373,0.04823310673236847,150.84304809570312,0.000564593356102705,0.01463484764099121,1.0095316611113958e-05,167.46963500976562,9.999999747378752e-06,0.0009788648458197713,4578.01123046875,-1367.0792236328125,4777.7705078125,-16.626604080200195
21.0,1976.6566162109373,4688.87841796875,1613.09130859375,-1613.09130859375,4958.5927734375,-18.9844970703125,1.0,2.218028782863257e-07,0.6426147818565369,8.0,0.9804683327674864,0.04980851709842682,-134.985595703125,0.0005415300838649273,0.00119657174218446,1.0044887858384755e-05,-116.00109100341795,9.999999747378752e-06,0.0013193781487643719,4688.87841796875,-1613.09130859375,4958.5927734375,-18.9844970703125
22.0,1582.03125,4815.9033203125,1883.6779785156248,-1883.6779785156248,5171.18603515625,-21.362306594848633,1.0,2.247243884312411e-07,0.6565235257148743,8.0,0.9845972061157225,0.05192963033914567,105.37779235839844,0.0004721455043181777,0.0018216525204479692,1.004211117106024e-05,126.74010467529295,9.999999747378752e-06,0.0013173356419429183,4815.9033203125,-1883.6779785156248,5171.18603515625,-21.362306594848633
23.0,1253.6336669921875,4972.27734375,2211.128173828125,-2211.128173828125,5441.7490234375,-23.974294662475582,1.0,2.2478948835669146e-07,0.6669624447822571,8.0,0.9877492189407348,0.05459168925881386,135.07894897460935,0.0005841035745106636,0.002118973061442375,1.0032013051386455e-05,159.05325317382812,9.999999747378752e-06,0.0011949395993724463,4972.27734375,-2211.128173828125,5441.7490234375,-23.974294662475582
24.0,996.09375,5157.91748046875,2587.293212890625,-2587.293212890625,5770.458984375,-26.639070510864254,1.0,2.1061632082819415e-07,0.6759992837905884,8.0,0.9907559752464294,0.05788024887442589,-24.379674911499023,0.0009712993050925431,0.003215450327843428,1.0030440535047092e-05,2.2593934535980225,9.999999747378752e-06,0.0013025592779740691,5157.91748046875,-2587.293212890625,5770.458984375,-26.639070510864254
25.0,790.028076171875,5375.74365234375,3047.597900390625,-3047.597900390625,6179.5205078125,-29.549617767333984,1.0,1.878516115993989e-07,0.6793477535247803,8.0,0.9919782876968384,0.06187144294381142,-146.97315979003906,0.0006806227029301226,0.004420588258653879,1.00123370430083e-05,-117.4235382080078,9.999999747378752e-06,0.0014668592484667895,5375.74365234375,-3047.597900390625,6179.5205078125,-29.549617767333984
26.0,628.8109741210938,5631.4873046875,3545.529052734375,-3545.529052734375,6654.654296875,-32.194114685058594,1.0,1.6887587150904437e-07,0.6880574226379395,8.0,0.9950717091560365,0.0667540654540062,68.21891021728516,0.0009185659000650048,0.006272278726100922,1.003118450171314e-05,100.41303253173828,9.999999747378752e-06,0.001439825864508748,5631.4873046875,-3545.529052734375,6654.654296875,-32.194114685058594
27.0,496.3235168457031,5635.07470703125,4315.82080078125,-4315.82080078125,7097.91357421875,-37.447975158691406,1.0,1.4494041522539194e-07,0.6957696080207825,8.0,0.9664743542671204,0.06893926858901978,96.45198822021484,0.0004328937502577901,0.005970345810055733,9.712610335554928e-06,133.8999786376953,9.999999747378752e-06,0.0005859412485733628,5635.07470703125,-4315.82080078125,7097.91357421875,-37.447975158691406
28.0,395.3313293457031,6027.7275390625,4952.228515625,-4952.228515625,7801.158203125,-39.405658721923835,1.0,1.4953779725601635e-07,0.7055483460426331,8.0,0.9866782426834105,0.07964239269495009,58.60878753662109,0.0009454264654777944,0.010266429744660854,1.020904710458126e-05,98.01445007324217,9.999999747378752e-06,0.0007079194765537977,6027.7275390625,-4952.228515625,7801.158203125,-39.405658721923835
29.0,315.5048217773437,6477.2646484375,5828.15380859375,-5828.15380859375,8713.3427734375,-41.980445861816406,1.0,1.5445455403551023e-07,0.6965579986572266,8.0,0.994433343410492,0.08781827986240387,-177.53384399414062,0.0013713664375245571,0.015132572501897812,1.0078598279505968e-05,-135.5533905029297,9.999999747378752e-06,0.000927387736737728,6477.2646484375,-5828.15380859375,8713.3427734375,-41.980445861816406
30.0,249.33511352539065,6997.775390625,6788.9990234375,-6788.9990234375,9749.83984375,-44.132423400878906,1.0,1.5380894069494389e-07,0.6986526250839232,8.0,0.9964130520820615,0.09769250452518465,46.45987701416016,0.0021166303195059295,0.021169058978557583,1.001990767690586e-05,90.59230041503906,9.999999747378752e-06,0.0011446460848674178,6997.775390625,-6788.9990234375,9749.83984375,-44.132423400878906
31.0,198.6228790283203,7633.876953125,8082.18310546875,-8082.18310546875,11117.453125,-46.63394165039063,1.0,1.5509371564803587e-07,0.6829705834388733,8.0,0.995698630809784,0.11109481751918791,29.76801109313965,0.0031075179576873775,0.027507904917001724,9.992830200644676e-06,76.40194702148438,9.999999747378752e-06,0.0012189674889668822,7633.876953125,-8082.18310546875,11117.453125,-46.63394165039063
32.0,158.005615234375,8385.8779296875,9621.41015625,-9621.41015625,12763.0126953125,-48.925079345703125,1.0,1.7800823570723878e-07,0.6681813001632689,8.0,0.9930721521377565,0.12729346752166748,86.36577606201172,0.0044070458970963955,0.03421972319483757,9.973621672543231e-06,135.29086303710935,9.999999747378752e-06,0.0015941044548526406,8385.8779296875,-9621.41015625,12763.0126953125,-48.925079345703125
33.0,125.5580368041992,9078.53125,10870.982421875,-10870.982421875,14163.26171875,-50.13420486450195,1.0,1.9691853481162977e-07,0.6874268651008606,8.0,0.98367577791214,0.14029251039028168,-149.949462890625,0.006423821672797203,0.04508472979068756,9.905380466079805e-06,-99.81526184082033,9.999999747378752e-06,0.0017669900553300977,9078.53125,-10870.982421875,14163.26171875,-50.13420486450195
34.0,99.73403930664062,9685.0205078125,11600.6787109375,-11600.6787109375,15112.0927734375,-50.14262008666992,1.0,2.0177084536499026e-07,0.7406706809997559,8.0,0.9905852675437928,0.1521824300289154,-147.03402709960935,0.00942255463451147,0.06033090502023697,1.0070241842186078e-05,-96.89141082763673,9.999999747378752e-06,0.00167764478828758,9685.0205078125,-11600.6787109375,15112.0927734375,-50.14262008666992
35.0,78.78150939941406,10602.60546875,13406.2529296875,-13406.2529296875,17092.1875,-51.66057968139648,1.0,2.068624951334641e-07,0.7481009364128112,8.0,0.990509569644928,0.17090880870819092,-146.54327392578125,0.012696236371994019,0.0724939778447151,9.999235771829262e-06,-94.8826904296875,9.999999747378752e-06,0.002114079426974058,10602.60546875,-13406.2529296875,17092.1875,-51.66057968139648
36.0,62.919464111328125,11614.046875,15348.564453125,-15348.564453125,19247.455078125,-52.88571166992188,1.0,2.0380510079576203e-07,0.7567305564880371,8.0,0.9919604063034057,0.19275645911693573,-146.21456909179688,0.016963044181466103,0.08586166799068451,1.0014647159550805e-05,-93.32885742187501,9.999999747378752e-06,0.0019504972733557224,11614.046875,-15348.564453125,19247.455078125,-52.88571166992188
37.0,49.86701965332031,12754.541015625,17611.755859375,-17611.755859375,21745.16796875,-54.087715148925774,1.0,1.901776727208926e-07,0.7640894055366515,8.0,0.9924629330635072,0.21756185591220853,-147.5938262939453,0.0218975692987442,0.09942617267370225,1.0005066542362329e-05,-93.50612640380861,9.999999747378752e-06,0.0016460964689031243,12754.541015625,-17611.755859375,21745.16796875,-54.087715148925774
38.0,39.72457504272461,14169.9033203125,20249.390625,-20249.390625,24714.853515625,-55.016849517822266,1.0,1.5656623020277038e-07,0.7656784653663635,8.0,0.9933336973190308,0.24736537039279935,-147.54568481445312,0.028393147513270375,0.11336246877908707,1.0008773642766757e-05,-92.52882385253906,9.999999747378752e-06,0.001819300465285778,14169.9033203125,-20249.390625,24714.853515625,-55.016849517822266
39.0,31.459732055664062,15881.8896484375,23336.4453125,-23336.4453125,28228.07421875,-55.762298583984375,1.0,1.5218176940834383e-07,0.7644867300987244,8.0,0.9940241575241088,0.28247693181037903,-147.49615478515625,0.036682095378637314,0.1283034384250641,1.0006951015384402e-05,-91.73384857177734,9.999999747378752e-06,0.002056398196145892,15881.8896484375,-23336.4453125,28228.07421875,-55.762298583984375
40.0,24.93350982666016,17727.29296875,26414.53125,-26414.53125,31811.701171875,-56.13368988037109,1.0,1.7036623489730118e-07,0.771936297416687,8.0,0.9943323731422424,0.31821563839912415,-147.2520294189453,0.046362079679965966,0.14395037293434143,1.0003100214817096e-05,-91.11835479736328,9.999999747378752e-06,0.0018533412367105484,17727.29296875,-26414.53125,31811.701171875,-56.13368988037109
41.0,19.862287521362305,19882.65625,29903.296875,-29903.296875,35909.98828125,-56.380126953125,1.0,1.7990902279052537e-07,0.7722221612930298,8.0,0.9950213432312013,0.35934871435165405,-147.01129150390625,0.05764258652925491,0.15848959982395172,1.000692918751156e-05,-90.63115692138672,9.999999747378752e-06,0.00205727806314826,19882.65625,-29903.296875,35909.98828125,-56.380126953125
42.0,15.782828330993652,22492.0078125,33942.25390625,-33942.25390625,40718.140625,-56.46935272216797,1.0,1.426761286893452e-07,0.7664235234260558,8.0,0.9956997632980346,0.4074590504169464,-146.6917724609375,0.07159923762083054,0.17363207042217255,1.0006818229157943e-05,-90.22241973876952,9.999999747378752e-06,0.0019965642131865025,22492.0078125,-33942.25390625,40718.140625,-56.46935272216797
43.0,12.466754913330078,26006.82421875,38932.3671875,-38932.3671875,46819.6953125,-56.25707626342773,1.0,1.3267886345147417e-07,0.7459907531738281,8.0,0.9959953427314758,0.4683359563350677,-146.1731414794922,0.08831728249788284,0.18633334338665009,1.0002968338085338e-05,-89.91606140136719,9.999999747378752e-06,0.0017409176798537371,26006.82421875,-38932.3671875,46819.6953125,-56.25707626342773
44.0,9.973403930664062,29627.560546875,43836.46484375,-43836.46484375,52909.62109375,-55.94659423828125,1.0,1.6720470341624605e-07,0.7295540571212769,8.0,0.9964874386787415,0.5293576121330261,-145.6154327392578,0.10460523515939713,0.1952614188194275,1.0004941032093484e-05,-89.66883087158203,9.999999747378752e-06,0.0017532475758343935,29627.560546875,-43836.46484375,52909.62109375,-55.94659423828125
45.0,7.878151416778564,34145.203125,49427.234375,-49427.234375,60074.5078125,-55.36260223388672,1.0,2.0170736547697746e-07,0.7016933560371399,8.0,0.996899366378784,0.6009933948516846,-144.82611083984375,0.12029604613780975,0.19778956472873688,1.0004133400798308e-05,-89.4635009765625,9.999999747378752e-06,0.0017241081222891808,34145.203125,-49427.234375,60074.5078125,-55.36260223388672
46.0,6.275100231170654,38899.64453125,54743.72265625,-54743.72265625,67156.9609375,-54.60326385498047,1.0,1.985064557175065e-07,0.6718884110450745,8.0,0.9976462125778198,0.67207270860672,-143.89801025390625,0.1327846199274063,0.19523452222347257,1.0007492164731955e-05,-89.29476165771484,9.999999747378752e-06,0.0014796153409406543,38899.64453125,-54743.72265625,67156.9609375,-54.60326385498047
47.0,5.013369083404541,44076.6171875,60287.12109375,-60287.12109375,74681.2265625,-53.82902908325195,1.0,1.4806344950102357e-07,0.6238839030265808,8.0,0.9978600740432739,0.7469723224639891,-142.9968109130859,0.13987188041210175,0.1850334405899048,1.000214342639083e-05,-89.16778564453125,9.999999747378752e-06,0.0012607101816684008,44076.6171875,-60287.12109375,74681.2265625,-53.82902908325195
