# point,freq,zreal,reflected_zimag,zimag,zmod,zphz,zsig,Idc,Vdc,ie_range,gain,vmod,vphz,vsig,vthd,imod,iphz,isig,ithd,zreal_drift,zimag_drift,zmod_drift,zphz_drift
0.0,250019.53125,4282.19775390625,-581.3294677734375,581.3294677734375,4321.47705078125,7.730923652648925,1.0,5.409205527939777e-07,0.4930010735988617,8.0,0.04100840911269188,0.01667041890323162,-73.6181640625,0.003571210661903024,0.20937420427799225,3.857574938592734e-06,-81.34909057617188,9.999999747378752e-06,0.1589714139699936,4282.19775390625,581.3294677734375,4321.47705078125,7.730923652648925
1.0,198691.40625,4257.72021484375,-466.5811767578125,466.5811767578125,4283.208984375,6.25378942489624,1.0,4.995267204321864e-07,0.5680710077285768,8.0,0.049187544733285904,0.019818276166915894,54.26510620117188,0.0037582432851195335,0.177612766623497,4.626969257515157e-06,48.01131820678711,9.999999747378752e-06,0.1460319012403488,4257.72021484375,466.5811767578125,4283.208984375,6.25378942489624
2.0,157792.96875,4230.5771484375,-303.0633544921875,303.0633544921875,4241.41845703125,4.097464084625244,1.0,5.389459829530098e-07,0.6258172392845154,8.0,0.06014317274093628,0.02399600483477116,152.63804626464844,0.003907447680830956,0.15370583534240723,5.6575422604510095e-06,148.54058837890625,9.999999747378752e-06,0.13546255230903623,4230.5771484375,303.0633544921875,4241.41845703125,4.097464084625244
3.0,125332.03125,4241.63037109375,-248.00799560546875,248.00799560546875,4248.87451171875,3.3462724685668945,1.0,5.309408948050987e-07,0.669866144657135,8.0,0.07347743213176726,0.029367661103606224,112.98363494873045,0.004053190350532532,0.1318887323141098,6.9118677856749855e-06,109.63735961914062,9.129665272666898e-07,0.12723708152770996,4241.63037109375,248.00799560546875,4248.87451171875,3.3462724685668945
4.0,99550.78125,4201.20166015625,-152.01699829101562,152.01699829101562,4203.951171875,2.072296380996704,1.0,3.2682950745765993e-07,0.7039424180984497,8.0,0.08919917047023773,0.03527441993355751,-89.46363067626953,0.0018126352224498987,0.0464375875890255,8.390778930333907e-06,-91.53591918945312,9.999999747378752e-06,0.04590042680501938,4201.20166015625,152.01699829101562,4203.951171875,2.072296380996704
5.0,79160.15625,4203.248046875,-86.94935607910156,86.94935607910156,4204.1474609375,1.185064673423767,1.0,2.974449557768821e-07,0.6993884444236755,8.0,0.11257915943861008,0.044522278010845184,-1.6840934753417969,0.0028849118389189243,0.06257405132055283,1.0590085366857238e-05,-2.869158267974853,9.999999747378752e-06,0.05839582160115241,4203.248046875,86.94935607910156,4204.1474609375,1.185064673423767
6.0,62871.09375,4210.14599609375,-27.47845268249512,27.47845268249512,4210.23583984375,0.37394833564758306,1.0,2.7918247269553836e-07,0.7270678281784058,8.0,0.1496187448501587,0.05595442652702332,-7.151927471160889,0.0040480545721948155,0.07028565555810928,1.3290093193063512e-05,-7.525875568389891,9.54437155087362e-07,0.07000099122524261,4210.14599609375,27.47845268249512,4210.23583984375,0.37394833564758306
7.0,49980.46875,4220.54443359375,25.72259330749512,-25.72259330749512,4220.623046875,-0.3491913974285126,1.0,2.1969894703488535e-07,0.7328914403915405,8.0,0.23620861768722531,0.06663251668214798,-176.5306854248047,0.00455037783831358,0.06760335713624954,1.5787367374286987e-05,-176.18148803710935,1.0906848046943196e-06,0.06818556040525436,4220.54443359375,-25.72259330749512,4220.623046875,-0.3491913974285126
8.0,39667.96875,4233.87548828125,79.11386108398438,-79.11386108398438,4234.61474609375,-1.0704997777938843,1.0,1.7727006706991233e-07,0.7013478875160217,8.0,0.400795578956604,0.07185236364603043,-94.67867279052734,0.0026991842314600945,0.037541087716817856,1.6967864212347195e-05,-93.60816955566406,9.999999747378752e-06,0.03899607807397842,4233.87548828125,-79.11386108398438,4234.61474609375,-1.0704997777938843
9.0,31582.03125,4244.47607421875,127.9618682861328,-127.9618682861328,4246.40478515625,-1.7268221378326416,1.0,1.6839796046497213e-07,0.6815595626831055,8.0,0.5587999224662781,0.05920451134443283,-29.71682548522949,0.0006693194154649973,0.004027347080409527,1.3942268196842631e-05,-27.989999771118164,9.999999747378752e-06,0.0128777539357543,4244.47607421875,-127.9618682861328,4246.40478515625,-1.7268221378326416
10.0,25019.53125,4261.2099609375,190.68157958984372,-190.68157958984372,4265.47412109375,-2.562175273895264,1.0,1.7014542663673637e-07,0.6723886132240297,8.0,0.646325409412384,0.04933580756187439,-157.3367919921875,0.0006483301403932272,0.015044898726046084,1.1566311513888648e-05,-154.7746124267578,9.999999747378752e-06,0.015681704506278038,4261.2099609375,-190.68157958984372,4265.47412109375,-2.562175273895264
11.0,19863.28125,4282.21484375,245.87561035156247,-245.87561035156247,4289.267578125,-3.286192893981933,1.0,1.7362752657845706e-07,0.6726638078689575,8.0,0.7254124879837037,0.04814121127128601,-162.46258544921875,0.0008199636358767747,0.0019867748487740755,1.1223642104596364e-05,-159.1763916015625,9.999999747378752e-06,0.002717725932598114,4282.21484375,-245.87561035156247,4289.267578125,-3.286192893981933
12.0,15682.8701171875,4307.80029296875,313.1944885253906,-313.1944885253906,4319.17041015625,-4.158318042755127,1.0,1.8126669942830634e-07,0.6729620099067688,8.0,0.7945905327796936,0.04731062427163124,81.56180572509764,0.0007633446366526185,0.0018279985524713995,1.0953636774502227e-05,85.7201156616211,9.999999747378752e-06,0.0032883831299841404,4307.80029296875,-313.1944885253906,4319.17041015625,-4.158318042755127
13.0,12597.65625,4324.4482421875,398.92504882812494,-398.92504882812494,4342.8095703125,-5.270548820495605,1.0,1.682641368461191e-07,0.670501172542572,8.0,0.8481969833374022,0.04635794088244438,-2.010438203811645,0.0008360880892723799,0.0018883434822782876,1.067464290827047e-05,3.2601101398468018,9.999999747378752e-06,0.002544723218306899,4324.4482421875,-398.92504882812494,4342.8095703125,-5.270548820495605
14.0,9895.8330078125,4377.06396484375,468.4140319824218,-468.4140319824218,4402.05615234375,-6.108293533325195,1.0,1.5300524580652566e-07,0.6721012592315674,8.0,0.8883481621742249,0.04610436782240868,-2.290971279144287,0.000671275716740638,0.01406138390302658,1.047337082127342e-05,3.8173227310180655,9.999999747378752e-06,0.003689739620313048,4377.06396484375,-468.4140319824218,4402.05615234375,-6.108293533325195
15.0,7910.15625,4411.42041015625,557.6378784179688,-557.6378784179688,4446.525390625,-7.2044219970703125,1.0,1.2523614145720785e-07,0.6695023775100708,8.0,0.9192988872528077,0.0460144579410553,5.539933204650879,0.0007905030506663024,0.0015188792021945119,1.034840715874452e-05,12.744354248046877,9.999999747378752e-06,0.0033078778069466352,4411.42041015625,-557.6378784179688,4446.525390625,-7.2044219970703125
16.0,6307.87060546875,4458.33837890625,667.63525390625,-667.63525390625,4508.05029296875,-8.516744613647461,1.0,9.179372284506826e-08,0.67186039686203,8.0,0.940912127494812,0.046140369027853005,72.2443161010742,0.0008668883237987757,0.0011447855504229665,1.0235105946776455e-05,80.7610626220703,9.999999747378752e-06,0.002721415134146809,4458.33837890625,-667.63525390625,4508.05029296875,-8.516744613647461
17.0,4973.3232421875,4523.20361328125,802.8041992187501,-802.8041992187501,4593.89404296875,-10.064377784729004,1.0,9.195503025694052e-08,0.6753404140472412,8.0,0.9272611141204834,0.04527245089411736,-38.103702545166016,0.00067322637187317,0.000797102868091315,9.854917152551934e-06,-28.039325714111328,9.999999747378752e-06,0.0005866023129783571,4523.20361328125,-802.8041992187501,4593.89404296875,-10.064377784729004
18.0,3944.3598632812495,4592.9111328125,946.1864013671875,-946.1864013671875,4689.3603515625,-11.64065933227539,1.0,9.609576068214665e-08,0.6765566468238832,8.0,0.9535581469535828,0.048223506659269326,72.07040405273438,0.0004921720246784389,0.000765367702115327,1.0283599294780288e-05,83.7110595703125,9.999999747378752e-06,0.0006178658222779632,4592.9111328125,-946.1864013671875,4689.3603515625,-11.64065933227539
19.0,3144.054931640625,4669.50634765625,1119.74072265625,-1119.74072265625,4801.88623046875,-13.484817504882812,1.0,1.1626168827660877e-07,0.6725713610649109,8.0,0.9682993888854979,0.048761192709207535,109.55938720703124,0.0005795962060801685,0.008849401026964188,1.0154592018807305e-05,123.04420471191406,9.999999747378752e-06,0.0008023986592888832,4669.50634765625,-1119.74072265625,4801.88623046875,-13.484817504882812
20.0,2488.426025390625,4766.3037109375,1329.2264404296875,-1329.2264404296875,4948.1806640625,-15.582719802856444,1.0,1.2991323217192985e-07,0.6690859198570251,8.0,0.9760071039199827,0.04987569153308869,166.8856964111328,0.0006298638763837516,0.010334115475416183,1.007960054266732e-05,-177.5315704345703,9.999999747378752e-06,0.0008278362802229821,4766.3037109375,-1329.2264404296875,4948.1806640625,-15.582719802856444
21.0,1976.6566162109373,4879.99462890625,1569.994384765625,-1569.994384765625,5126.3271484375,-17.834049224853516,1.0,1.5652828722068082e-07,0.6681893467903137,8.0,0.9811221361160278,0.05153192579746246,-122.56855010986328,0.0006485139601863921,0.0013045198284089563,1.0052407560579011e-05,-104.73450469970705,9.999999747378752e-06,0.0007591695757582783,4879.99462890625,-1569.994384765625,5126.3271484375,-17.834049224853516
22.0,1582.03125,5009.28662109375,1862.3986816406248,-1862.3986816406248,5344.2939453125,-20.394592285156246,1.0,1.4435377693189366e-07,0.6576773524284363,8.0,0.9857195615768432,0.05369336903095245,120.89909362792967,0.0006671787705272436,0.0017735055880621076,1.0046858733403496e-05,141.29367065429688,9.999999747378752e-06,0.001333081629127264,5009.28662109375,-1862.3986816406248,5344.2939453125,-20.394592285156246
23.0,1253.6336669921875,5166.79541015625,2187.335205078125,-2187.335205078125,5610.72265625,-22.94511032104492,1.0,1.610734727819363e-07,0.6642090082168579,8.0,0.9892646074295045,0.05630900710821152,147.9070587158203,0.0003878686984535306,0.0025523416697978973,1.0035963896370959e-05,170.8521728515625,9.999999747378752e-06,0.0010931240394711494,5166.79541015625,-2187.335205078125,5610.72265625,-22.94511032104492
24.0,996.09375,5347.13720703125,2540.3798828125,-2540.3798828125,5919.916015625,-25.411998748779297,1.0,1.741707933433645e-07,0.6753745675086975,8.0,0.9912139177322388,0.05931581184267998,-17.4614315032959,0.0009604381630197168,0.003565739374607801,1.0019704859587364e-05,7.95056676864624,9.999999747378752e-06,0.0015447831247001886,5347.13720703125,-2540.3798828125,5919.916015625,-25.411998748779297
25.0,790.028076171875,5557.033203125,2959.483154296875,-2959.483154296875,6295.9638671875,-28.038217544555664,1.0,1.728925553834415e-07,0.684959352016449,8.0,0.9929423332214355,0.0630694180727005,-138.8435821533203,0.0006748181185685097,0.005512265954166651,1.0017437489295844e-05,-110.80536651611328,9.999999747378752e-06,0.001358415698632598,5557.033203125,-2959.483154296875,6295.9638671875,-28.038217544555664
26.0,628.8109741210938,5796.70849609375,3423.3720703125,-3423.3720703125,6732.10986328125,-30.56489944458008,1.0,1.577053865275957e-07,0.6948354244232178,8.0,0.9945177435874939,0.06742791086435318,72.08816528320312,0.0009072049870155752,0.006995819043368101,1.001586588245118e-05,102.65306854248045,9.999999747378752e-06,0.0012359792599454522,5796.70849609375,-3423.3720703125,6732.10986328125,-30.56489944458008
27.0,496.3235168457031,5770.2890625,4119.23876953125,-4119.23876953125,7089.736328125,-35.52191925048828,1.0,1.5051588775349958e-07,0.711841344833374,8.0,0.96662038564682,0.06890861690044403,101.7235870361328,0.0006287273135967553,0.006429119035601616,9.719488843984435e-06,137.24551391601562,9.999999747378752e-06,0.0005495415534824133,5770.2890625,-4119.23876953125,7089.736328125,-35.52191925048828
28.0,395.3313293457031,6133.916015625,4766.041015625,-4766.041015625,7767.88720703125,-37.84713745117188,1.0,1.2464748522234004e-07,0.7143347263336182,8.0,0.9875619411468506,0.07936176657676695,62.36417770385742,0.0010310715297237039,0.010888868942856789,1.0216646842309272e-05,100.21131134033205,9.999999747378752e-06,0.0006630657007917762,6133.916015625,-4766.041015625,7767.88720703125,-37.84713745117188
29.0,315.5048217773437,6544.52099609375,5576.69775390625,-5576.69775390625,8598.2734375,-40.43487930297852,1.0,1.2126332649131655e-07,0.7102725505828857,8.0,0.9960980415344238,0.08672593533992766,-173.906494140625,0.0015203512739390135,0.016049183905124664,1.0086436304845847e-05,-133.47161865234375,9.999999747378752e-06,0.000963641854468733,6544.52099609375,-5576.69775390625,8598.2734375,-40.43487930297852
30.0,249.33511352539065,7008.45068359375,6455.36669921875,-6455.36669921875,9528.3857421875,-42.647655487060554,1.0,1.2273666527562455e-07,0.7171932458877563,8.0,0.998922288417816,0.09555402398109437,49.89198303222656,0.002085366751998663,0.02181670442223549,1.0028353244706523e-05,92.53963470458984,9.999999747378752e-06,0.0012419372797012327,7008.45068359375,-6455.36669921875,9528.3857421875,-42.647655487060554
31.0,198.6228790283203,7448.083984375,7314.499023437501,-7314.499023437501,10439.150390625,-44.48155212402344,1.0,1.0594543908837296e-07,0.7354638576507568,8.0,0.997308313846588,0.10422283411026,33.57460403442383,0.002935865893959999,0.02831914648413658,9.983842574001757e-06,78.05615997314453,9.999999747378752e-06,0.0013746647164225578,7448.083984375,-7314.499023437501,10439.150390625,-44.48155212402344
32.0,158.005615234375,8029.483398437501,8553.11328125,-8553.11328125,11731.5107421875,-46.808631896972656,1.0,9.892877983475043e-08,0.7343481183052064,8.0,0.994409739971161,0.11697414517402648,89.15031433105469,0.0042822291143238544,0.036061055958271034,9.970935934688898e-06,135.95895385742188,9.999999747378752e-06,0.0013627521693706512,8029.483398437501,-8553.11328125,11731.5107421875,-46.808631896972656
33.0,125.5580368041992,8810.2431640625,10221.9521484375,-10221.9521484375,13494.765625,-49.24213409423828,1.0,1.0156004748296255e-07,0.7216639518737794,8.0,0.9836683869361875,0.13348998129367828,-148.25665283203125,0.0059907352551817885,0.044374700635671616,9.891982699627988e-06,-99.01451110839844,9.999999747378752e-06,0.0014798527117818592,8810.2431640625,-10221.9521484375,13494.765625,-49.24213409423828
34.0,99.73403930664062,9490.666015625,11306.681640625,-11306.681640625,14761.9033203125,-49.99038696289063,1.0,1.4366153777700674e-07,0.7565298080444336,8.0,0.9905723929405212,0.14865513145923615,-146.87730407714844,0.008671008050441742,0.05679880827665329,1.007018636300927e-05,-96.8869171142578,9.999999747378752e-06,0.0015141904586926103,9490.666015625,-11306.681640625,14761.9033203125,-49.99038696289063
35.0,78.78150939941406,10471.0390625,13328.5439453125,-13328.5439453125,16949.712890625,-51.84646224975586,1.0,1.7392591189491213e-07,0.7542430758476257,8.0,0.9913634061813353,0.1696324646472931,-146.73654174804688,0.011917533352971075,0.06850225478410721,1.0007985110860316e-05,-94.89007568359376,9.999999747378752e-06,0.001577589428052306,10471.0390625,-13328.5439453125,16949.712890625,-51.84646224975586
36.0,62.919464111328125,11448.6962890625,15301.294921875,-15301.294921875,19110.265625,-53.19552230834961,1.0,1.874956581104925e-07,0.7606168389320372,8.0,0.9920575022697448,0.19123646616935727,-146.535888671875,0.015791568905115128,0.08054687082767487,1.00070019470877e-05,-93.34036254882812,9.999999747378752e-06,0.0016847384395077825,11448.6962890625,-15301.294921875,19110.265625,-53.19552230834961
37.0,49.86701965332031,12715.82421875,17676.109375,-17676.109375,21774.6875,-54.26955032348633,1.0,1.875015129826352e-07,0.7669433355331421,8.0,0.9925757050514221,0.217860609292984,-147.8002471923828,0.020901620388031002,0.094744473695755,1.0005222975451032e-05,-93.5306930541992,9.999999747378752e-06,0.001802815007977188,12715.82421875,-17676.109375,21774.6875,-54.26955032348633
38.0,39.72457504272461,14122.2314453125,20341.67578125,-20341.67578125,24763.302734375,-55.22964096069336,1.0,1.639488402815914e-07,0.7694389820098878,8.0,0.993625283241272,0.24789489805698395,-147.7594757080078,0.027440812438726425,0.10936615616083144,1.0010574442276264e-05,-92.52983093261719,9.999999747378752e-06,0.0019000874599441884,14122.2314453125,-20341.67578125,24763.302734375,-55.22964096069336
39.0,31.459732055664062,15857.712890625,23447.171875,-23447.171875,28306.12890625,-55.92885971069336,1.0,1.1895117069116169e-07,0.7699496746063232,8.0,0.9938192963600159,0.2831165194511413,-147.6679534912109,0.035901181399822235,0.12529465556144714,1.0001952432503458e-05,-91.73909759521484,9.999999747378752e-06,0.00188721832819283,15857.712890625,-23447.171875,28306.12890625,-55.92885971069336
40.0,24.93350982666016,17975.521484375,26965.71875,-26965.71875,32407.859375,-56.31232070922852,1.0,1.2315220487835177e-07,0.7682254314422606,8.0,0.9944592714309692,0.3242873251438141,-147.42140197753906,0.04701154679059982,0.1432118862867355,1.0006439879362004e-05,-91.10907745361328,9.999999747378752e-06,0.0019282050197944045,17975.521484375,-26965.71875,32407.859375,-56.31232070922852
41.0,19.862287521362305,20664.423828125,31359.1015625,-31359.1015625,37555.44921875,-56.61668014526367,1.0,1.2865486098689874e-07,0.7506430149078369,8.0,0.9947819709777832,0.375676304101944,-147.25033569335935,0.06065913662314415,0.1595257073640823,1.0003244824474676e-05,-90.6336669921875,9.999999747378752e-06,0.0020110884215682745,20664.423828125,-31359.1015625,37555.44921875,-56.61668014526367
42.0,15.782828330993652,23756.58203125,36132.3671875,-36132.3671875,43242.60546875,-56.67557907104492,1.0,1.487113934217632e-07,0.7363028526306152,8.0,0.9952223896980285,0.43261757493019104,-146.90943908691406,0.07708015292882918,0.1760427951812744,1.0004427167586982e-05,-90.23385620117188,9.999999747378752e-06,0.001907269353978336,23756.58203125,-36132.3671875,43242.60546875,-56.67557907104492
43.0,12.466754913330078,27624.701171875,41625.6640625,-41625.6640625,49958.18359375,-56.42992401123047,1.0,1.420245467897985e-07,0.7163897752761841,8.0,0.9958979487419128,0.49992093443870544,-146.35475158691406,0.09605699032545088,0.18985547125339508,1.0006788215832785e-05,-89.92482757568358,9.999999747378752e-06,0.002102481434121728,27624.701171875,-41625.6640625,49958.18359375,-56.42992401123047
44.0,9.973403930664062,32334.15234375,47597.15625,-47597.15625,57541.17578125,-55.810577392578125,1.0,1.3871073178961526e-07,0.6799591183662416,8.0,0.996167540550232,0.5755674839019775,-145.4912567138672,0.11305078864097597,0.19408200681209564,1.0002707313105928e-05,-89.68067932128906,9.999999747378752e-06,0.002033619675785303,32334.15234375,-47597.15625,57541.17578125,-55.810577392578125
45.0,7.878151416778564,37860.6484375,53742.98828125,-53742.98828125,65739.921875,-54.83622360229492,1.0,1.4916656709829113e-07,0.6334026455879211,8.0,0.996917724609375,0.6578943133354187,-144.31576538085935,0.12540695071220395,0.18836086988449097,1.0007530363509431e-05,-89.47954559326173,9.999999747378752e-06,0.001734775840304792,37860.6484375,-53742.98828125,65739.921875,-54.83622360229492
46.0,6.275100231170654,43357.9609375,59377.86328125,-59377.86328125,73523.078125,-53.8629264831543,1.0,1.1474245553699804e-07,0.584032416343689,8.0,0.9973968863487245,0.735584259033203,-143.18182373046875,0.131727933883667,0.17696015536785123,1.000480642687762e-05,-89.31890106201172,9.999999747378752e-06,0.0014795876340940595,43357.9609375,-59377.86328125,73523.078125,-53.8629264831543
47.0,5.013369083404541,48907.6328125,64830.37890625,-64830.37890625,81209.203125,-52.96932601928711,1.0,1.1708954872347022e-07,0.5272237658500671,8.0,0.9973922967910767,0.8120883703231812,-142.1678924560547,0.13445262610912323,0.16359843313694,9.999954272643665e-06,-89.19857025146483,9.999999747378752e-06,0.0013895233860239387,48907.6328125,-64830.37890625,81209.203125,-52.96932601928711
