# point,freq,zreal,reflected_zimag,zimag,zmod,zphz,zsig,Idc,Vdc,ie_range,gain,vmod,vphz,vsig,vthd,imod,iphz,isig,ithd,zreal_drift,zimag_drift,zmod_drift,zphz_drift
0.0,250019.53125,4291.36083984375,153.7344207763672,-153.7344207763672,4294.11376953125,-2.051696300506592,1.0,5.469842108141165e-07,0.27101781964302063,8.0,0.040549900382757194,0.01677800342440605,-77.83260345458984,0.0054032462649047375,0.31354960799217224,3.814443971350556e-06,-85.35821533203125,9.999999747378752e-06,0.15800651907920835,4291.36083984375,-153.7344207763672,4294.11376953125,-2.051696300506592
1.0,198691.40625,4272.126953125,113.45018768310545,-113.45018768310545,4273.6328125,-1.5211837291717527,1.0,5.523290838027606e-07,0.369596004486084,8.0,0.048794470727443695,0.01992611214518547,5.094592094421387,0.003872762201353908,0.17882215976715088,4.589993750414577e-06,-1.0573906898498535,9.999999747378752e-06,0.14521966874599457,4272.126953125,-113.45018768310545,4273.6328125,-1.5211837291717527
2.0,157792.96875,4321.30322265625,146.56239318847656,-146.56239318847656,4323.7880859375,-1.942513346672058,1.0,5.331979195943859e-07,0.47649803757667536,8.0,0.05885082483291625,0.0241843331605196,172.7394256591797,0.0040296814404428005,0.15469107031822205,5.5359737416438284e-06,168.55239868164062,9.999999747378752e-06,0.1373419314622879,4321.30322265625,-146.56239318847656,4323.7880859375,-1.942513346672058
3.0,125332.03125,4309.46337890625,105.04133605957033,-105.04133605957033,4310.7431640625,-1.396283745765686,1.0,4.5767572487420694e-07,0.5524830222129822,8.0,0.0723660960793495,0.029546227306127548,-155.0279541015625,0.004145842976868153,0.13326874375343323,6.807326826674398e-06,-158.5228729248047,9.999999747378752e-06,0.12344323843717576,4309.46337890625,-105.04133605957033,4310.7431640625,-1.396283745765686
4.0,99550.78125,4300.05029296875,112.12132263183592,-112.12132263183592,4301.51171875,-1.4936158657073975,1.0,3.467166322934645e-07,0.6075901985168457,8.0,0.0876447856426239,0.03548075258731842,-14.395745277404783,0.001871748361736536,0.04688215255737305,8.244561286119279e-06,-16.55524444580078,9.999999747378752e-06,0.04518458992242813,4300.05029296875,-112.12132263183592,4301.51171875,-1.4936158657073975
5.0,79160.15625,4308.17578125,119.79251098632812,-119.79251098632812,4309.8408203125,-1.592747688293457,1.0,3.373814934093389e-07,0.6509944200515747,8.0,0.11044680327177048,0.04479643702507019,27.33351325988769,0.0028555896133184433,0.0599835067987442,1.0389499038865324e-05,26.04110717773437,9.999999747378752e-06,0.05880250781774521,4308.17578125,-119.79251098632812,4309.8408203125,-1.592747688293457
6.0,62871.09375,4313.216796875,131.29388427734375,-131.29388427734375,4315.21484375,-1.7435394525527954,1.0,3.0649974291918625e-07,0.6920816898345947,8.0,0.14402158558368683,0.05629333108663559,-174.74081420898435,0.00409303791821003,0.07042786478996277,1.3039905752521008e-05,-175.28338623046875,9.43552208809706e-07,0.07046960294246674,4313.216796875,-131.29388427734375,4315.21484375,-1.7435394525527954
7.0,49980.46875,4321.47705078125,150.8751220703125,-150.8751220703125,4324.10986328125,-1.999547243118286,1.0,2.2651310871424362e-07,0.6785789132118225,8.0,0.22511985898017883,0.0676148533821106,-72.72236633300781,0.004922301042824984,0.07225196808576582,1.5630979760317132e-05,-72.54070281982422,1.1078466286562616e-06,0.0699000135064125,4321.47705078125,-150.8751220703125,4324.10986328125,-1.999547243118286
8.0,39667.96875,4331.51025390625,169.1121368408203,-169.1121368408203,4334.81005859375,-2.2358236312866206,1.0,1.421253301714387e-07,0.676318109035492,8.0,0.38359588384628296,0.07388546317815779,140.5761260986328,0.0031902743503451347,0.041726458817720406,1.703962880128529e-05,141.366943359375,9.999999747378752e-06,0.042717799544334405,4331.51025390625,-169.1121368408203,4334.81005859375,-2.2358236312866206
9.0,31582.03125,4347.3125,197.3940887451172,-197.3940887451172,4351.79150390625,-2.5997867584228516,1.0,1.3598909731626918e-07,0.6764437556266785,8.0,0.5507193207740784,0.062491606920957565,19.560941696166992,0.0006239691865630448,0.003669867524877191,1.435675767424982e-05,21.00813102722168,9.999999747378752e-06,0.010695988312363625,4347.3125,-197.3940887451172,4351.79150390625,-2.5997867584228516
10.0,25019.53125,4358.48583984375,233.14976501464844,-233.14976501464844,4364.71728515625,-3.0620217323303223,1.0,1.476221598295524e-07,0.6745968461036682,8.0,0.6413480639457704,0.05083802714943886,-124.8703155517578,0.0007091013831086457,0.014221124351024628,1.1645644008240195e-05,-122.72296905517578,9.999999747378752e-06,0.01303109899163246,4358.48583984375,-233.14976501464844,4364.71728515625,-3.0620217323303223
11.0,19863.28125,4374.75341796875,270.85040283203125,-270.85040283203125,4383.1298828125,-3.54278302192688,1.0,1.394808890609056e-07,0.6721971035003662,8.0,0.7217177152633667,0.04932931810617447,-24.89493751525879,0.0005922108539380133,0.0008894498459994794,1.125313610828016e-05,-22.079330444335938,9.999999747378752e-06,0.002524916781112552,4374.75341796875,-270.85040283203125,4383.1298828125,-3.54278302192688
12.0,15682.8701171875,4391.43408203125,325.5911560058594,-325.5911560058594,4403.48779296875,-4.240284442901611,1.0,1.4841137385701586e-07,0.6744022369384766,8.0,0.792205274105072,0.048339065164327615,-91.63497924804688,0.0007485210080631077,0.0009899805299937725,1.0976663361361716e-05,-87.96941375732422,9.999999747378752e-06,0.003845744300633669,4391.43408203125,-325.5911560058594,4403.48779296875,-4.240284442901611
13.0,12597.65625,4415.82373046875,364.5556640625,-364.5556640625,4430.84619140625,-4.7194457054138175,1.0,1.6234648114732408e-07,0.6809080243110657,8.0,0.8456907868385315,0.04730220139026642,-156.23602294921875,0.0009542119805701077,0.0011741804191842675,1.0675147677829955e-05,-151.97853088378906,9.999999747378752e-06,0.002260577864944935,4415.82373046875,-364.5556640625,4430.84619140625,-4.7194457054138175
14.0,9895.8330078125,4451.92041015625,457.5773620605469,-457.5773620605469,4475.3740234375,-5.868368625640869,1.0,1.6812063563520496e-07,0.6904760599136353,8.0,0.8895819783210753,0.04707786440849304,-121.54325866699217,0.0005388820427469909,0.010571897029876707,1.0518997441977262e-05,-116.03794860839844,9.999999747378752e-06,0.003419313114136457,4451.92041015625,-457.5773620605469,4475.3740234375,-5.868368625640869
15.0,7910.15625,4489.54833984375,529.3505859375,-529.3505859375,4520.64794921875,-6.724544525146484,1.0,1.6751441478390919e-07,0.6988014578819275,8.0,0.9185996055603027,0.046682003885507584,-88.3570556640625,0.0007599011878482996,0.0015118047595024109,1.032619456964312e-05,-81.92280578613281,9.999999747378752e-06,0.003562344703823328,4489.54833984375,-529.3505859375,4520.64794921875,-6.724544525146484
16.0,6307.87060546875,4522.40234375,630.257568359375,-630.257568359375,4566.1083984375,-7.933836936950684,1.0,1.705660110928875e-07,0.7067313194274902,8.0,0.941210925579071,0.046785615384578705,-9.975780487060547,0.0007294862880371512,0.0018939615692943332,1.0246149940940084e-05,-2.2734830379486084,9.999999747378752e-06,0.0035153741482645278,4522.40234375,-630.257568359375,4566.1083984375,-7.933836936950684
17.0,4973.3232421875,4571.7294921875,748.9374389648436,-748.9374389648436,4632.66845703125,-9.303515434265137,1.0,1.7550104303154512e-07,0.7156752347946167,8.0,0.9273743629455566,0.04570658877491951,-97.45131683349608,0.0005990158533677459,0.0008847217541188002,9.85299175226828e-06,-88.24776458740233,9.999999747378752e-06,0.0007624680874869227,4571.7294921875,-748.9374389648436,4632.66845703125,-9.303515434265137
18.0,3944.3598632812495,4630.91748046875,884.9545898437501,-884.9545898437501,4714.71533203125,-10.818620681762695,1.0,1.8283716940459274e-07,0.7219319939613342,8.0,0.9557148218154908,0.04863607883453369,21.07710266113281,0.0005330994026735425,0.0006250063888728619,1.0305599062121472e-05,31.795486450195312,9.999999747378752e-06,0.0007504364475607872,4630.91748046875,-884.9545898437501,4714.71533203125,-10.818620681762695
19.0,3144.054931640625,4699.48828125,1045.9588623046875,-1045.9588623046875,4814.48046875,-12.547722816467283,1.0,1.814676693356887e-07,0.7226455211639404,8.0,0.9704290032386781,0.04891958087682724,71.04659271240233,0.0004186139558441937,0.0100466376170516,1.0153959919989575e-05,83.50321197509764,9.999999747378752e-06,0.0008158411365002394,4699.48828125,-1045.9588623046875,4814.48046875,-12.547722816467283
20.0,2488.426025390625,4785.310546875,1240.34619140625,-1240.34619140625,4943.44580078125,-14.531203269958496,1.0,1.7492064330326684e-07,0.7269009351730346,8.0,0.9779480695724488,0.04984000697731972,132.3389129638672,0.0005662799812853336,0.011927257291972635,1.007748142001219e-05,146.79202270507812,9.999999747378752e-06,0.0011306119849905372,4785.310546875,-1240.34619140625,4943.44580078125,-14.531203269958496
21.0,1976.6566162109373,4886.599609375,1463.6844482421875,-1463.6844482421875,5101.1005859375,-16.674549102783203,1.0,1.745684414800053e-07,0.730594277381897,8.0,0.9828277826309203,0.05128059536218643,-144.5095062255859,0.000584919354878366,0.0015059496508911252,1.004989735520212e-05,-127.89997863769533,9.999999747378752e-06,0.0010170356836169958,4886.599609375,-1463.6844482421875,5101.1005859375,-16.674549102783203
22.0,1582.03125,5001.60595703125,1699.757568359375,-1699.757568359375,5282.541015625,-18.76993751525879,1.0,1.7430443222110625e-07,0.7416749596595763,8.0,0.9876175522804259,0.053093019872903824,101.4745635986328,0.0006296745850704609,0.0017128558829426763,1.0048735020973254e-05,120.19099426269533,9.999999747378752e-06,0.0012076544808223844,5001.60595703125,-1699.757568359375,5282.541015625,-18.76993751525879
23.0,1253.6336669921875,5143.388671875,1999.5988769531248,-1999.5988769531248,5518.40966796875,-21.2446231842041,1.0,1.7018966502746482e-07,0.7461645603179932,8.0,0.991391122341156,0.05540167540311813,134.34437561035156,0.0006572780548594892,0.0022532795555889606,1.0038208529294934e-05,155.54580688476562,9.999999747378752e-06,0.0014721183106303215,5143.388671875,-1999.5988769531248,5518.40966796875,-21.2446231842041
24.0,996.09375,5312.83544921875,2359.413330078125,-2359.413330078125,5813.17919921875,-23.94585418701172,1.0,1.6704983352155978e-07,0.7459966540336608,8.0,0.9924779534339904,0.058200009167194366,-25.821531295776367,0.000796512293163687,0.0026428205892443657,1.0010962796513923e-05,-1.9103775024414065,9.999999747378752e-06,0.0012689592549577355,5312.83544921875,-2359.413330078125,5813.17919921875,-23.94585418701172
25.0,790.028076171875,5503.28369140625,2775.237060546875,-2775.237060546875,6163.4462890625,-26.761238098144528,1.0,1.7246895822609076e-07,0.7494961023330688,8.0,0.9937881231307985,0.061718840152025216,-147.9510040283203,0.00039577897405251855,0.005055887158960104,1.0013201062974984e-05,-121.2174835205078,9.999999747378752e-06,0.001958184177055955,5503.28369140625,-2775.237060546875,6163.4462890625,-26.761238098144528
26.0,628.8109741210938,5731.15185546875,3204.111572265625,-3204.111572265625,6566.005859375,-29.20821762084961,1.0,1.7988958234127495e-07,0.7602393627166749,8.0,0.9966439008712769,0.06585077941417694,65.50349426269531,0.000828065094538033,0.0065330173820257196,1.0028736141975967e-05,94.68955993652344,9.999999747378752e-06,0.002071663038805127,5731.15185546875,-3204.111572265625,6566.005859375,-29.20821762084961
27.0,496.3235168457031,5994.1162109375,3721.774169921875,-3721.774169921875,7055.5673828125,-31.836334228515625,1.0,1.762735308830088e-07,0.7709654569625854,8.0,0.9676016569137571,0.06714273989200592,97.06307220458984,0.0007639690302312374,0.00613050814718008,9.70859946392011e-06,131.42752075195312,9.999999747378752e-06,0.0007103803800418973,5994.1162109375,-3721.774169921875,7055.5673828125,-31.836334228515625
28.0,395.3313293457031,6291.02392578125,4341.18798828125,-4341.18798828125,7643.487304687501,-34.608028411865234,1.0,1.729282530504861e-07,0.7741952538490294,8.0,0.9891134500503539,0.07721036672592163,58.574745178222656,0.000986521481536329,0.010715071111917496,1.0222321179753637e-05,95.26969146728516,9.999999747378752e-06,0.0006427663029171526,6291.02392578125,-4341.18798828125,7643.487304687501,-34.608028411865234
29.0,315.5048217773437,6602.64306640625,5000.7001953125,-5000.7001953125,8282.6259765625,-37.139507293701165,1.0,1.5824966226318793e-07,0.7833786010742188,8.0,0.9968788027763367,0.08288322389125824,-175.8319854736328,0.0012874339008703828,0.016084391623735428,1.0078508239530493e-05,-137.00929260253906,9.999999747378752e-06,0.0009445852483622728,6602.64306640625,-5000.7001953125,8282.6259765625,-37.139507293701165
30.0,249.33511352539065,6976.93408203125,5799.8779296875,-5799.8779296875,9072.8271484375,-39.73651885986328,1.0,1.4132146475276386e-07,0.7926547527313232,8.0,0.9987320899963379,0.09051211923360825,48.66106033325195,0.0020357288885861635,0.02239305339753628,1.0018590728577692e-05,89.72976684570312,9.999999747378752e-06,0.001308284467086196,6976.93408203125,-5799.8779296875,9072.8271484375,-39.73651885986328
31.0,198.6228790283203,7354.60107421875,6629.2255859375,-6629.2255859375,9901.3525390625,-42.030586242675774,1.0,1.298120366755029e-07,0.8069145083427429,8.0,0.9980831742286682,0.0986918807029724,32.594261169433594,0.002916024532169104,0.029408542439341545,9.993502317229282e-06,75.68476867675781,9.999999747378752e-06,0.0012162135681137443,7354.60107421875,-6629.2255859375,9901.3525390625,-42.030586242675774
32.0,158.005615234375,7975.756835937501,8098.275390625,-8098.275390625,11366.3876953125,-45.43670654296875,1.0,1.1896727158955402e-07,0.7860687971115112,8.0,0.9957083463668824,0.11321094632148743,87.99404907226561,0.00428834930062294,0.037168268114328384,9.97620645648567e-06,134.2725372314453,9.999999747378752e-06,0.0015436058165505528,7975.756835937501,-8098.275390625,11366.3876953125,-45.43670654296875
33.0,125.5580368041992,8453.25390625,9212.6845703125,-9212.6845703125,12503.2421875,-47.46154022216797,1.0,1.2977284313819837e-07,0.8042498230934142,8.0,0.9857169389724733,0.1236538365483284,-148.6027679443359,0.005827181972563267,0.04664202034473419,9.899655196932144e-06,-100.4732437133789,9.999999747378752e-06,0.0014855636982247231,8453.25390625,-9212.6845703125,12503.2421875,-47.46154022216797
34.0,99.73403930664062,8870.166015625,9900.3671875,-9900.3671875,13292.7470703125,-48.141468048095696,1.0,1.1639946251307265e-07,0.8523197174072266,8.0,0.9917039275169373,0.13365116715431213,-145.5283203125,0.007966907694935799,0.05818262696266174,1.0060737622552551e-05,-96.85680389404298,9.999999747378752e-06,0.001248141867108643,8870.166015625,-9900.3671875,13292.7470703125,-48.141468048095696
35.0,78.78150939941406,9673.9814453125,11776.9619140625,-11776.9619140625,15240.8251953125,-50.59920120239258,1.0,1.0093019398027536e-07,0.8492401838302611,8.0,0.9922534823417664,0.15243355929851532,-145.84971618652344,0.01098744012415409,0.07032879441976547,1.0005541298596654e-05,-94.83212280273438,9.999999747378752e-06,0.0016418459126725793,9673.9814453125,-11776.9619140625,15240.8251953125,-50.59920120239258
36.0,62.919464111328125,10633.609375,13896.1357421875,-13896.1357421875,17497.892578125,-52.57604217529297,1.0,9.105104936679709e-08,0.8442012667655946,8.0,0.9926144480705261,0.1749994158744812,-146.2167510986328,0.015020138584077358,0.0837490037083626,1.0003637726185843e-05,-93.30670166015624,9.999999747378752e-06,0.0015629889676347375,10633.609375,-13896.1357421875,17497.892578125,-52.57604217529297
37.0,49.86701965332031,11679.5546875,16359.41015625,-16359.41015625,20100.802734375,-54.475631713867195,1.0,1.1855099302238162e-07,0.8437052965164183,8.0,0.993561804294586,0.20116877555847168,-148.22848510742188,0.02002233639359474,0.09823634475469588,1.0009543984779157e-05,-93.48837280273438,9.999999747378752e-06,0.0016569932922720907,11679.5546875,-16359.41015625,20100.802734375,-54.475631713867195
38.0,39.72457504272461,12910.0458984375,19049.861328125,-19049.861328125,23012.3125,-55.87459945678711,1.0,1.2203905441765528e-07,0.8433322310447693,8.0,0.9937874078750609,0.2301528602838516,-148.60023498535156,0.026479188352823257,0.11368985474109648,1.0002270755649079e-05,-92.5149917602539,9.999999747378752e-06,0.0019188442965969443,12910.0458984375,-19049.861328125,23012.3125,-55.87459945678711
39.0,31.459732055664062,14565.791015625,22513.373046875,-22513.373046875,26814.44140625,-57.097782135009766,1.0,1.2314826847159566e-07,0.8323014378547667,8.0,0.9941052794456482,0.2682137191295624,-148.9889984130859,0.035535138100385666,0.13088011741638184,1.0003198440244889e-05,-91.72441864013673,9.999999747378752e-06,0.0017983742291107772,14565.791015625,-22513.373046875,26814.44140625,-57.097782135009766
40.0,24.93350982666016,16257.5263671875,25817.583984375,-25817.583984375,30509.912109375,-57.80107116699219,1.0,1.4437043205361988e-07,0.8376861214637756,8.0,0.9945166110992432,0.30521360039711,-149.02598571777344,0.045963793992996216,0.1487707942724228,1.0004137948271818e-05,-91.09273529052734,9.999999747378752e-06,0.0017669532680884004,16257.5263671875,-25817.583984375,30509.912109375,-57.80107116699219
41.0,19.862287521362305,18276.244140625,29644.802734375,-29644.802734375,34825.7890625,-58.34585189819336,1.0,1.5668231867493887e-07,0.8355182409286499,8.0,0.9950677752494813,0.3484423756599426,-149.0534210205078,0.05831503868103027,0.1653456687927246,1.0005542208091356e-05,-90.60227203369139,9.999999747378752e-06,0.0019808188080787654,18276.244140625,-29644.802734375,34825.7890625,-58.34585189819336
42.0,15.782828330993652,20536.330078125,33718.0390625,-33718.0390625,39479.703125,-58.65605163574219,1.0,1.6919753420552297e-07,0.8383397459983826,8.0,0.9957115650177002,0.39504638314247126,-148.9530792236328,0.07332523912191392,0.183394119143486,1.0006469892687164e-05,-90.2133560180664,9.999999747378752e-06,0.0020158351399004455,20536.330078125,-33718.0390625,39479.703125,-58.65605163574219
43.0,12.466754913330078,23382.5,38510.515625,-38510.515625,45053.31640625,-58.735057830810554,1.0,1.8410636926091686e-07,0.8376177549362183,8.0,0.9962036609649657,0.4507514536380768,-148.6961212158203,0.09176447987556456,0.20116350054740903,1.0004941941588184e-05,-89.89496612548828,9.999999747378752e-06,0.0020154339727014303,23382.5,-38510.515625,45053.31640625,-58.735057830810554
44.0,9.973403930664062,26881.001953125,43773.234375,-43773.234375,51368.125,-58.44605255126953,1.0,1.791319590438434e-07,0.8282716870307921,8.0,0.9966271519660947,0.5138964653015137,-148.15394592285156,0.11172056943178175,0.21482206881046292,1.0004250725614838e-05,-89.65502166748048,9.999999747378752e-06,0.0018499722937121987,26881.001953125,-43773.234375,51368.125,-58.44605255126953
45.0,7.878151416778564,31628.826171875,49907.58984375,-49907.58984375,59085.95703125,-57.635608673095696,1.0,1.533714453216817e-07,0.8009832501411438,8.0,0.9969686269760131,0.5910598039627075,-147.1293487548828,0.13049012422561643,0.21815934777259824,1.0003426723415032e-05,-89.45197296142578,9.999999747378752e-06,0.0017367377877235413,31628.826171875,-49907.58984375,59085.95703125,-57.635608673095696
46.0,6.275100231170654,36996.984375,55813.4453125,-55813.4453125,66962.0625,-56.46084976196289,1.0,1.2992882147955243e-07,0.758963704109192,8.0,0.9975036978721618,0.6699783205986023,-145.79884338378906,0.14200967550277707,0.2094513177871704,1.0005366675613912e-05,-89.30473327636719,9.999999747378752e-06,0.0016202989500015974,36996.984375,-55813.4453125,66962.0625,-56.46084976196289
47.0,5.013369083404541,42846.4140625,61722.953125,-61722.953125,75136.796875,-55.23265838623047,1.0,1.3384421038153962e-07,0.6960455179214478,8.0,0.9974234700202941,0.751306414604187,-144.42312622070312,0.1458841562271118,0.1918741464614868,9.999195754062384e-06,-89.16387939453125,9.999999747378752e-06,0.0014085739385336635,42846.4140625,-61722.953125,75136.796875,-55.23265838623047
