# point,freq,zreal,reflected_zimag,zimag,zmod,zphz,zsig,Idc,Vdc,ie_range,gain,vmod,vphz,vsig,vthd,imod,iphz,isig,ithd,zreal_drift,zimag_drift,zmod_drift,zphz_drift
0.0,250019.53125,4297.46044921875,-602.3771362304688,602.3771362304688,4339.47265625,7.979190826416015,1.0,5.184758720133686e-07,0.394025981426239,8.0,0.04100894555449486,0.016740059480071068,-129.92222595214844,0.0027827962767332792,0.15971775352954865,3.857625415548681e-06,-137.9014129638672,9.999999747378752e-06,0.1597546339035034,4297.46044921875,602.3771362304688,4339.47265625,7.979190826416015
1.0,198691.40625,4239.296875,-471.02346801757807,471.02346801757807,4265.38427734375,6.340064525604248,1.0,5.700487690774025e-07,0.4897797703742981,8.0,0.049398116767406464,0.019820287823677063,-6.534077167510985,0.0037969518452882767,0.17644977569580078,4.646777142625068e-06,-12.874141693115234,9.999999747378752e-06,0.14578287303447723,4239.296875,471.02346801757807,4265.38427734375,6.340064525604248
2.0,157792.96875,4234.37109375,-363.60357666015625,363.60357666015625,4249.95361328125,4.907923698425293,1.0,4.883510769104761e-07,0.5019478797912598,8.0,0.059787049889564514,0.02390192076563835,-57.31994628906249,0.004306297283619641,0.1559980809688568,5.624042387353256e-06,-62.227874755859375,9.999999747378752e-06,0.13519300520420074,4234.37109375,363.60357666015625,4249.95361328125,4.907923698425293
3.0,125332.03125,4177.79345703125,-271.53448486328125,271.53448486328125,4186.6083984375,3.7186923027038574,1.0,4.909181825496489e-07,0.563834547996521,8.0,0.07452201098203659,0.029348663985729218,-47.718997955322266,0.00442061061039567,0.13499154150485992,7.010129138507182e-06,-51.437686920166016,9.164328957922408e-07,0.12769897282123563,4177.79345703125,271.53448486328125,4186.6083984375,3.7186923027038574
4.0,99550.78125,4196.81689453125,-164.79000854492188,164.79000854492188,4200.05078125,2.2485909461975098,1.0,2.859263474874752e-07,0.6363568902015686,8.0,0.08941957354545593,0.035328783094882965,-12.991542816162108,0.001982415793463588,0.04681459814310074,8.411511771555523e-06,-15.24013328552246,9.999999747378752e-06,0.04577579349279404,4196.81689453125,164.79000854492188,4200.05078125,2.2485909461975098
5.0,79160.15625,4203.3984375,-98.03663635253906,98.03663635253906,4204.54150390625,1.3360778093338013,1.0,2.539909473853186e-07,0.6711163520812988,8.0,0.11280608922243118,0.044616203755140305,173.34738159179688,0.002839514054358005,0.06195715069770813,1.061143211700255e-05,172.01129150390625,9.999999747378752e-06,0.058690160512924194,4203.3984375,98.03663635253906,4204.54150390625,1.3360778093338013
6.0,62871.09375,4207.37548828125,-37.44047164916992,37.44047164916992,4207.5419921875,0.5098485946655273,1.0,2.280352902062077e-07,0.6945005059242249,8.0,0.15027086436748505,0.05604936555027962,-109.21825408935545,0.004084466025233269,0.07041645795106888,1.3321166079549585e-05,-109.72810363769533,9.54842334977002e-07,0.07027100771665573,4207.37548828125,37.44047164916992,4207.5419921875,0.5098485946655273
7.0,49980.46875,4217.671875,14.987574577331541,-14.987574577331541,4217.6982421875,-0.203600749373436,1.0,1.833866889455749e-07,0.6983317732810974,8.0,0.23756584525108335,0.06667833775281906,-120.80337524414062,0.004598717670887709,0.06800873577594757,1.5809175238246098e-05,-120.59976196289062,1.0840790309885051e-06,0.06770310550928116,4217.671875,-14.987574577331541,4217.6982421875,-0.203600749373436
8.0,39667.96875,4227.115234375,64.8596420288086,-64.8596420288086,4227.61279296875,-0.8790609836578369,1.0,1.3957816236143117e-07,0.6748744249343872,8.0,0.4033928513526917,0.07178594917058945,31.055036544799805,0.0027331975288689137,0.037088170647621155,1.698025516816415e-05,31.93409538269043,9.999999747378752e-06,0.03760278224945068,4227.115234375,-64.8596420288086,4227.61279296875,-0.8790609836578369
9.0,31582.03125,4242.828125,119.8377456665039,-119.8377456665039,4244.52001953125,-1.6178765296936035,1.0,1.425176492375613e-07,0.6551802754402161,8.0,0.5596526265144348,0.05888693407177925,168.3950042724609,0.0008116344688460231,0.003693862352520227,1.3873637726646848e-05,170.0128936767578,9.999999747378752e-06,0.011794602498412132,4242.828125,-119.8377456665039,4244.52001953125,-1.6178765296936035
10.0,25019.53125,4255.5458984375,172.15419006347656,-172.15419006347656,4259.02685546875,-2.316584825515747,1.0,1.6409732950251055e-07,0.6598027348518372,8.0,0.6480211615562439,0.04931522160768509,-36.977737426757805,0.0005958231631666422,0.014601864852011204,1.1578988960536662e-05,-34.66115188598633,9.999999747378752e-06,0.015757553279399872,4255.5458984375,-172.15419006347656,4259.02685546875,-2.316584825515747
11.0,19863.28125,4274.95947265625,228.1509704589844,-228.1509704589844,4281.04296875,-3.054929256439209,1.0,1.4991428542998622e-07,0.6596692800521851,8.0,0.7267358303070067,0.04801058396697044,39.27992630004882,0.0009911026572808623,0.0012432727962732315,1.121469267673092e-05,42.33485412597656,9.999999747378752e-06,0.0025572890881448984,4274.95947265625,-228.1509704589844,4281.04296875,-3.054929256439209
12.0,15682.8701171875,4291.216796875,289.65582275390625,-289.65582275390625,4300.9814453125,-3.8615901470184326,1.0,1.5995323110473694e-07,0.6705211997032166,8.0,0.7971935868263245,0.047179661691188805,-16.698179244995117,0.0009593204595148563,0.0014523088466376066,1.0969510185532272e-05,-12.83658981323242,9.999999747378752e-06,0.002771802246570587,4291.216796875,-289.65582275390625,4300.9814453125,-3.8615901470184326
13.0,12597.65625,4303.57568359375,381.7131958007813,-381.7131958007813,4320.470703125,-5.06868553161621,1.0,1.4811129744884965e-07,0.6831916570663452,8.0,0.8508058786392213,0.046110283583402634,-61.24301528930664,0.0008481207769364119,0.0011900466633960605,1.0672512871678919e-05,-56.174331665039055,9.999999747378752e-06,0.0022771095391362906,4303.57568359375,-381.7131958007813,4320.470703125,-5.06868553161621
14.0,9895.8330078125,4348.6533203125,440.57348632812494,-440.57348632812494,4370.91455078125,-5.7850470542907715,1.0,1.6327240359714779e-07,0.6958408951759337,8.0,0.8909342885017395,0.04577068984508514,-49.98981857299805,0.0009937452850863335,0.015302477404475212,1.0471651876287067e-05,-44.20477294921875,9.999999747378752e-06,0.0030364913400262594,4348.6533203125,-440.57348632812494,4370.91455078125,-5.7850470542907715
15.0,7910.15625,4374.970703125,523.2233276367188,-523.2233276367188,4406.14697265625,-6.819880485534668,1.0,1.617401892417547e-07,0.706455647945404,8.0,0.9213967323303223,0.04556799679994583,-40.18478775024414,0.0006073166732676327,0.0015076249837875366,1.0341915185563266e-05,-33.36490631103516,9.999999747378752e-06,0.0029548278544098134,4374.970703125,-523.2233276367188,4406.14697265625,-6.819880485534668
16.0,6307.87060546875,4421.31787109375,626.8340454101562,-626.8340454101562,4465.53173828125,-8.069353103637694,1.0,1.689227104861857e-07,0.7149511575698853,8.0,0.9412378072738647,0.04561691358685493,28.067316055297848,0.0008451639441773294,0.0018036036053672433,1.021533716993872e-05,36.13666915893555,9.999999747378752e-06,0.002033651806414128,4421.31787109375,-626.8340454101562,4465.53173828125,-8.069353103637694
17.0,4973.3232421875,4479.9033203125,761.2855834960938,-761.2855834960938,4544.126953125,-9.644341468811037,1.0,1.587194731200725e-07,0.72709059715271,8.0,0.9273523092269896,0.04477090016007424,-66.62326049804688,0.0007911060238257049,0.0010918045882135627,9.852476068772376e-06,-56.978912353515625,9.999999747378752e-06,0.0005958473193459213,4479.9033203125,-761.2855834960938,4544.126953125,-9.644341468811037
18.0,3944.3598632812495,4538.16064453125,898.9428710937501,-898.9428710937501,4626.33740234375,-11.204408645629883,1.0,1.5220842897178954e-07,0.7381061315536499,8.0,0.9553865194320679,0.047661937773227685,44.854766845703125,0.0007874812581576408,0.0007193467463366687,1.0302303962816948e-05,56.05917739868164,9.999999747378752e-06,0.0006721238605678082,4538.16064453125,-898.9428710937501,4626.33740234375,-11.204408645629883
19.0,3144.054931640625,4606.44189453125,1058.8443603515625,-1058.8443603515625,4726.5693359375,-12.945236206054688,1.0,1.3785576413738454e-07,0.747110903263092,8.0,0.9700654745101928,0.04799190536141396,87.4532699584961,9.999999747378752e-06,0.011686697602272032,1.015364432532806e-05,100.39850616455078,9.999999747378752e-06,0.0007895204471424222,4606.44189453125,-1058.8443603515625,4726.5693359375,-12.945236206054688
20.0,2488.426025390625,4692.87939453125,1253.580078125,-1253.580078125,4857.42529296875,-14.955870628356932,1.0,1.2480087718813593e-07,0.755755603313446,8.0,0.9776179790496825,0.04895243048667908,152.73780822753906,0.0005558691336773336,0.009944059886038303,1.007785522233462e-05,167.6936798095703,9.999999747378752e-06,0.0007720571593381464,4692.87939453125,-1253.580078125,4857.42529296875,-14.955870628356932
21.0,1976.6566162109373,4793.99365234375,1476.9210205078125,-1476.9210205078125,5016.34033203125,-17.122880935668945,1.0,1.2141973115831206e-07,0.7632629871368408,8.0,0.9844163656234739,0.05051224306225777,-131.41786193847656,0.0005364431417547166,0.0010921212378889322,1.0069540621771012e-05,-114.29498291015624,9.999999747378752e-06,0.0009890208020806313,4793.99365234375,-1476.9210205078125,5016.34033203125,-17.122880935668945
22.0,1582.03125,4909.82470703125,1741.175048828125,-1741.175048828125,5209.4208984375,-19.526073455810543,1.0,1.1027550073094973e-07,0.7622023820877075,8.0,0.9868104457855223,0.0522209033370018,107.3105010986328,0.0007398710004054011,0.0015012759249657393,1.002431963570416e-05,126.83657073974608,9.999999747378752e-06,0.00126462010666728,4909.82470703125,-1741.175048828125,5209.4208984375,-19.526073455810543
23.0,1253.6336669921875,5054.875,2067.3876953125,-2067.3876953125,5461.30517578125,-22.244014739990234,1.0,1.1466408977867105e-07,0.7616171836853027,8.0,0.9896608591079714,0.054770804941654205,141.8259735107422,0.0004504378011915833,0.002017274964600801,1.002888529910706e-05,164.06997680664062,9.999999747378752e-06,0.0012217940529808402,5054.875,-2067.3876953125,5461.30517578125,-22.244014739990234
24.0,996.09375,5224.1171875,2449.31103515625,-2449.31103515625,5769.7939453125,-25.119384765625,1.0,1.3253460906526018e-07,0.7610636353492736,8.0,0.992507755756378,0.05786392092704773,-20.175371170043945,0.0007978581124916672,0.0027982343453913927,1.0028766155301128e-05,4.944013595581056,9.999999747378752e-06,0.001562977791763842,5224.1171875,-2449.31103515625,5769.7939453125,-25.119384765625
25.0,790.028076171875,5430.6865234375,2895.87060546875,-2895.87060546875,6154.544921875,-28.068416595458984,1.0,1.3038280144428427e-07,0.7613282203674316,8.0,0.9927269816398621,0.061559047549963,-142.47572326660156,0.0005317559698596597,0.004076410550624132,1.0002208910009358e-05,-114.40731048583984,9.999999747378752e-06,0.0013443382922559977,5430.6865234375,-2895.87060546875,6154.544921875,-28.068416595458984
26.0,628.8109741210938,5669.734375,3424.263916015625,-3424.263916015625,6623.55419921875,-31.130083084106445,1.0,1.237836073642029e-07,0.7588329315185546,8.0,0.994447946548462,0.06635036319494247,67.78580474853516,0.0007084286189638078,0.005728317424654961,1.0017335625889244e-05,98.91588592529295,9.999999747378752e-06,0.0015699362847954035,5669.734375,-3424.263916015625,6623.55419921875,-31.130083084106445
27.0,496.3235168457031,5665.751953125,4228.33056640625,-4228.33056640625,7069.6201171875,-36.73385238647461,1.0,1.4010853988111194e-07,0.7597685456275941,8.0,0.9660651683807373,0.06867843866348267,96.23661804199217,0.0008892887271940707,0.005448818672448397,9.71458757703658e-06,132.970458984375,9.999999747378752e-06,0.0005749943084083498,5665.751953125,-4228.33056640625,7069.6201171875,-36.73385238647461
28.0,395.3313293457031,6040.27294921875,4850.2001953125,-4850.2001953125,7746.569335937501,-38.76366424560546,1.0,1.4698146344471752e-07,0.7711507678031921,8.0,0.9866807460784912,0.07911878824234007,59.01482391357422,0.0009297880460508168,0.009759422391653061,1.021339721773984e-05,97.77848815917967,9.999999747378752e-06,0.0006679294165223837,6040.27294921875,-4850.2001953125,7746.569335937501,-38.76366424560546
29.0,315.5048217773437,6456.00341796875,5597.02490234375,-5597.02490234375,8544.39453125,-40.923614501953125,1.0,1.6360971244466782e-07,0.775845468044281,8.0,0.9948984384536744,0.08615557849407197,-176.15032958984375,0.0012057679705321789,0.014826663769781588,1.0083286724693608e-05,-135.2267303466797,9.999999747378752e-06,0.0009683130192570387,6456.00341796875,-5597.02490234375,8544.39453125,-40.923614501953125
30.0,249.33511352539065,6903.76953125,6376.01708984375,-6376.01708984375,9397.6396484375,-42.72420501708984,1.0,1.8227299847239922e-07,0.791968584060669,8.0,0.9979615807533264,0.09426572918891905,47.89168930053711,0.0020004638936370607,0.02183563821017742,1.0030787962023169e-05,90.61589813232419,9.999999747378752e-06,0.0014582705916836856,6903.76953125,-6376.01708984375,9397.6396484375,-42.72420501708984
31.0,198.6228790283203,7376.99462890625,7247.041015625,-7247.041015625,10341.1630859375,-44.49086761474609,1.0,1.874372799193225e-07,0.8053028583526611,8.0,0.9985911846160888,0.1034768670797348,32.1025390625,0.00310456263832748,0.029594721272587776,1.000630891212495e-05,76.59339904785155,9.999999747378752e-06,0.0014219458680599928,7376.99462890625,-7247.041015625,10341.1630859375,-44.49086761474609
32.0,158.005615234375,8056.907226562499,8756.1376953125,-8756.1376953125,11898.89453125,-47.38147735595703,1.0,1.9523341165950117e-07,0.7856838703155516,8.0,0.9931237101554871,0.1183374598622322,87.5580825805664,0.0044178254902362815,0.03685588017106056,9.94524816633202e-06,134.93955993652344,9.999999747378752e-06,0.0016225127037614584,8056.907226562499,-8756.1376953125,11898.89453125,-47.38147735595703
33.0,125.5580368041992,8644.134765625,9974.240234375,-9974.240234375,13198.732421875,-49.08629608154297,1.0,1.9675563578402946e-07,0.7989689111709594,8.0,0.9844989776611328,0.13084109127521515,-148.9147491455078,0.006323779467493296,0.04780260100960732,9.91315573628526e-06,-99.82846069335936,9.999999747378752e-06,0.0016431149560958147,8644.134765625,-9974.240234375,13198.732421875,-49.08629608154297
34.0,99.73403930664062,9074.3525390625,10499.0712890625,-10499.0712890625,13877.1171875,-49.16312789916992,1.0,1.9407019635764297e-07,0.8544763922691345,8.0,0.9910686612129213,0.13969720900058746,-146.04574584960935,0.008964333683252335,0.06262298673391342,1.0066731192637233e-05,-96.88262176513673,9.999999747378752e-06,0.001489780843257904,9074.3525390625,-10499.0712890625,13877.1171875,-49.16312789916992
35.0,78.78150939941406,9847.357421875,12259.44921875,-12259.44921875,15724.6474609375,-51.22695541381836,1.0,1.7914328509505142e-07,0.859643816947937,8.0,0.9913802146911619,0.15729591250419617,-146.05422973632812,0.01220552995800972,0.07567833364009857,1.000314387056278e-05,-94.82726287841795,9.999999747378752e-06,0.001650933176279068,9847.357421875,-12259.44921875,15724.6474609375,-51.22695541381836
36.0,62.919464111328125,10643.3818359375,14124.125,-14124.125,17685.375,-52.9997673034668,1.0,1.5632697625278524e-07,0.868375062942505,8.0,0.9923617839813232,0.17702884972095487,-146.317138671875,0.016239196062088013,0.08948039263486862,1.0009900506702252e-05,-93.31736755371091,9.999999747378752e-06,0.0017602446023374796,10643.3818359375,-14124.125,17685.375,-52.9997673034668
37.0,49.86701965332031,11583.17578125,16279.2431640625,-16279.2431640625,19979.58203125,-54.566993713378906,1.0,1.4611849508128216e-07,0.8764038681983948,8.0,0.9933376312255859,0.1999923139810562,-148.06524658203125,0.021166341379284855,0.10450715571641922,1.0009834113589022e-05,-93.49826049804688,9.999999747378752e-06,0.0017925966531038284,11583.17578125,-16279.2431640625,19979.58203125,-54.566993713378906
38.0,39.72457504272461,12713.5986328125,18821.107421875,-18821.107421875,22712.763671875,-55.961101531982415,1.0,1.1976520397638524e-07,0.8800320625305175,8.0,0.9939036369323729,0.22725705802440643,-148.4720916748047,0.027639340609312057,0.12014728039503096,1.000569773168536e-05,-92.51098632812499,9.999999747378752e-06,0.0017718892777338624,12713.5986328125,-18821.107421875,22712.763671875,-55.961101531982415
39.0,31.459732055664062,14124.0166015625,21930.4921875,-21930.4921875,26085.134765625,-57.21702575683594,1.0,1.0363459779227925e-07,0.8781925439834594,8.0,0.9944061040878298,0.26098325848579407,-148.92933654785156,0.03608531504869461,0.13659949600696564,1.0005055628425907e-05,-91.71231842041016,9.999999747378752e-06,0.0020963163115084167,14124.0166015625,-21930.4921875,26085.134765625,-57.21702575683594
40.0,24.93350982666016,15793.6181640625,25350.244140625,-25350.244140625,29867.595703125,-58.076416015625,1.0,1.1140384259533677e-07,0.8770126700401306,8.0,0.9948302507400512,0.29880332946777344,-149.16937255859375,0.04707596823573112,0.15565231442451477,1.0004265277530067e-05,-91.09295654296876,9.999999747378752e-06,0.0019321127329021688,15793.6181640625,-25350.244140625,29867.595703125,-58.076416015625
41.0,19.862287521362305,17717.982421875,29170.78125,-29170.78125,34130.06640625,-58.72600936889648,1.0,1.2317039477238723e-07,0.8715843558311462,8.0,0.9952519536018372,0.34144532680511475,-149.33123779296875,0.06011664867401123,0.17393653094768524,1.0004238902183715e-05,-90.60522460937501,9.999999747378752e-06,0.00212450185790658,17717.982421875,-29170.78125,34130.06640625,-58.72600936889648
42.0,15.782828330993652,19949.669921875,33415.3984375,-33415.3984375,38917.58203125,-59.16194534301758,1.0,1.3892815786675783e-07,0.8649047017097473,8.0,0.9956923127174376,0.38934797048568726,-149.3699188232422,0.07527434080839157,0.1910303831100464,1.0004424439102875e-05,-90.20797729492189,9.999999747378752e-06,0.002138674259185791,19949.669921875,-33415.3984375,38917.58203125,-59.16194534301758
43.0,12.466754913330078,22488.623046875,37905.9375,-37905.9375,44074.91796875,-59.32042694091797,1.0,1.612065716471989e-07,0.8628720641136169,8.0,0.99629545211792,0.44101619720458973,-149.21380615234375,0.09347335994243619,0.20943257212638852,1.000605789158726e-05,-89.89337921142578,9.999999747378752e-06,0.002169178333133459,22488.623046875,-37905.9375,44074.91796875,-59.32042694091797
44.0,9.973403930664062,25855.794921875,43235.75390625,-43235.75390625,50377.1015625,-59.11978149414063,1.0,1.4859013219847839e-07,0.8423181176185608,8.0,0.9965434670448304,0.5038964152336121,-148.7693328857422,0.11351168155670166,0.22259308397769928,1.0002489034377504e-05,-89.64955139160156,9.999999747378752e-06,0.002098587341606617,25855.794921875,-43235.75390625,50377.1015625,-59.11978149414063
45.0,7.878151416778564,30370.90625,49498.8046875,-49498.8046875,58073.43359375,-58.46803283691406,1.0,8.776181203984379e-08,0.804960787296295,8.0,0.9970399141311644,0.581023633480072,-147.92074584960935,0.1335953176021576,0.22720764577388763,1.0004981959355064e-05,-89.45270538330078,9.999999747378752e-06,0.00190570077393204,30370.90625,-49498.8046875,58073.43359375,-58.46803283691406
46.0,6.275100231170654,35575.33984375,55636.5234375,-55636.5234375,66038.078125,-57.40416717529297,1.0,1.1134049060501638e-07,0.7581053376197816,8.0,0.9970816969871522,0.6604084372520447,-146.6990203857422,0.14847996830940247,0.22216881811618805,1.0000419024436267e-05,-89.29486083984375,9.999999747378752e-06,0.0016977079212665556,35575.33984375,-55636.5234375,66038.078125,-57.40416717529297
47.0,5.013369083404541,40999.39453125,61577.0078125,-61577.0078125,73977.5546875,-56.34340667724609,1.0,1.3315829505700094e-07,0.702910304069519,8.0,0.9979817271232606,0.7404432892799377,-145.51539611816406,0.1578018218278885,0.21059302985668185,1.0009026482293848e-05,-89.17198944091795,9.999999747378752e-06,0.0014957367675378919,40999.39453125,-61577.0078125,73977.5546875,-56.34340667724609
