# point,freq,zreal,reflected_zimag,zimag,zmod,zphz,zsig,Idc,Vdc,ie_range,gain,vmod,vphz,vsig,vthd,imod,iphz,isig,ithd,zreal_drift,zimag_drift,zmod_drift,zphz_drift
0.0,250019.53125,4292.4677734375,-611.7132568359375,611.7132568359375,4335.8359375,8.110527038574217,1.0,5.343959514902963e-07,0.4445149302482605,8.0,0.04105502739548683,0.0167448278516531,102.60475158691406,0.002531816018745303,0.14486472308635712,3.861960522044682e-06,94.49422454833984,9.999999747378752e-06,0.16083307564258575,4292.4677734375,611.7132568359375,4335.8359375,8.110527038574217
1.0,198691.40625,4245.96435546875,-452.7048034667969,452.7048034667969,4270.02978515625,6.085885524749756,1.0,5.197344421503658e-07,0.5360670685768129,8.0,0.04943479597568512,0.019856611266732212,-137.7697601318359,0.0036408482119441032,0.17642177641391754,4.650227765523596e-06,-143.85565185546875,9.999999747378752e-06,0.14558175206184387,4245.96435546875,452.7048034667969,4270.02978515625,6.085885524749756
2.0,157792.96875,4206.1357421875,-385.0339660644531,385.0339660644531,4223.72216796875,5.230337142944336,1.0,4.977489993507334e-07,0.607209086418152,8.0,0.06013598665595055,0.023893026635050774,-102.12057495117188,0.003903960576280952,0.15330542623996735,5.6568660511402405e-06,-107.35091400146484,9.999999747378752e-06,0.1392376273870468,4206.1357421875,385.0339660644531,4223.72216796875,5.230337142944336
3.0,125332.03125,4197.29150390625,-260.3283996582031,260.3283996582031,4205.35693359375,3.549107074737549,1.0,4.794392793883162e-07,0.636210024356842,8.0,0.07422750443220137,0.029363593086600304,64.1880874633789,0.004169604741036892,0.13131213188171387,6.9824259298911775e-06,60.63898086547852,9.999999747378752e-06,0.12315388023853302,4197.29150390625,260.3283996582031,4205.35693359375,3.549107074737549
4.0,99550.78125,4197.98046875,-161.49716186523435,161.49716186523435,4201.0859375,2.203094005584717,1.0,2.947049324575346e-07,0.6946592330932617,8.0,0.08939034491777421,0.03532593324780464,-24.949308395385746,0.0018872243817895649,0.04694243147969246,8.408762369072065e-06,-27.15239906311035,9.999999747378752e-06,0.04569722339510918,4197.98046875,161.49716186523435,4201.0859375,2.203094005584717
5.0,79160.15625,4203.1474609375,-97.91876983642578,97.91876983642578,4204.28759765625,1.334551692008972,1.0,2.7504560762281477e-07,0.7233702540397645,8.0,0.11277935653924942,0.04460294544696808,-146.2855987548828,0.002878375584259629,0.062210164964199066,1.0608917364152148e-05,-147.6201629638672,9.999999747378752e-06,0.05831262469291687,4203.1474609375,97.91876983642578,4204.28759765625,1.334551692008972
6.0,62871.09375,4208.9111328125,-39.00042343139648,39.00042343139648,4209.091796875,0.5308964252471924,1.0,2.6062275537697133e-07,0.7354418039321899,8.0,0.1501801311969757,0.05604943633079529,-143.1621856689453,0.00406360300257802,0.07004202157258987,1.3316278455022257e-05,-143.69308471679688,9.479412597102055e-07,0.06964573264122009,4208.9111328125,39.00042343139648,4209.091796875,0.5308964252471924
7.0,49980.46875,4214.154296875,10.819177627563477,-10.819177627563477,4214.16845703125,-0.14709757268428802,1.0,1.9631372083495083e-07,0.7448319792747498,8.0,0.2375854253768921,0.06666827201843262,-112.5367431640625,0.004381599836051464,0.0647345781326294,1.582003096700646e-05,-112.38964080810545,1.0753227570603483e-06,0.06711573898792267,4214.154296875,-10.819177627563477,4214.16845703125,-0.14709757268428802
8.0,39667.96875,4227.052734375,62.81173324584961,-62.81173324584961,4227.51953125,-0.8513218760490417,1.0,1.5303467648664082e-07,0.7332461476325988,8.0,0.40327331423759455,0.07175716757774353,-7.001495838165283,0.002778702182695269,0.037023652344942086,1.697382322163321e-05,-6.150173664093018,9.999999747378752e-06,0.037865299731493,4227.052734375,-62.81173324584961,4227.51953125,-0.8513218760490417
9.0,31582.03125,4237.20361328125,121.73956298828124,-121.73956298828124,4238.9521484375,-1.6457185745239256,1.0,1.4596329833693744e-07,0.7122142314910889,8.0,0.5606261491775513,0.0589294508099556,139.98501586914062,0.0003286390274297446,0.003895821515470743,1.3901891179557424e-05,141.6307373046875,9.999999747378752e-06,0.011773427948355675,4237.20361328125,-121.73956298828124,4238.9521484375,-1.6457185745239256
10.0,25019.53125,4251.55859375,166.12095642089844,-166.12095642089844,4254.802734375,-2.2375771999359126,1.0,1.4152838900827194e-07,0.7093353867530823,8.0,0.648956835269928,0.049251776188611984,21.245853424072266,0.0009490760858170688,0.015467721968889236,1.15755719889421e-05,23.48343086242676,9.999999747378752e-06,0.015595688484609129,4251.55859375,-166.12095642089844,4254.802734375,-2.2375771999359126
11.0,19863.28125,4267.7080078125,225.0871124267578,-225.0871124267578,4273.6396484375,-3.019092082977295,1.0,1.3519996855393401e-07,0.7047752141952515,8.0,0.7278215885162354,0.04792995378375053,59.273113250732415,0.0007631884072907269,0.0014092139899730682,1.1215253834961912e-05,62.29220199584961,9.999999747378752e-06,0.0026982186827808614,4267.7080078125,-225.0871124267578,4273.6396484375,-3.019092082977295
12.0,15682.8701171875,4292.84521484375,283.72296142578125,-283.72296142578125,4302.2109375,-3.781296491622925,1.0,1.572536092453447e-07,0.7049633860588074,8.0,0.7970916032791138,0.047116715461015694,-28.414384841918945,0.0007915579481050371,0.0014639408327639103,1.095174502552254e-05,-24.63308906555176,9.999999747378752e-06,0.00231620529666543,4292.84521484375,-283.72296142578125,4302.2109375,-3.781296491622925
13.0,12597.65625,4292.71435546875,356.8665771484375,-356.8665771484375,4307.5224609375,-4.752247333526611,1.0,1.4962732564072212e-07,0.7100444436073303,8.0,0.8523364663124083,0.04606068506836891,-81.0135498046875,0.0007377734291367232,0.0011434101033955812,1.0693080184864812e-05,-76.26130676269531,9.999999747378752e-06,0.0018826352898031475,4292.71435546875,-356.8665771484375,4307.5224609375,-4.752247333526611
14.0,9895.8330078125,4343.30517578125,430.2522888183594,-430.2522888183594,4364.56396484375,-5.657321929931641,1.0,1.5077509374350484e-07,0.7178741693496704,8.0,0.8920010924339294,0.045676745474338525,-69.63829040527344,0.0006601735949516296,0.013895830139517784,1.0465363629919013e-05,-63.980972290039055,9.999999747378752e-06,0.0028162666130810976,4343.30517578125,-430.2522888183594,4364.56396484375,-5.657321929931641
15.0,7910.15625,4379.41748046875,518.9078979492188,-518.9078979492188,4410.052734375,-6.757349967956543,1.0,1.4686582971989992e-07,0.7229327559471129,8.0,0.920417070388794,0.045505408197641366,-46.75739288330078,0.0007642810232937336,0.0009525771019980312,1.0318563909095246e-05,-40.00004196166992,9.999999747378752e-06,0.004158602561801672,4379.41748046875,-518.9078979492188,4410.052734375,-6.757349967956543
16.0,6307.87060546875,4420.4892578125,622.8604736328125,-622.8604736328125,4464.1552734375,-8.02035140991211,1.0,1.6927808133004874e-07,0.7279592752456666,8.0,0.9421302080154419,0.045694664120674126,30.699750900268555,0.0007389035890810191,0.0016759000718593595,1.0235905392619316e-05,38.7201042175293,9.999999747378752e-06,0.002288128947839141,4420.4892578125,-622.8604736328125,4464.1552734375,-8.02035140991211
17.0,4973.3232421875,4476.13623046875,753.1627197265626,-753.1627197265626,4539.05810546875,-9.551222801208496,1.0,1.7939082397333553e-07,0.738168954849243,8.0,0.9288763999938964,0.04475203156471253,-65.55778503417969,0.0004496431502047926,0.000827409268822521,9.859320925897919e-06,-56.00655746459961,9.999999747378752e-06,0.0008620807784609496,4476.13623046875,-753.1627197265626,4539.05810546875,-9.551222801208496
18.0,3944.3598632812495,4534.51171875,890.6558837890626,-890.6558837890626,4621.15380859375,-11.11241054534912,1.0,1.7668133978077097e-07,0.7452839612960814,8.0,0.9555935263633728,0.04754071682691574,43.995025634765625,0.0004996241186745465,0.0005863296100869775,1.028762835630914e-05,55.107437133789055,9.999999747378752e-06,0.000796932610683143,4534.51171875,-890.6558837890626,4621.15380859375,-11.11241054534912
19.0,3144.054931640625,4604.35107421875,1053.8763427734375,-1053.8763427734375,4723.4208984375,-12.892186164855955,1.0,1.7796271833958602e-07,0.7487360835075377,8.0,0.9701623916625975,0.04795433580875397,88.78736877441406,0.00045570009388029575,0.010085704736411572,1.0152459253731648e-05,101.67955780029295,9.999999747378752e-06,0.0007231498602777718,4604.35107421875,-1053.8763427734375,4723.4208984375,-12.892186164855955
20.0,2488.426025390625,4689.5283203125,1247.7589111328125,-1247.7589111328125,4852.6875,-14.89967918395996,1.0,1.7944279306902902e-07,0.7557620406150819,8.0,0.9777511954307555,0.04890646412968636,157.57325744628906,0.0009047049097716808,0.011247061192989348,1.0078221748699434e-05,172.47293090820312,9.999999747378752e-06,0.000909070309717208,4689.5283203125,-1247.7589111328125,4852.6875,-14.89967918395996
21.0,1976.6566162109373,4791.34228515625,1466.9835205078125,-1466.9835205078125,5010.88818359375,-17.023216247558594,1.0,1.8775394039494128e-07,0.7659849524497987,8.0,0.9847083687782288,0.05046543478965759,-132.3244171142578,0.0003403989248909056,0.0012817984679713843,1.0071154974866658e-05,-115.30119323730467,9.999999747378752e-06,0.0007901369826868176,4791.34228515625,-1466.9835205078125,5010.88818359375,-17.023216247558594
22.0,1582.03125,4908.28076171875,1711.476318359375,-1711.476318359375,5198.1123046875,-19.223234176635746,1.0,1.9712449272901722e-07,0.775378942489624,8.0,0.9873533844947816,0.052120748907327645,107.85945129394533,0.0006592700956389308,0.0017541568959131837,1.0026860763900912e-05,127.0826950073242,9.999999747378752e-06,0.0011545183369889855,4908.28076171875,-1711.476318359375,5198.1123046875,-19.223234176635746
23.0,1253.6336669921875,5051.75634765625,2002.2741699218752,-2002.2741699218752,5434.0908203125,-21.621002197265625,1.0,1.951649437614833e-07,0.7849562764167786,8.0,0.9909045696258546,0.0545363537967205,137.27182006835935,0.00048090124619193375,0.002106165047734976,1.0035966624855064e-05,158.892822265625,9.999999747378752e-06,0.0012390917399898171,5051.75634765625,-2002.2741699218752,5434.0908203125,-21.621002197265625
24.0,996.09375,5221.04150390625,2345.80126953125,-2345.80126953125,5723.81494140625,-24.194269180297848,1.0,1.8342387875236454e-07,0.791320264339447,8.0,0.9921399950981139,0.05730951577425003,-22.62642478942871,0.0005891837063245475,0.002779569709673524,1.0012468010245357e-05,1.5678415298461914,9.999999747378752e-06,0.0016510830027982593,5221.04150390625,-2345.80126953125,5723.81494140625,-24.194269180297848
25.0,790.028076171875,5413.88525390625,2724.56640625,-2724.56640625,6060.81005859375,-26.71406936645508,1.0,1.9241630866417839e-07,0.801426351070404,8.0,0.9960563778877257,0.060847338289022446,-143.82138061523435,0.00046630221186205745,0.004572308622300625,1.00394736364251e-05,-117.10730743408205,9.999999747378752e-06,0.001609930070117116,5413.88525390625,-2724.56640625,6060.81005859375,-26.71406936645508
26.0,628.8109741210938,5646.90869140625,3197.762451171875,-3197.762451171875,6489.47314453125,-29.52224922180176,1.0,1.9306193621559942e-07,0.8024718761444091,8.0,0.9967554211616515,0.06494027376174927,69.90728759765625,0.000755180255509913,0.0065817893482744685,1.0007018317992332e-05,99.42953491210936,9.999999747378752e-06,0.0017600960563868284,5646.90869140625,-3197.762451171875,6489.47314453125,-29.52224922180176
27.0,496.3235168457031,5634.38720703125,3890.723876953125,-3890.723876953125,6847.19287109375,-34.626312255859375,1.0,1.8942631641039043e-07,0.8131088018417358,8.0,0.9674823880195615,0.06646101176738739,98.45916748046876,0.0006362662534229456,0.006106203887611628,9.706316632218659e-06,133.08547973632812,9.999999747378752e-06,0.0006019107531756163,5634.38720703125,-3890.723876953125,6847.19287109375,-34.626312255859375
28.0,395.3313293457031,5988.0478515625,4525.8408203125,-4525.8408203125,7505.99462890625,-37.08243942260742,1.0,1.8984343341799106e-07,0.8121640086174011,8.0,0.9890756607055664,0.07673520594835281,60.95580673217773,0.0010106359841302035,0.01065660361200571,1.022319065668853e-05,98.03823852539062,9.999999747378752e-06,0.0006819379050284624,5988.0478515625,-4525.8408203125,7505.99462890625,-37.08243942260742
29.0,315.5048217773437,6367.93994140625,5227.80810546875,-5227.80810546875,8238.970703125,-39.38454055786133,1.0,1.7866656776277526e-07,0.8146309256553651,8.0,0.9964025616645813,0.08300003409385681,-174.64955139160156,0.0012217768235132098,0.0160564798861742,1.0074078090838157e-05,-135.26499938964844,9.999999747378752e-06,0.0008267752127721906,6367.93994140625,-5227.80810546875,8238.970703125,-39.38454055786133
30.0,249.33511352539065,6823.923828125,6118.62890625,-6118.62890625,9165.3447265625,-41.88079452514648,1.0,1.8703950388498924e-07,0.8137323856353759,8.0,0.9979636669158936,0.09179705381393433,49.11884307861328,0.002173262881115079,0.02233520895242691,1.0015667612606192e-05,90.99964141845705,9.999999747378752e-06,0.0011989520862698555,6823.923828125,-6118.62890625,9165.3447265625,-41.88079452514648
31.0,198.6228790283203,7338.348632812499,7193.3154296875,-7193.3154296875,10275.9501953125,-44.428176879882805,1.0,1.8005579249802395e-07,0.808217942714691,8.0,0.9988644123077391,0.10285224020481108,32.12708282470703,0.003203772474080324,0.02969908341765404,1.0009025572799146e-05,76.55526733398438,9.999999747378752e-06,0.001526213949546218,7338.348632812499,-7193.3154296875,10275.9501953125,-44.428176879882805
32.0,158.005615234375,7933.02099609375,8479.478515625,-8479.478515625,11611.8203125,-46.9069709777832,1.0,1.6884624187696318e-07,0.8030272126197816,8.0,0.9937505722045897,0.11552372574806212,87.9549789428711,0.004371140152215958,0.03744753077626228,9.948803381121252e-06,134.86195373535156,9.999999747378752e-06,0.0014955212827771902,7933.02099609375,-8479.478515625,11611.8203125,-46.9069709777832
33.0,125.5580368041992,8441.5263671875,9531.1064453125,-9531.1064453125,12731.9033203125,-48.469276428222656,1.0,1.6085166976154142e-07,0.8236967921257019,8.0,0.9855659008026125,0.12627041339874268,-148.3051605224609,0.0061989608220756045,0.048447754234075546,9.9176386356703e-06,-99.83587646484376,9.999999747378752e-06,0.0017249282682314515,8441.5263671875,-9531.1064453125,12731.9033203125,-48.469276428222656
34.0,99.73403930664062,8833.955078125,10048.783203125,-10048.783203125,13379.7158203125,-48.68107604980469,1.0,1.4874268572384608e-07,0.8776040077209472,8.0,0.9916287064552307,0.13462021946907043,-145.5643768310547,0.00855286605656147,0.06194523721933365,1.0061516150017267e-05,-96.88330078125,9.999999747378752e-06,0.0012123825727030635,8833.955078125,-10048.783203125,13379.7158203125,-48.68107604980469
35.0,78.78150939941406,9527.298828125,11694.89453125,-11694.89453125,15084.4287109375,-50.83186340332031,1.0,1.512852492169259e-07,0.8853502273559569,8.0,0.9922509789466858,0.1509389579296112,-145.6569366455078,0.011516578495502472,0.07443773001432419,1.0006275260820985e-05,-94.82508087158205,9.999999747378752e-06,0.0017907163128256796,9527.298828125,-11694.89453125,15084.4287109375,-50.83186340332031
36.0,62.919464111328125,10260.0146484375,13404.0673828125,-13404.0673828125,16880.07421875,-52.56809616088867,1.0,1.5909125750113162e-07,0.8950583338737487,8.0,0.9926249980926511,0.1688643842935562,-145.85865783691406,0.01512459386140108,0.08731476217508317,1.00037696029176e-05,-93.29056549072264,9.999999747378752e-06,0.0016106285620480776,10260.0146484375,-13404.0673828125,16880.07421875,-52.56809616088867
37.0,49.86701965332031,11177.013671875,15584.1279296875,-15584.1279296875,19177.869140625,-54.35172271728516,1.0,1.5198858704934537e-07,0.902426779270172,8.0,0.9933410882949827,0.19191704690456393,-147.82644653320312,0.019926404580473896,0.1025358960032463,1.0007213859353215e-05,-93.47471618652344,9.999999747378752e-06,0.0016760928556323051,11177.013671875,-15584.1279296875,19177.869140625,-54.35172271728516
38.0,39.72457504272461,12181.41796875,17973.396484375,-17973.396484375,21712.4375,-55.87265396118164,1.0,1.5607902525971443e-07,0.908788561820984,8.0,0.9940791726112365,0.21728570759296417,-148.35739135742188,0.026009518653154373,0.1182425543665886,1.0007430319092236e-05,-92.4847412109375,9.999999747378752e-06,0.001752018346451223,12181.41796875,-17973.396484375,21712.4375,-55.87265396118164
39.0,31.459732055664062,13473.9267578125,20871.517578125,-20871.517578125,24842.845703125,-57.155120849609375,1.0,1.3165009704607658e-07,0.9107083678245544,8.0,0.9946509003639219,0.24857130646705627,-148.8523712158203,0.03423215821385384,0.13603119552135468,1.0005751391872764e-05,-91.69725799560547,9.999999747378752e-06,0.0018557298462837932,13473.9267578125,-20871.517578125,24842.845703125,-57.155120849609375
40.0,24.93350982666016,14973.11328125,24033.73046875,-24033.73046875,28316.326171875,-58.07692337036133,1.0,1.324304861327619e-07,0.9140976667404176,8.0,0.9951490759849548,0.2833050787448883,-149.1710662841797,0.044351454824209206,0.15466001629829407,1.0005008334701417e-05,-91.09414672851561,9.999999747378752e-06,0.0017745867371559143,14973.11328125,-24033.73046875,28316.326171875,-58.07692337036133
41.0,19.862287521362305,16727.126953125,27638.251953125,-27638.251953125,32305.87890625,-58.81697845458984,1.0,1.2296641216380522e-07,0.9121524691581726,8.0,0.9956946969032288,0.32323589920997614,-149.41036987304688,0.05662453919649124,0.1730748265981674,1.000548309093574e-05,-90.59339141845705,9.999999747378752e-06,0.0018375773215666411,16727.126953125,-27638.251953125,32305.87890625,-58.81697845458984
42.0,15.782828330993652,18980.3828125,32021.259765625,-32021.259765625,37223.86328125,-59.34294509887695,1.0,1.1564944202291373e-07,0.9010416269302368,8.0,0.995982825756073,0.3723463416099548,-149.54583740234375,0.07270320504903793,0.19291542470455167,1.0002893759519791e-05,-90.20288848876952,9.999999747378752e-06,0.0019570165313780308,18980.3828125,-32021.259765625,37223.86328125,-59.34294509887695
43.0,12.466754913330078,21919.369140625,37299.3125,-37299.3125,43263.1171875,-59.558887481689446,1.0,1.1433942148642017e-07,0.8809826374053955,8.0,0.9963107109069824,0.43277359008789057,-149.4463653564453,0.09274762868881224,0.21175359189510343,1.0003292118199168e-05,-89.88748168945312,9.999999747378752e-06,0.0018046972109004853,21919.369140625,-37299.3125,43263.1171875,-59.558887481689446
44.0,9.973403930664062,25397.888671875,42973.7421875,-42973.7421875,49917.8828125,-59.41651153564453,1.0,1.197354322357569e-07,0.8534497618675232,8.0,0.9966089129447936,0.49932822585105896,-149.0694122314453,0.11364489048719406,0.2248893976211548,1.0002992894442286e-05,-89.65290832519531,9.999999747378752e-06,0.001901011215522885,25397.888671875,-42973.7421875,49917.8828125,-59.41651153564453
45.0,7.878151416778564,30009.44921875,49417.26953125,-49417.26953125,57815.51171875,-58.73109817504882,1.0,1.214334162114028e-07,0.8128136992454528,8.0,0.9970258474349976,0.5783970355987549,-148.17703247070312,0.13418304920196533,0.22924156486988068,1.0004183423006909e-05,-89.44593811035155,9.999999747378752e-06,0.0019422109471634033,30009.44921875,-49417.26953125,57815.51171875,-58.73109817504882
46.0,6.275100231170654,35136.4296875,55548.9375,-55548.9375,65728.6328125,-57.68537521362305,1.0,1.1586937631591355e-07,0.7669748663902282,8.0,0.9975984692573548,0.6576637625694275,-146.96908569335935,0.14958663284778595,0.22475686669349673,1.0005743206420448e-05,-89.28371429443358,9.999999747378752e-06,0.0017054585041478276,35136.4296875,-55548.9375,65728.6328125,-57.68537521362305
47.0,5.013369083404541,40625.421875,61615.06640625,-61615.06640625,73802.71875,-56.601444244384766,1.0,1.1782937292537099e-07,0.7099552750587463,8.0,0.9979559779167176,0.7382916212081909,-145.77487182617188,0.15875323116779327,0.2124856263399124,1.0003584065998439e-05,-89.17343139648438,9.999999747378752e-06,0.0014491684269160032,40625.421875,-61615.06640625,73802.71875,-56.601444244384766
