# point,freq,zreal,reflected_zimag,zimag,zmod,zphz,zsig,Idc,Vdc,ie_range,gain,vmod,vphz,vsig,vthd,imod,iphz,isig,ithd,zreal_drift,zimag_drift,zmod_drift,zphz_drift
0.0,250019.53125,4354.42822265625,-590.060791015625,590.060791015625,4394.2255859375,7.71704339981079,1.0,5.510119649443368e-07,0.3534899055957794,8.0,0.04073658585548401,0.016838695853948593,177.57394409179688,0.003732785582542419,0.21408581733703613,3.83200540454709e-06,169.8568878173828,9.999999747378752e-06,0.16439278423786163,4354.42822265625,590.060791015625,4394.2255859375,7.71704339981079
1.0,198691.40625,4313.02001953125,-483.47094726562494,483.47094726562494,4340.03271484375,6.395909786224365,1.0,4.985560622117192e-07,0.41213610768318176,8.0,0.048933088779449456,0.01997731626033783,-138.19642639160156,0.003879808587953448,0.17748256027698517,4.603033175953897e-06,-144.5923309326172,9.999999747378752e-06,0.14457294344902039,4313.02001953125,483.47094726562494,4340.03271484375,6.395909786224365
2.0,157792.96875,4264.11669921875,-350.4411315917969,350.4411315917969,4278.49267578125,4.69822359085083,1.0,5.025785867474042e-07,0.5017245411872864,8.0,0.05970122292637825,0.02402788214385509,-14.994849205017088,0.003834616858512163,0.15172132849693298,5.615968802885617e-06,-19.693071365356445,9.999999747378752e-06,0.1383967250585556,4264.11669921875,350.4411315917969,4278.49267578125,4.69822359085083
3.0,125332.03125,4277.16796875,-259.3417053222656,259.3417053222656,4285.0234375,3.469823122024536,1.0,5.558425186791283e-07,0.5217394232749938,8.0,0.07326261699199677,0.029530923813581463,141.19894409179688,0.004380600061267614,0.13647115230560303,6.891660632390995e-06,137.72911071777344,9.084479302146065e-07,0.12398907542228697,4277.16796875,259.3417053222656,4285.0234375,3.469823122024536
4.0,99550.78125,4251.51025390625,-159.87661743164062,159.87661743164062,4254.51513671875,2.153573751449585,1.0,3.567731710063527e-07,0.5939436554908752,8.0,0.08862896263599396,0.03547048941254616,-162.66539001464844,0.0019478688482195137,0.047361113131046295,8.337140570802147e-06,-164.8189697265625,9.999999747378752e-06,0.04497336596250534,4251.51025390625,159.87661743164062,4254.51513671875,2.153573751449585
5.0,79160.15625,4256.7802734375,-94.30068206787107,94.30068206787107,4257.82470703125,1.269068956375122,1.0,3.288624270680885e-07,0.6310571432113647,8.0,0.11174802482128143,0.044757839292287833,-48.040748596191406,0.00282389554195106,0.05989327281713486,1.0511902473808732e-05,-49.309818267822266,9.999999747378752e-06,0.058292604982852936,4256.7802734375,94.30068206787107,4257.82470703125,1.269068956375122
6.0,62871.09375,4265.11181640625,-36.26482009887695,36.26482009887695,4265.26611328125,0.48715513944625854,1.0,2.959827725135256e-07,0.6381937265396118,8.0,0.1474059522151947,0.0562627986073494,-138.3078460693359,0.004022738430649041,0.06963789463043213,1.3190922800276894e-05,-138.7949981689453,9.498630220150516e-07,0.06968849897384644,4265.11181640625,36.26482009887695,4265.26611328125,0.48715513944625854
7.0,49980.46875,4270.28515625,16.223203659057617,-16.223203659057617,4270.31591796875,-0.21767085790634155,1.0,2.281200437437292e-07,0.6658451557159424,8.0,0.23200613260269165,0.06721162796020508,-154.29039001464844,0.004223392810672522,0.062191713601350784,1.5739264199510217e-05,-154.0727081298828,1.098930965781619e-06,0.06885913014411926,4270.28515625,-16.223203659057617,4270.31591796875,-0.21767085790634155
8.0,39667.96875,4280.82666015625,69.60810852050781,-69.60810852050781,4281.392578125,-0.9315722584724425,1.0,1.617674882936626e-07,0.6601305007934569,8.0,0.3946475088596344,0.07282742857933043,-143.22494506835935,0.002870911033824086,0.03904847428202629,1.701021938060876e-05,-142.2933807373047,9.999999747378752e-06,0.040642265230417245,4280.82666015625,-69.60810852050781,4281.392578125,-0.9315722584724425
9.0,31582.03125,4292.291015625,127.05500793457033,-127.05500793457033,4294.1708984375,-1.6955026388168335,1.0,1.2296831641833705e-07,0.6476728916168213,8.0,0.5560180544853209,0.06050048395991325,-12.38672924041748,0.0009527116781100631,0.004117405507713556,1.4088978787185624e-05,-10.691226959228516,9.999999747378752e-06,0.012737436220049858,4292.291015625,-127.05500793457033,4294.1708984375,-1.6955026388168335
10.0,25019.53125,4309.01416015625,176.6546173095703,-176.6546173095703,4312.6337890625,-2.3476133346557617,1.0,1.2378197311591066e-07,0.636997401714325,8.0,0.6444714069366455,0.049987029284238815,130.50770568847656,0.0008286407683044672,0.014619686640799044,1.1590836038521957e-05,132.85531616210935,9.999999747378752e-06,0.016458332538604736,4309.01416015625,-176.6546173095703,4312.6337890625,-2.3476133346557617
11.0,19863.28125,4325.16064453125,234.30181884765625,-234.30181884765625,4331.50244140625,-3.100785732269287,1.0,1.0757749890899505e-07,0.6348660588264465,8.0,0.72354257106781,0.04862941056489944,168.8661956787109,0.0006145364604890347,0.0011378355557098985,1.1226915376028046e-05,171.9669952392578,9.999999747378752e-06,0.001921077724546194,4325.16064453125,-234.30181884765625,4331.50244140625,-3.100785732269287
12.0,15682.8701171875,4348.66552734375,302.0113220214844,-302.0113220214844,4359.14013671875,-3.972766876220703,1.0,1.0084148271971573e-07,0.62822026014328,8.0,0.7938402295112611,0.04782663658261299,90.92696380615233,0.0006477782735601068,0.0011469632154330611,1.0971575647999998e-05,94.89972686767578,9.999999747378752e-06,0.0017140397103503346,4348.66552734375,-302.0113220214844,4359.14013671875,-3.972766876220703
13.0,12597.65625,4384.30908203125,378.8822021484375,-378.8822021484375,4400.64990234375,-4.939102649688721,1.0,1.0054470322984345e-07,0.6278382539749146,8.0,0.8433921933174133,0.0467534065246582,-3.854462385177612,0.0008666132343932985,0.0009919079020619392,1.0624205970088951e-05,1.0846402645111084,9.999999747378752e-06,0.002167315920814872,4384.30908203125,-378.8822021484375,4400.64990234375,-4.939102649688721
14.0,9895.8330078125,4402.865234375,456.5726318359375,-456.5726318359375,4426.47509765625,-5.920352935791016,1.0,1.085458407601436e-07,0.6297452449798584,8.0,0.8889442682266235,0.046655513346195214,17.65463638305664,0.0003857112897094339,0.014157683588564396,1.0540104995016009e-05,23.574989318847656,9.999999747378752e-06,0.003756227204576135,4402.865234375,-456.5726318359375,4426.47509765625,-5.920352935791016
15.0,7910.15625,4445.96337890625,549.621826171875,-549.621826171875,4479.80712890625,-7.047301769256592,1.0,1.0091955005009369e-07,0.6289345026016235,8.0,0.9174616336822509,0.04623519256711006,7.131134033203125,0.0007554959156550467,0.0009520202875137328,1.0320800356566904e-05,14.178436279296877,9.999999747378752e-06,0.003897082060575485,4445.96337890625,-549.621826171875,4479.80712890625,-7.047301769256592
16.0,6307.87060546875,4485.76611328125,657.0076293945312,-657.0076293945312,4533.62548828125,-8.332578659057617,1.0,1.256990742604103e-07,0.6259843707084656,8.0,0.9400128722190858,0.046450622379779816,74.76667785644531,0.0007789577939547598,0.0009259828948415818,1.0245800694974603e-05,83.09925842285155,9.999999747378752e-06,0.003402980742976069,4485.76611328125,-657.0076293945312,4533.62548828125,-8.332578659057617
17.0,4973.3232421875,4542.80810546875,801.6199340820312,-801.6199340820312,4612.99267578125,-10.007343292236328,1.0,1.3773831142316342e-07,0.6327909231185913,8.0,0.9261127710342408,0.04544779658317566,-35.925601959228516,0.0006345778238028288,0.0006013648817315698,9.852128641796298e-06,-25.918258666992188,9.999999747378752e-06,0.0006902415188960731,4542.80810546875,-801.6199340820312,4612.99267578125,-10.007343292236328
18.0,3944.3598632812495,4604.96240234375,949.8547973632812,-949.8547973632812,4701.904296875,-11.654810905456541,1.0,1.3982510438381726e-07,0.6418166160583496,8.0,0.954194128513336,0.04844473674893379,66.79734802246094,0.0007089332793839276,0.0005297425668686628,1.0303217095497528e-05,78.45215606689453,9.999999747378752e-06,0.0006826077005825937,4604.96240234375,-949.8547973632812,4701.904296875,-11.654810905456541
19.0,3144.054931640625,4676.51025390625,1123.348876953125,-1123.348876953125,4809.53857421875,-13.507160186767578,1.0,1.297796075050428e-07,0.6423289775848389,8.0,0.96904855966568,0.0488441064953804,106.92851257324217,0.0005708924727514385,0.01157452818006277,1.0155675226997118e-05,120.43567657470705,9.999999747378752e-06,0.000719274568837136,4676.51025390625,-1123.348876953125,4809.53857421875,-13.507160186767578
20.0,2488.426025390625,4768.833984375,1340.616943359375,-1340.616943359375,4953.68896484375,-15.70176124572754,1.0,1.4161831529690974e-07,0.6428788900375366,8.0,0.9764387011528016,0.04991466552019119,165.5054473876953,0.0007930625579319894,0.014310217462480068,1.0076261787617112e-05,-178.7928009033203,9.999999747378752e-06,0.001164697576314211,4768.833984375,-1340.616943359375,4953.68896484375,-15.70176124572754
21.0,1976.6566162109373,4876.64599609375,1585.9266357421875,-1585.9266357421875,5128.04443359375,-18.014965057373047,1.0,1.499096242696396e-07,0.647321879863739,8.0,0.981228768825531,0.05153201147913933,-120.30968475341795,0.0003160654741805047,0.0012210094137117267,1.004905698209768e-05,-102.29472351074217,9.999999747378752e-06,0.0012612368445843458,4876.64599609375,-1585.9266357421875,5128.04443359375,-18.014965057373047
22.0,1582.03125,4998.552734375,1865.21337890625,-1865.21337890625,5335.21826171875,-20.46309471130371,1.0,1.2426610851434816e-07,0.6519500613212585,8.0,0.98575621843338,0.05359835177659989,114.91414642333984,0.0005384394316934049,0.0014802309451624751,1.0046140232589096e-05,135.37722778320312,9.999999747378752e-06,0.0012662232620641587,4998.552734375,-1865.21337890625,5335.21826171875,-20.46309471130371
23.0,1253.6336669921875,5153.162109375,2199.4462890625,-2199.4462890625,5602.9140625,-23.113510131835938,1.0,1.0929402094461693e-07,0.6579561233520508,8.0,0.9892119169235228,0.05622555315494537,147.89239501953125,0.0003918438160326332,0.0020631172228604555,1.0035056220658587e-05,171.0059051513672,9.999999747378752e-06,0.0011527779279276729,5153.162109375,-2199.4462890625,5602.9140625,-23.113510131835938
24.0,996.09375,5334.68310546875,2596.468994140625,-2596.468994140625,5933.00048828125,-25.952871322631836,1.0,1.3655161978931574e-07,0.6601130366325377,8.0,0.9905580878257751,0.05941073969006538,-17.775272369384766,0.000680447556078434,0.003293277928605676,1.001360851660138e-05,8.17759895324707,9.999999747378752e-06,0.0015007838374003768,5334.68310546875,-2596.468994140625,5933.00048828125,-25.952871322631836
25.0,790.028076171875,5548.15576171875,3060.214111328125,-3060.214111328125,6336.16162109375,-28.87995338439941,1.0,1.433397471828357e-07,0.6632453799247742,8.0,0.992109477519989,0.06346085667610168,-140.4167938232422,0.00038323079934343696,0.004370917100459336,1.0015662155637983e-05,-111.5368423461914,9.999999747378752e-06,0.0013539337087422607,5548.15576171875,-3060.214111328125,6336.16162109375,-28.87995338439941
26.0,628.8109741210938,5801.3046875,3607.0522460937505,-3607.0522460937505,6831.2490234375,-31.871931076049805,1.0,1.4909778656146955e-07,0.6646299362182617,8.0,0.9947693943977358,0.06849563866853714,70.84584045410156,0.0008755088201723994,0.006317335646599531,1.0026810741692316e-05,102.71776580810545,9.999999747378752e-06,0.00155164604075253,5801.3046875,-3607.0522460937505,6831.2490234375,-31.871931076049805
27.0,496.3235168457031,5790.66796875,4378.0146484375,-4378.0146484375,7259.397460937501,-37.09097671508789,1.0,1.2589948994445876e-07,0.6774882674217224,8.0,0.9659643769264221,0.07049190998077393,99.70999908447264,0.0003013925743289292,0.006006150972098112,9.710434824228287e-06,136.8009796142578,9.999999747378752e-06,0.0004173718334641308,5790.66796875,-4378.0146484375,7259.397460937501,-37.09097671508789
28.0,395.3313293457031,6182.5439453125,5082.28515625,-5082.28515625,8003.34130859375,-39.42150115966797,1.0,1.0806488148773497e-07,0.6808058619499208,8.0,0.9877648353576659,0.08183965831995009,60.90594482421875,0.000974974303971976,0.010323911905288696,1.0225686310150193e-05,100.32743835449217,9.999999747378752e-06,0.0007256773533299565,6182.5439453125,-5082.28515625,8003.34130859375,-39.42150115966797
29.0,315.5048217773437,6620.14794921875,5908.21435546875,-5908.21435546875,8873.181640625,-41.74762344360352,1.0,9.91962707530547e-08,0.6812368631362915,8.0,0.9954463839530944,0.0894218608736992,-175.05856323242188,0.0014454280026257038,0.015069256536662579,1.0077767001348548e-05,-133.31094360351562,9.999999747378752e-06,0.0009622207144275309,6620.14794921875,-5908.21435546875,8873.181640625,-41.74762344360352
30.0,249.33511352539065,7163.01171875,7035.60791015625,-7035.60791015625,10040.34375,-44.48590087890625,1.0,1.1896772633690489e-07,0.6703869700431824,8.0,0.9972177743911744,0.10058210045099258,47.58222198486328,0.002041634637862444,0.02109814248979092,1.001779492071364e-05,92.06812286376952,9.999999747378752e-06,0.001146844238974154,7163.01171875,-7035.60791015625,10040.34375,-44.48590087890625
31.0,198.6228790283203,7705.31640625,8081.733398437501,-8081.733398437501,11166.302734375,-46.36586761474609,1.0,1.1830280755020794e-07,0.6805956959724425,8.0,0.9965807199478147,0.11159169673919676,32.15346908569336,0.003217436373233795,0.028261322528123852,9.993611456593497e-06,78.51933288574217,9.999999747378752e-06,0.0012828209437429905,7705.31640625,-8081.733398437501,11166.302734375,-46.36586761474609
32.0,158.005615234375,8328.9365234375,9288.4873046875,-9288.4873046875,12475.8642578125,-48.11759567260742,1.0,1.4240393397813023e-07,0.6899718642234801,8.0,0.9925212860107421,0.12425045669078826,87.63484191894531,0.004659723024815321,0.037118837237358086,9.959266208170447e-06,135.7524261474609,9.999999747378752e-06,0.0016008771490305662,8328.9365234375,-9288.4873046875,12475.8642578125,-48.11759567260742
33.0,125.5580368041992,9124.7568359375,10942.123046875,-10942.123046875,14247.4990234375,-50.17490005493164,1.0,1.53573665784279e-07,0.6841674447059631,8.0,0.9829367399215697,0.14109914004802704,-149.17465209960935,0.00654326006770134,0.04572226107120514,9.903432328428607e-06,-98.99975585937501,9.999999747378752e-06,0.001619404531084001,9124.7568359375,-10942.123046875,14247.4990234375,-50.17490005493164
34.0,99.73403930664062,9781.126953125,11869.3671875,-11869.3671875,15380.2578125,-50.50926971435546,1.0,1.7325459111816602e-07,0.7306260466575623,8.0,0.9899989366531373,0.15490759909152985,-147.41563415527344,0.009636370465159416,0.06063151732087135,1.0071848009829408e-05,-96.90635681152344,9.999999747378752e-06,0.0016293642111122608,9781.126953125,-11869.3671875,15380.2578125,-50.50926971435546
35.0,78.78150939941406,10726.9951171875,13813.7880859375,-13813.7880859375,17489.6875,-52.169139862060554,1.0,1.7216613912296452e-07,0.7352015972137451,8.0,0.9904083013534544,0.17496921122074127,-147.06141662597656,0.013033664785325527,0.0727308988571167,1.0004135219787711e-05,-94.89228057861328,9.999999747378752e-06,0.0015871120849624276,10726.9951171875,-13813.7880859375,17489.6875,-52.169139862060554
36.0,62.919464111328125,11748.4638671875,15785.3701171875,-15785.3701171875,19677.5078125,-53.341064453125,1.0,1.5849700218950602e-07,0.7442771792411805,8.0,0.9916322231292723,0.1970182508230209,-146.68490600585935,0.017347663640975952,0.08594385534524916,1.0012357961386442e-05,-93.34384155273438,9.999999747378752e-06,0.0018081011949107049,11748.4638671875,-15785.3701171875,19677.5078125,-53.341064453125
37.0,49.86701965332031,12995.3564453125,18260.046875,-18260.046875,22412.2421875,-54.56120681762695,1.0,1.2963259621301404e-07,0.7494662404060363,8.0,0.9926166534423827,0.2243449091911316,-148.0773162841797,0.022752070799469948,0.1001884713768959,1.0009926882048605e-05,-93.51611328125,9.999999747378752e-06,0.002002398017793894,12995.3564453125,-18260.046875,22412.2421875,-54.56120681762695
38.0,39.72457504272461,14475.802734375,21086.322265625,-21086.322265625,25576.98046875,-55.530323028564446,1.0,1.2244987601661705e-07,0.7494017481803894,8.0,0.9930334091186525,0.25587716698646545,-148.08261108398435,0.029744986444711685,0.11483070999383926,1.0004198884416836e-05,-92.55229187011719,9.999999747378752e-06,0.0018160761101171372,14475.802734375,-21086.322265625,25576.98046875,-55.530323028564446
39.0,31.459732055664062,16458.310546875,24667.048828125,-24667.048828125,29653.654296875,-56.28805160522461,1.0,1.2345394395651965e-07,0.7372809052467345,8.0,0.9936020970344543,0.2967064082622528,-148.03724670410156,0.03911348804831505,0.13024882972240448,1.0005726835515816e-05,-91.7491989135742,9.999999747378752e-06,0.002123014535754919,16458.310546875,-24667.048828125,29653.654296875,-56.28805160522461
40.0,24.93350982666016,18592.966796875,28236.611328125,-28236.611328125,33808.3515625,-56.63628768920898,1.0,1.6179342310351785e-07,0.7360544204711914,8.0,0.9942595958709716,0.33830726146698,-147.7626953125,0.04992261901497841,0.14579954743385315,1.0006617230828851e-05,-91.1264190673828,9.999999747378752e-06,0.002092069713398814,18592.966796875,-28236.611328125,33808.3515625,-56.63628768920898
41.0,19.862287521362305,20906.810546875,31927.8125,-31927.8125,38163.85546875,-56.78261947631836,1.0,1.6109355271964887e-07,0.7367308139801025,8.0,0.9949958324432371,0.3819211423397064,-147.42816162109375,0.062293041497468955,0.161153182387352,1.0007404853240587e-05,-90.64554595947264,9.999999747378752e-06,0.0021748407743871208,20906.810546875,-31927.8125,38163.85546875,-56.78261947631836
42.0,15.782828330993652,23824.94140625,36348.45703125,-36348.45703125,43460.765625,-56.75678253173828,1.0,1.2363508972157433e-07,0.7269548177719117,8.0,0.9954193234443665,0.43479263782501215,-146.9990692138672,0.07682999968528748,0.1746031939983368,1.0004256182583047e-05,-90.24229431152344,9.999999747378752e-06,0.002116378163918853,23824.94140625,-36348.45703125,43460.765625,-56.75678253173828
43.0,12.466754913330078,27249.97265625,41168.21875,-41168.21875,49369.859375,-56.498722076416016,1.0,1.3843205692865013e-07,0.717710554599762,8.0,0.9959665536880493,0.4939700067043304,-146.4173126220703,0.09322640299797058,0.18648615479469297,1.0005497642850967e-05,-89.91859436035155,9.999999747378752e-06,0.002133223228156566,27249.97265625,-41168.21875,49369.859375,-56.498722076416016
44.0,9.973403930664062,31235.982421875,46300.01171875,-46300.01171875,55851.390625,-55.99470138549805,1.0,1.5718991619451117e-07,0.6981213092803955,8.0,0.9962934255599976,0.5586971640586853,-145.6623992919922,0.10856582969427107,0.1920166164636612,1.000328211375745e-05,-89.66768646240233,9.999999747378752e-06,0.0019054149743169544,31235.982421875,-46300.01171875,55851.390625,-55.99470138549805
45.0,7.878151416778564,36410.46484375,52057.5703125,-52057.5703125,63527.2578125,-55.03002548217773,1.0,1.3706251422718196e-07,0.6595947742462158,8.0,0.9970580339431762,0.6357600688934326,-144.50596618652344,0.12118930369615553,0.18836335837841037,1.0007674063672312e-05,-89.4759292602539,9.999999747378752e-06,0.001585907768458128,36410.46484375,-52057.5703125,63527.2578125,-55.03002548217773
46.0,6.275100231170654,41558.5,57475.8203125,-57475.8203125,70926.5703125,-54.13079452514648,1.0,1.642533931089929e-07,0.6192179918289185,8.0,0.9972980022430421,0.7094365358352661,-143.4430694580078,0.12883330881595612,0.17944960296154022,1.0002407179854345e-05,-89.3122787475586,9.999999747378752e-06,0.0014990870840847492,41558.5,-57475.8203125,70926.5703125,-54.13079452514648
47.0,5.013369083404541,46829.8203125,62813.390625,-62813.390625,78348.9296875,-53.294044494628906,1.0,1.7096824933560129e-07,0.5683171153068542,8.0,0.9976213574409485,0.7837433218955994,-142.4832000732422,0.13250169157981873,0.16705827414989471,1.0003242095990572e-05,-89.18914794921875,9.999999747378752e-06,0.001262306235730648,46829.8203125,-62813.390625,78348.9296875,-53.294044494628906
