# point,freq,zreal,reflected_zimag,zimag,zmod,zphz,zsig,Idc,Vdc,ie_range,gain,vmod,vphz,vsig,vthd,imod,iphz,isig,ithd,zreal_drift,zimag_drift,zmod_drift,zphz_drift
0.0,250019.53125,4288.232421875,118.27861785888672,-118.27861785888672,4289.86328125,-1.5799394845962524,1.0,4.933650643579314e-07,0.23683920502662656,8.0,0.04054421186447144,0.01675904542207718,23.64164924621582,0.003950200043618679,0.22825826704502103,3.8139091884659138e-06,15.644280433654783,9.999999747378752e-06,0.16026350855827332,4288.232421875,-118.27861785888672,4289.86328125,-1.5799394845962524
1.0,198691.40625,4358.67578125,58.010452270507805,-58.010452270507805,4359.06201171875,-0.7625154852867126,1.0,5.222115646574821e-07,0.30269408226013184,8.0,0.04807499796152114,0.020024742931127548,8.245603561401367,0.003948875702917576,0.1783742904663086,4.522314156929497e-06,1.3349521160125732,9.999999747378752e-06,0.15288995206356049,4358.67578125,-58.010452270507805,4359.06201171875,-0.7625154852867126
2.0,157792.96875,4337.9248046875,64.2599868774414,-64.2599868774414,4338.40087890625,-0.8486907482147216,1.0,5.172279315956986e-07,0.3737362325191498,8.0,0.059052929282188416,0.024349400773644447,50.5865364074707,0.004147193860262632,0.15422764420509338,5.55498536414234e-06,45.305694580078125,9.999999747378752e-06,0.13821221888065338,4337.9248046875,-64.2599868774414,4338.40087890625,-0.8486907482147216
3.0,125332.03125,4290.79345703125,110.53512573242188,-110.53512573242188,4292.216796875,-1.4756702184677124,1.0,4.5063396214573004e-07,0.4904150068759918,8.0,0.07258231937885283,0.029507147148251534,-63.865631103515625,0.004126453306525946,0.1351657062768936,6.827666311437497e-06,-67.28117370605469,9.999999747378752e-06,0.12337832152843475,4290.79345703125,-110.53512573242188,4292.216796875,-1.4756702184677124
4.0,99550.78125,4281.59228515625,109.5538101196289,-109.5538101196289,4282.99365234375,-1.4657167196273804,1.0,3.2468656741002633e-07,0.5447808504104614,8.0,0.08794072270393372,0.035447292029857635,-104.00492095947264,0.001872034859843552,0.046137046068906784,8.272399099951144e-06,-106.19232177734376,9.999999747378752e-06,0.04549763724207878,4281.59228515625,-109.5538101196289,4282.99365234375,-1.4657167196273804
5.0,79160.15625,4282.33447265625,113.2757339477539,-113.2757339477539,4283.83251953125,-1.5152268409729004,1.0,2.9062132966828363e-07,0.5937787890434265,8.0,0.11093492060899734,0.04472288489341736,-11.814531326293944,0.0028801143635064363,0.061917971819639206,1.0435415788379032e-05,-13.184459686279297,9.999999747378752e-06,0.058311518281698234,4282.33447265625,-113.2757339477539,4283.83251953125,-1.5152268409729004
6.0,62871.09375,4289.9892578125,128.07568359375,-128.07568359375,4291.90087890625,-1.7100316286087036,1.0,2.70838341975832e-07,0.6116227507591248,8.0,0.1452137678861618,0.056204263120889664,-169.9925079345703,0.004107719752937555,0.07041801512241364,1.308999526372645e-05,-170.56857299804688,9.423447977496836e-07,0.07006756216287613,4289.9892578125,-128.07568359375,4291.90087890625,-1.7100316286087036
7.0,49980.46875,4295.7783203125,145.23995971679688,-145.23995971679688,4298.23291015625,-1.9364286661148071,1.0,2.147623092696449e-07,0.6246698498725891,8.0,0.2275108098983765,0.06736641377210617,-137.03114318847656,0.005241216626018286,0.07702048867940903,1.566730315971654e-05,-136.91259765625,1.1005926126017584e-06,0.06932853162288666,4295.7783203125,-145.23995971679688,4298.23291015625,-1.9364286661148071
8.0,39667.96875,4305.93603515625,168.9124755859375,-168.9124755859375,4309.248046875,-2.246436595916748,1.0,1.828545634907641e-07,0.632231593132019,8.0,0.3873936831951141,0.0733974203467369,87.25938415527342,0.003112500999122858,0.04110193997621536,1.7027485228027217e-05,88.06080627441406,9.999999747378752e-06,0.04209594056010246,4305.93603515625,-168.9124755859375,4309.248046875,-2.246436595916748
9.0,31582.03125,4320.53515625,194.7325592041016,-194.7325592041016,4324.92138671875,-2.5806543827056885,1.0,1.566523479823445e-07,0.6280618906021118,8.0,0.5530587434768677,0.0617581345140934,-102.00926971435545,0.0005595029797405005,0.004032985772937536,1.4276400179369377e-05,-100.58120727539062,9.999999747378752e-06,0.011701139621436596,4320.53515625,-194.7325592041016,4324.92138671875,-2.5806543827056885
10.0,25019.53125,4331.744140625,233.0724334716797,-233.0724334716797,4338.009765625,-3.0798685550689697,1.0,1.6231703625635419e-07,0.6250640749931335,8.0,0.642927348613739,0.050437115132808685,120.43201446533205,0.0006726949359290302,0.015545638278126717,1.1624937542364933e-05,122.59719848632812,9.999999747378752e-06,0.014885113574564455,4331.744140625,-233.0724334716797,4338.009765625,-3.0798685550689697
11.0,19863.28125,4346.95556640625,274.57229614257807,-274.57229614257807,4355.61865234375,-3.614244937896729,1.0,1.736046897349297e-07,0.6306930780410768,8.0,0.7233681082725525,0.049011103808879845,-89.12804412841795,0.0006991123664192855,0.0013398550217971204,1.1251164323766716e-05,-86.24096679687501,9.999999747378752e-06,0.0023217250127345324,4346.95556640625,-274.57229614257807,4355.61865234375,-3.614244937896729
12.0,15682.8701171875,4365.9267578125,327.4670104980469,-327.4670104980469,4378.1904296875,-4.28944730758667,1.0,1.6797083901565202e-07,0.6393681764602661,8.0,0.794276237487793,0.04807706922292709,-140.9336395263672,0.000809722871053964,0.0012845384189859033,1.0980249498970807e-05,-137.21893310546875,9.999999747378752e-06,0.002642333740368485,4365.9267578125,-327.4670104980469,4378.1904296875,-4.28944730758667
13.0,12597.65625,4393.1455078125,373.8609619140625,-373.8609619140625,4409.02490234375,-4.864206790924072,1.0,1.6562646010243043e-07,0.6499074101448059,8.0,0.8459056019783021,0.046958435326814645,-165.0222625732422,0.0008802615338936448,0.0010138493962585926,1.0650018339219969e-05,-160.62002563476562,9.999999747378752e-06,0.0023399770725518465,4393.1455078125,-373.8609619140625,4409.02490234375,-4.864206790924072
14.0,9895.8330078125,4421.71240234375,446.4663696289063,-446.4663696289063,4444.1953125,-5.765692234039307,1.0,1.7520230244372215e-07,0.6580018401145935,8.0,0.8900319933891296,0.046761665493249886,-129.6954803466797,0.0006659268401563168,0.014271670021116732,1.0521646800043529e-05,-124.2928466796875,9.999999747378752e-06,0.0034646480344235897,4421.71240234375,-446.4663696289063,4444.1953125,-5.765692234039307
15.0,7910.15625,4452.11962890625,532.2670288085938,-532.2670288085938,4483.82421875,-6.8175597190856925,1.0,1.562364388973947e-07,0.6629862189292908,8.0,0.9211691021919249,0.046407777816057205,-85.4500045776367,0.0007491577416658401,0.001094444072805345,1.034984234138392e-05,-78.92274475097656,9.999999747378752e-06,0.0026594253722578287,4452.11962890625,-532.2670288085938,4483.82421875,-6.8175597190856925
16.0,6307.87060546875,4497.11328125,624.6712036132812,-624.6712036132812,4540.291015625,-7.908064842224122,1.0,1.5691776411586034e-07,0.6652026772499084,8.0,0.9409707188606262,0.04637947678565979,-22.214073181152344,0.0007144607370719314,0.0016810736851766703,1.0214961548626889e-05,-14.537549018859863,9.999999747378752e-06,0.0021698754280805588,4497.11328125,-624.6712036132812,4540.291015625,-7.908064842224122
17.0,4973.3232421875,4549.01953125,744.9555664062499,-744.9555664062499,4609.61328125,-9.300307273864746,1.0,1.4941412018742994e-07,0.6698216795921326,8.0,0.9292176365852357,0.04558115452528,-101.4298858642578,0.0004114330804441124,0.0007135509513318539,9.87509611150017e-06,-92.22953796386719,9.999999747378752e-06,0.000570725416764617,4549.01953125,-744.9555664062499,4609.61328125,-9.300307273864746
18.0,3944.3598632812495,4608.43798828125,881.3787231445312,-881.3787231445312,4691.96435546875,-10.827255249023436,1.0,1.581814643714097e-07,0.672946572303772,8.0,0.9558587670326234,0.04831264540553093,15.248218536376951,0.0007342100725509225,0.0008841484086588025,1.0286705219186842e-05,25.97524070739746,9.999999747378752e-06,0.0005048331804573536,4608.43798828125,-881.3787231445312,4691.96435546875,-10.827255249023436
19.0,3144.054931640625,4680.4736328125,1031.6522216796875,-1031.6522216796875,4792.82177734375,-12.43016242980957,1.0,1.4845878126834577e-07,0.6829627752304077,8.0,0.9707792997360227,0.048709753900766366,70.02274322509766,9.999999747378752e-06,0.007792987395077942,1.0156095413549336e-05,82.36180114746092,9.999999747378752e-06,0.000853858538903296,4680.4736328125,-1031.6522216796875,4792.82177734375,-12.43016242980957
20.0,2488.426025390625,4765.75390625,1219.389892578125,-1219.389892578125,4919.28076171875,-14.352080345153809,1.0,1.3284120825574064e-07,0.6855952739715576,8.0,0.9787852168083192,0.049620918929576874,133.3599853515625,0.0006919136503711343,0.010572735220193861,1.0082469088956712e-05,147.63397216796875,9.999999747378752e-06,0.0012704954715445636,4765.75390625,-1219.389892578125,4919.28076171875,-14.352080345153809
21.0,1976.6566162109373,4865.40576171875,1435.554443359375,-1435.554443359375,5072.76953125,-16.438873291015625,1.0,1.225316168529389e-07,0.6887415051460266,8.0,0.9843791127204896,0.05103259906172752,-145.1698455810547,9.999999747378752e-06,0.0011090823682025075,1.005715148494346e-05,-128.79600524902344,9.999999747378752e-06,0.0010829026577994227,4865.40576171875,-1435.554443359375,5072.76953125,-16.438873291015625
22.0,1582.03125,4980.5439453125,1680.11474609375,-1680.11474609375,5256.2919921875,-18.641082763671875,1.0,1.2254791670329726e-07,0.6908320188522339,8.0,0.9874041676521299,0.05273455008864402,96.14987182617188,0.00032608999754302204,0.0016659764805808663,1.0030730663856955e-05,114.73744201660156,9.999999747378752e-06,0.0010843282798305152,4980.5439453125,-1680.11474609375,5256.2919921875,-18.641082763671875
23.0,1253.6336669921875,5120.5859375,1965.8922119140625,-1965.8922119140625,5484.99169921875,-21.002763748168945,1.0,1.2951224448443102e-07,0.6978653073310852,8.0,0.9912931323051453,0.05507263913750648,131.5036468505859,0.0003449215437285602,0.002345089102163911,1.0039385415439028e-05,152.46322631835935,9.999999747378752e-06,0.0012370201293379068,5120.5859375,-1965.8922119140625,5484.99169921875,-21.002763748168945
24.0,996.09375,5284.8056640625,2310.509765625,-2310.509765625,5767.8095703125,-23.61488151550293,1.0,1.4440277595895168e-07,0.6983087062835692,8.0,0.9931530356407164,0.05779077112674713,-28.951686859130856,0.0005744313239119946,0.003484117100015282,1.0018762623076329e-05,-5.371505260467528,9.999999747378752e-06,0.0014446974964812396,5284.8056640625,-2310.509765625,5767.8095703125,-23.61488151550293
25.0,790.028076171875,5477.31396484375,2729.48974609375,-2729.48974609375,6119.72900390625,-26.488285064697266,1.0,1.4192487185482605e-07,0.6979829072952272,8.0,0.9945695996284484,0.061287567019462585,-148.89659118652344,0.0006965499487705529,0.005036620888859034,1.0014263352786656e-05,-122.43601989746092,9.999999747378752e-06,0.0010734545066952703,5477.31396484375,-2729.48974609375,6119.72900390625,-26.488285064697266
26.0,628.8109741210938,5694.11962890625,3159.85791015625,-3159.85791015625,6512.11962890625,-29.02736091613769,1.0,1.419312667394479e-07,0.7069371938705444,8.0,0.9955535531044006,0.06518763303756714,65.15666198730469,0.0006145364604890347,0.0069424756802618495,1.0009893230744636e-05,94.16186523437501,9.999999747378752e-06,0.0014519646065309644,5694.11962890625,-3159.85791015625,6512.11962890625,-29.02736091613769
27.0,496.3235168457031,5955.12255859375,3708.029541015625,-3708.029541015625,7015.1953125,-31.908960342407223,1.0,1.4577528872905535e-07,0.7111513614654541,8.0,0.9686545133590697,0.06690438091754913,94.93887329101561,0.000794264138676226,0.006218443624675274,9.729807970870752e-06,129.37594604492188,9.999999747378752e-06,0.000444477831479162,5955.12255859375,-3708.029541015625,7015.1953125,-31.908960342407223
28.0,395.3313293457031,6242.79541015625,4331.92919921875,-4331.92919921875,7598.559570312499,-34.757110595703125,1.0,1.4273639692419238e-07,0.713440477848053,8.0,0.9884243011474608,0.07661967724561691,57.965370178222656,0.0009337541414424776,0.010850152000784872,1.0204095815424807e-05,94.80940246582033,9.999999747378752e-06,0.0005754397134296596,6242.79541015625,-4331.92919921875,7598.559570312499,-34.757110595703125
29.0,315.5048217773437,6584.92333984375,5130.54052734375,-5130.54052734375,8347.673828125,-37.923385620117195,1.0,1.3073790228190774e-07,0.7081987857818604,8.0,0.9957171082496643,0.08349497616291046,-176.8727569580078,0.0013226023875176907,0.016045231372117996,1.0073781595565379e-05,-137.26622009277344,9.999999747378752e-06,0.0008356586331501603,6584.92333984375,-5130.54052734375,8347.673828125,-37.923385620117195
30.0,249.33511352539065,7017.38134765625,6110.2275390625,-6110.2275390625,9304.7578125,-41.04698944091797,1.0,1.4282792903941302e-07,0.7035168409347534,8.0,0.9990670680999757,0.09296537190675735,46.510013580322266,0.002149214269593358,0.02198643982410431,1.0033643775386736e-05,88.88919067382812,9.999999747378752e-06,0.0012251433217898011,7017.38134765625,-6110.2275390625,9304.7578125,-41.04698944091797
31.0,198.6228790283203,7532.326171875,7330.03759765625,-7330.03759765625,10510.251953125,-44.22020721435546,1.0,1.448359796540899e-07,0.6915303468704224,8.0,0.9973816871643065,0.10465236753225327,30.235315322875977,0.003138740779832005,0.029073487967252728,9.983130439650269e-06,75.51544189453125,9.999999747378752e-06,0.0014264686033129692,7532.326171875,-7330.03759765625,10510.251953125,-44.22020721435546
32.0,158.005615234375,8098.35400390625,8644.896484375,-8644.896484375,11845.5712890625,-46.8696174621582,1.0,1.0425017649140501e-07,0.6905158162117004,8.0,0.9940024614334105,0.11786440014839172,86.11001586914062,0.0043563335202634335,0.03648295253515244,9.966119250748305e-06,133.8214111328125,9.999999747378752e-06,0.0015486266929656267,8098.35400390625,-8644.896484375,11845.5712890625,-46.8696174621582
33.0,125.5580368041992,8583.150390625,9769.8076171875,-9769.8076171875,13004.599609375,-48.69945526123047,1.0,9.556745794725427e-08,0.7132366299629211,8.0,0.9854688644409181,0.12880045175552368,-149.936767578125,0.006045821122825146,0.04652534052729607,9.914148904499596e-06,-100.56932830810545,9.999999747378752e-06,0.0015958740841597319,8583.150390625,-9769.8076171875,13004.599609375,-48.69945526123047
34.0,99.73403930664062,9031.9482421875,10465.228515625,-10465.228515625,13823.787109375,-49.204376220703125,1.0,1.0121898696979768e-07,0.764168381690979,8.0,0.9911353588104248,0.13894575834274292,-146.59632873535156,0.008251459337770937,0.05787751078605652,1.005750073090894e-05,-96.86190032958984,9.999999747378752e-06,0.001391879399307072,9031.9482421875,-10465.228515625,13823.787109375,-49.204376220703125
35.0,78.78150939941406,9832.4521484375,12322.08203125,-12322.08203125,15764.2255859375,-51.41175079345703,1.0,1.0660413352070465e-07,0.7664998173713683,8.0,0.9916462898254393,0.15766233205795288,-146.6864776611328,0.01130679715424776,0.06997618079185486,1.00051547633484e-05,-94.85633087158205,9.999999747378752e-06,0.001405153190717101,9832.4521484375,-12322.08203125,15764.2255859375,-51.41175079345703
36.0,62.919464111328125,10673.7021484375,14340.4501953125,-14340.4501953125,17876.701171875,-53.33942031860352,1.0,1.3542639010211133e-07,0.7692275643348694,8.0,0.9920898079872131,0.17880287766456604,-146.99063110351562,0.015094109810888767,0.082351490855217,1.000447264232207e-05,-93.31721496582033,9.999999747378752e-06,0.0016688622999936342,10673.7021484375,-14340.4501953125,17876.701171875,-53.33942031860352
37.0,49.86701965332031,11772.4248046875,16756.591796875,-16756.591796875,20478.607421875,-54.909854888916016,1.0,1.5935782471387938e-07,0.7723814249038696,8.0,0.9927620887756349,0.204893171787262,-148.65609741210935,0.02013016678392887,0.09706202149391174,1.000677639240166e-05,-93.48176574707033,9.999999747378752e-06,0.0017846961272880435,11772.4248046875,-16756.591796875,20478.607421875,-54.909854888916016
38.0,39.72457504272461,13009.416015625,19495.162109375,-19495.162109375,23437.283203125,-56.284217834472656,1.0,1.591297547065551e-07,0.7731435894966124,8.0,0.9936115145683287,0.234550416469574,-149.00167846679688,0.02662854455411434,0.11210566014051436,1.0008556273533031e-05,-92.50679779052734,9.999999747378752e-06,0.001977322390303016,13009.416015625,-19495.162109375,23437.283203125,-56.284217834472656
39.0,31.459732055664062,14466.515625,22609.87890625,-22609.87890625,26841.8828125,-57.387603759765625,1.0,1.6232701227636426e-07,0.7749849557876587,8.0,0.9942209124565123,0.26856696605682373,-149.2705535888672,0.03487562760710716,0.12828734517097473,1.0006133379647508e-05,-91.71614837646483,9.999999747378752e-06,0.0019911588169634342,14466.515625,-22609.87890625,26841.8828125,-57.387603759765625
40.0,24.93350982666016,16186.2421875,26019.1875,-26019.1875,30642.986328125,-58.11472702026367,1.0,1.3692314837498998e-07,0.7787169814109801,8.0,0.9946497082710266,0.30655020475387573,-149.3482208251953,0.04535293206572533,0.14614123106002808,1.0004312571254557e-05,-91.10130310058592,9.999999747378752e-06,0.0018652022117748857,16186.2421875,-26019.1875,30642.986328125,-58.11472702026367
41.0,19.862287521362305,18153.107421875,29878.26171875,-29878.26171875,34960.6328125,-58.718425750732415,1.0,1.0002049322110906e-07,0.7781949043273925,8.0,0.9952557682991027,0.34981077909469604,-149.4317169189453,0.057958468794822686,0.1636991649866104,1.000609336188063e-05,-90.60799407958984,9.999999747378752e-06,0.0019172575557604432,18153.107421875,-29878.26171875,34960.6328125,-58.718425750732415
42.0,15.782828330993652,20906.642578125,34904.765625,-34904.765625,40686.98046875,-59.079975128173835,1.0,9.945580359271845e-08,0.7607278227806091,8.0,0.9954577684402464,0.40694609284400934,-149.38006591796875,0.0746445432305336,0.18121883273124692,1.0002029739553109e-05,-90.21641540527344,9.999999747378752e-06,0.00197916035540402,20906.642578125,-34904.765625,40686.98046875,-59.079975128173835
43.0,12.466754913330078,24191.015625,40674.16796875,-40674.16796875,47324.33984375,-59.25788116455078,1.0,1.4802820658132987e-07,0.7401586771011353,8.0,0.995770275592804,0.4733874499797821,-149.2206878662109,0.09404774755239487,0.19630759954452515,1.0003139323089272e-05,-89.89672088623047,9.999999747378752e-06,0.0019733952358365055,24191.015625,-40674.16796875,47324.33984375,-59.25788116455078
44.0,9.973403930664062,27542.140625,45923.23046875,-45923.23046875,53549.16015625,-59.047069549560554,1.0,1.4351026322856342e-07,0.7351988554000854,8.0,0.9963268041610717,0.5357876420021057,-148.76844787597656,0.11312603205442429,0.2086327522993088,1.0005588592321146e-05,-89.66851043701172,9.999999747378752e-06,0.0019591825548559427,27542.140625,-45923.23046875,53549.16015625,-59.047069549560554
45.0,7.878151416778564,32272.546875,52245.49609375,-52245.49609375,61409.35546875,-58.29597091674805,1.0,1.0646200365727054e-07,0.7093492150306702,8.0,0.9970228672027587,0.6145203113555908,-147.79452514648435,0.13157404959201813,0.21157260239124295,1.0006986485677771e-05,-89.45678710937501,9.999999747378752e-06,0.0017949211178347468,32272.546875,-52245.49609375,61409.35546875,-58.29597091674805
46.0,6.275100231170654,37758.0625,58675.58984375,-58675.58984375,69774.609375,-57.23849868774414,1.0,1.6778808742401455e-07,0.6622288227081299,8.0,0.9969610571861267,0.6977011561393738,-146.5670623779297,0.14255593717098236,0.20190472900867465,9.999380381486844e-06,-89.29529571533203,9.999999747378752e-06,0.001687771058641374,37758.0625,-58675.58984375,69774.609375,-57.23849868774414
47.0,5.013369083404541,43049.4453125,64306.60546875,-64306.60546875,77386.0078125,-56.20004653930664,1.0,1.249320860097214e-07,0.6218827366828918,8.0,0.9978315234184264,0.7745345234870911,-145.37521362304688,0.1497082561254501,0.19099754095077515,1.0008730896515772e-05,-89.14859008789062,9.999999747378752e-06,0.0013805049238726497,43049.4453125,-64306.60546875,77386.0078125,-56.20004653930664
