# point,freq,zreal,reflected_zimag,zimag,zmod,zphz,zsig,Idc,Vdc,ie_range,gain,vmod,vphz,vsig,vthd,imod,iphz,isig,ithd,zreal_drift,zimag_drift,zmod_drift,zphz_drift
0.0,100019.53125,29043.29296875,8420.05078125,-8420.05078125,30239.216796875,-16.1676025390625,1.0,2.9252166200421925e-07,0.8560855388641356,8.0,0.014825197868049145,0.042170856148004525,44.70607376098633,0.0027201692573726177,0.06516606360673904,1.3945752925792476e-06,60.87368011474609,9.999999747378752e-06,0.1782323122024536,29043.29296875,-8420.05078125,30239.216796875,-16.1676025390625
1.0,79511.71875,30308.474609375,7629.91748046875,-7629.91748046875,31254.107421875,-14.130146026611328,1.0,2.727620938003384e-07,0.8852269649505614,8.0,0.018153581768274307,0.053371679037809365,-73.82328033447266,0.0054621631279587754,0.05915554612874985,1.707669298411929e-06,-59.69313430786133,9.999999747378752e-06,0.0749410092830658,30308.474609375,-7629.91748046875,31254.107421875,-14.130146026611328
2.0,63105.46875,31162.69140625,6711.7451171875,-6711.7451171875,31877.279296875,-12.154556274414062,1.0,2.4757969185884576e-07,0.8752288818359374,8.0,0.022412655875086784,0.06720723956823349,-42.79375457763672,0.004798291716724633,0.07005887478590012,2.108311491610948e-06,-30.639198303222656,9.999999747378752e-06,0.1398370862007141,31162.69140625,-6711.7451171875,31877.279296875,-12.154556274414062
3.0,50214.84375,31908.47265625,6109.0517578125,-6109.0517578125,32488.015625,-10.838433265686035,1.0,2.193089869706455e-07,0.9033893942832946,8.0,0.02759908512234688,0.08434499800205231,-83.14111328125,0.00658187922090292,0.07714971899986267,2.596188096504193e-06,-72.30268096923827,9.999999747378752e-06,0.09041275829076768,31908.47265625,-6109.0517578125,32488.015625,-10.838433265686035
4.0,39902.34375,32461.90625,5459.90283203125,-5459.90283203125,32917.8671875,-9.547454833984377,1.0,2.1918116033248225e-07,0.9163275957107545,8.0,0.0342249758541584,0.10597813129425047,27.835832595825195,0.009646094404160976,0.0758802220225334,3.219471636839444e-06,37.38328552246094,9.999999747378752e-06,0.08690781146287918,32461.90625,-5459.90283203125,32917.8671875,-9.547454833984377
5.0,31699.21875,33088.359375,5030.18798828125,-5030.18798828125,33468.52734375,-8.644083976745605,1.0,2.0263770750261759e-07,0.9308785200119017,8.0,0.042325764894485474,0.1332547962665558,-109.84657287597656,0.010966409929096699,0.08113981783390045,3.98149586544605e-06,-101.2024917602539,9.999999747378752e-06,0.09079543501138689,33088.359375,-5030.18798828125,33468.52734375,-8.644083976745605
6.0,25136.71875,33542.515625,4528.4609375,-4528.4609375,33846.82421875,-7.688819408416749,1.0,2.1326576415958698e-07,0.9013228416442872,8.0,0.05275166407227516,0.16795600950717926,141.1834716796875,0.013928328640758991,0.08144225925207138,4.962238563166466e-06,148.87228393554688,9.999999747378752e-06,0.08887942135334016,33542.515625,-4528.4609375,33846.82421875,-7.688819408416749
7.0,19980.46875,33913.92578125,4240.6083984375,-4240.6083984375,34178.01953125,-7.127291202545166,1.0,1.8654976940979398e-07,0.8880111575126648,8.0,0.06568525731563568,0.2111816853284836,176.79971313476562,0.016290733590722084,0.07621292769908905,6.178874173201621e-06,-176.072998046875,9.999999747378752e-06,0.09531041234731674,33913.92578125,-4240.6083984375,34178.01953125,-7.127291202545166
8.0,15878.90625,34306.4296875,3963.413818359375,-3963.413818359375,34534.6171875,-6.5901522636413565,1.0,1.9463558942334203e-07,0.9161942601203918,8.0,0.08175511658191681,0.2655896246433258,-8.875102043151854,0.021635217592120167,0.08033016324043275,7.69053258409258e-06,-2.284950494766236,9.999999747378752e-06,0.08596497774124146,34306.4296875,-3963.413818359375,34534.6171875,-6.5901522636413565
9.0,12597.65625,34628.3203125,3759.622314453125,-3759.622314453125,34831.8125,-6.196374416351318,1.0,2.0137390777108521e-07,0.9168817400932312,8.0,0.10211214423179626,0.33457615971565247,-122.00420379638672,0.027074517682194706,0.07989317923784256,9.605475497664884e-06,-115.80782318115234,9.999999747378752e-06,0.0854404866695404,34628.3203125,-3759.622314453125,34831.8125,-6.196374416351318
10.0,10019.53125,34978.4921875,3644.0864257812495,-3644.0864257812495,35167.80078125,-5.947662830352783,1.0,2.136005150532583e-07,0.9543334841728209,8.0,0.12705110013484955,0.4203055202960968,97.62660980224608,0.03328797593712807,0.0782528668642044,1.1951430678891484e-05,103.57426452636717,1.05837432329281e-06,0.08715774863958359,34978.4921875,-3644.0864257812495,35167.80078125,-5.947662830352783
11.0,7928.24072265625,35333.5234375,3597.280517578125,-3597.280517578125,35516.16796875,-5.8132123947143555,1.0,2.1204203903835153e-07,0.9540889263153075,8.0,0.1866754740476608,0.5218371152877808,72.07781219482422,0.04012336581945419,0.07596858590841293,1.4692944205307867e-05,77.89102935791014,1.1550969247764442e-06,0.07765566557645796,35333.5234375,-3597.280517578125,35516.16796875,-5.8132123947143555
12.0,6307.87060546875,35657.0390625,3689.150634765625,-3689.150634765625,35847.375,-5.9069223403930655,1.0,1.8361328102400878e-07,0.9290105700492858,8.0,0.30958816409111023,0.5945035219192505,-8.94697570800781,0.03279783204197884,0.0544927604496479,1.6584297554800287e-05,-3.0400536060333248,9.72652287600795e-07,0.05786528810858727,35657.0390625,-3689.150634765625,35847.375,-5.9069223403930655
13.0,5034.72216796875,36068.37109375,3978.3637695312495,-3978.3637695312495,36287.11328125,-6.294316291809082,1.0,1.3541360033286765e-07,0.893921673297882,8.0,0.47067746520042414,0.5516853928565979,-5.456646442413329,0.002965772291645408,0.005054599605500697,1.5203341718006412e-05,0.8376704454421997,9.999999747378752e-06,0.0057148984633386135,36068.37109375,-3978.3637695312495,36287.11328125,-6.294316291809082
14.0,3993.0556640625,36508.19140625,4195.68603515625,-4195.68603515625,36748.49609375,-6.555927753448486,1.0,1.2524098735866573e-07,0.8878204822540283,8.0,0.5761034488677979,0.4497970938682556,20.35854148864746,0.0010176008800044656,0.0005405063275247812,1.2239877833053468e-05,26.91447067260742,9.999999747378752e-06,0.002410294022411108,36508.19140625,-4195.68603515625,36748.49609375,-6.555927753448486
15.0,3144.054931640625,36965.609375,4439.6865234375,-4439.6865234375,37231.265625,-6.848599910736084,1.0,1.2620289169262833e-07,0.8936461210250854,8.0,0.6595866680145264,0.4262644946575165,68.43367004394531,0.0008056640508584678,0.0018486258340999484,1.1449101293692364e-05,75.28226470947266,9.999999747378752e-06,0.003019586205482483,36965.609375,-4439.6865234375,37231.265625,-6.848599910736084
16.0,2519.53125,37414.8515625,4741.4970703125,-4741.4970703125,37714.09375,-7.222460746765136,1.0,1.2029153140247217e-07,0.8962621688842772,8.0,0.7278453707695006,0.41617017984390253,2.723154306411743,0.0011020995443686843,0.002627529436722398,1.1034871022275183e-05,9.945615768432615,9.999999747378752e-06,0.0035711885429918766,37414.8515625,-4741.4970703125,37714.09375,-7.222460746765136
17.0,2000.76220703125,37936.94921875,5170.70263671875,-5170.70263671875,38287.703125,-7.761432647705078,1.0,1.228023336352635e-07,0.8905311822891235,8.0,0.7895925045013428,0.4153585731983185,32.607025146484375,0.0013719312846660614,0.002711521228775382,1.0848354577319697e-05,40.36846160888672,9.999999747378752e-06,0.0043888879008591175,37936.94921875,-5170.70263671875,38287.703125,-7.761432647705078
18.0,1580.6685791015625,38532.83984375,5676.22509765625,-5676.22509765625,38948.67578125,-8.379902839660643,1.0,1.0541087647197857e-07,0.8889519572257996,8.0,0.8400231003761292,0.4143629372119904,94.3740463256836,0.0017851671436801553,0.004049868788570166,1.0638691492204089e-05,102.75394439697264,9.999999747378752e-06,0.0047651263885200015,38532.83984375,-5676.22509765625,38948.67578125,-8.379902839660643
19.0,1253.6336669921875,39231.796875,6340.091796875,-6340.091796875,39740.79296875,-9.179971694946287,1.0,9.872695017065779e-08,0.8757303357124328,8.0,0.8768945336341859,0.4148514568805695,132.7789306640625,0.002348335925489664,0.005661005154252052,1.0438933713885488e-05,141.95889282226562,9.999999747378752e-06,0.005052076652646065,39231.796875,-6340.091796875,39740.79296875,-9.179971694946287
20.0,1000.7022705078124,39976.3671875,7069.56298828125,-7069.56298828125,40596.66015625,-10.028702735900877,1.0,9.717818727494887e-08,0.8650700449943542,8.0,0.9065271615982056,0.4196853041648865,17.22911262512207,0.0033121164888143535,0.0076419347897171966,1.0337927051295992e-05,27.257816314697266,9.999999747378752e-06,0.006491576321423054,39976.3671875,-7069.56298828125,40596.66015625,-10.028702735900877
21.0,790.028076171875,40813.66015625,7869.044921875,-7869.044921875,41565.33203125,-10.9129581451416,1.0,9.385241384052279e-08,0.8627650141716003,8.0,0.9287881851196288,0.42586019635200495,-140.15554809570312,0.00433321762830019,0.009899999015033245,1.0245563316857442e-05,-129.2425994873047,9.999999747378752e-06,0.005527993198484182,40813.66015625,-7869.044921875,41565.33203125,-10.9129581451416
22.0,628.8109741210938,41703.7578125,8743.3505859375,-8743.3505859375,42610.44140625,-11.840779304504395,1.0,1.0413604911718721e-07,0.8606513738632202,8.0,0.9443857073783873,0.4332601428031921,77.85073852539062,0.005503798369318247,0.01235540397465229,1.0167934306082316e-05,89.69152069091795,9.999999747378752e-06,0.005681490525603294,41703.7578125,-8743.3505859375,42610.44140625,-11.840779304504395
23.0,502.2321472167969,41257.2109375,11272.337890625,-11272.337890625,42769.41796875,-15.281447410583496,1.0,1.0266539618442039e-07,0.8683016300201416,8.0,0.9282643795013428,0.4203931391239166,152.9683380126953,0.004331270698457956,0.009859360754489897,9.829293048824184e-06,168.24977111816406,9.999999747378752e-06,0.0038921707309782505,41257.2109375,-11272.337890625,42769.41796875,-15.281447410583496
24.0,400.1524353027344,42631.9375,12066.3154296875,-12066.3154296875,44306.63671875,-15.803350448608398,1.0,1.0144606221729192e-07,0.8711479306221008,8.0,0.9579253792762755,0.45722374320030207,110.56239318847656,0.006843847688287497,0.014664667658507824,1.0319531611457933e-05,126.36573791503906,9.999999747378752e-06,0.00453981151804328,42631.9375,-12066.3154296875,44306.63671875,-15.803350448608398
25.0,315.5048217773437,44075.26953125,13019.5595703125,-13019.5595703125,45958.00390625,-16.456811904907227,1.0,1.0904940950240417e-07,0.8757423162460326,8.0,0.9726023077964783,0.4666215777397156,-158.10275268554688,0.009214428253471853,0.019443504512310028,1.0153215953323524e-05,-141.64593505859375,9.999999747378752e-06,0.00488994549959898,44075.26953125,-13019.5595703125,45958.00390625,-16.456811904907227
26.0,252.01612854003903,45658.0,14329.244140625,-14329.244140625,47853.73828125,-17.423871994018555,1.0,1.0419808660344643e-07,0.8611303567886353,8.0,0.9783375263214112,0.48135924339294434,88.26607513427734,0.011599915102124214,0.02378475479781628,1.00589677458629e-05,105.68994903564452,9.999999747378752e-06,0.004914843942970037,45658.0,-14329.244140625,47853.73828125,-17.423871994018555
27.0,200.3205108642578,47282.55859375,15752.4931640625,-15752.4931640625,49837.55078125,-18.425832748413082,1.0,1.0161548402720655e-07,0.8537777662277221,8.0,0.9814645648002625,0.4999684393405914,66.4305648803711,0.014180338010191916,0.028021255508065224,1.003196302917786e-05,84.85639190673827,9.999999747378752e-06,0.004846006631851196,47282.55859375,-15752.4931640625,49837.55078125,-18.425832748413082
28.0,158.005615234375,49427.76171875,17903.3828125,-17903.3828125,52570.28515625,-19.91105079650879,1.0,1.053261371453118e-07,0.8209965229034423,8.0,0.9817451238632202,0.5258530974388123,111.64444732666016,0.01715145818889141,0.032248303294181824,1.0002858289226424e-05,131.5554962158203,9.999999747378752e-06,0.004723226651549339,49427.76171875,-17903.3828125,52570.28515625,-19.91105079650879
29.0,125.5580368041992,51169.375,19629.7734375,-19629.7734375,54805.41015625,-20.987985610961918,1.0,1.0103832437380333e-07,0.8242387771606445,8.0,0.9760767221450803,0.5448897480964661,-123.79220581054688,0.02047840505838394,0.0371558889746666,9.942262295226099e-06,-102.8042221069336,9.999999747378752e-06,0.0045341108925640574,51169.375,-19629.7734375,54805.41015625,-20.987985610961918
30.0,99.73403930664062,52802.9453125,21276.375,-21276.375,56928.33203125,-21.946435928344727,1.0,1.020656910100115e-07,0.8431041836738585,8.0,0.9553281664848328,0.5571820139884949,52.85837936401367,0.023891935124993324,0.042348161339759834,9.787429007701576e-06,74.80481719970702,9.999999747378752e-06,0.004200913477689028,52802.9453125,-21276.375,56928.33203125,-21.946435928344727
31.0,79.44915008544922,54056.60546875,22030.615234375,-22030.615234375,58373.4921875,-22.1732120513916,1.0,1.0139352468740981e-07,0.8861731886863708,8.0,0.9849039912223818,0.6018067002296448,-118.80313873291016,0.03212355077266693,0.05210648849606513,1.0309588105883448e-05,-96.62992858886719,9.999999747378752e-06,0.003980935551226139,54056.60546875,-22030.615234375,58373.4921875,-22.1732120513916
32.0,62.919464111328125,56631.25390625,25040.951171875,-25040.951171875,61920.5,-23.853837966918945,1.0,9.772288933618256e-08,0.8681013584136963,8.0,0.9864298105239869,0.6201642751693726,-118.58505249023436,0.03720678761601448,0.058554559946060174,1.0015492080128752e-05,-94.73121643066406,9.999999747378752e-06,0.003867888590320945,56631.25390625,-25040.951171875,61920.5,-23.853837966918945
33.0,49.86701965332031,59395.93359375,28355.828125,-28355.828125,65817.3984375,-25.51997375488281,1.0,9.64898916322454e-08,0.8456658720970154,8.0,0.9879697561264038,0.6592015027999878,-120.18875122070312,0.04467383399605751,0.06693870574235916,1.0015611223934684e-05,-94.66877746582033,9.999999747378752e-06,0.0037004151381552215,59395.93359375,-28355.828125,65817.3984375,-25.51997375488281
34.0,39.72457504272461,62446.609375,32319.623046875,-32319.623046875,70314.5625,-27.36409950256348,1.0,9.364611486262221e-08,0.8178577423095702,8.0,0.9893893003463744,0.7041559219360352,-120.85038757324217,0.054809276014566415,0.07689725607633591,1.001436794467736e-05,-93.48628997802734,9.999999747378752e-06,0.003585463156923652,62446.609375,-32319.623046875,70314.5625,-27.36409950256348
35.0,31.672296524047848,65893.3984375,37054.72265625,-37054.72265625,75597.5703125,-29.350942611694332,1.0,9.443596127312048e-08,0.7821411490440368,8.0,0.9903150796890258,0.756683051586151,-121.8880615234375,0.06685947626829147,0.08729306608438493,1.0009357538365292e-05,-92.53712463378906,9.999999747378752e-06,0.0035810580011457205,65893.3984375,-37054.72265625,75597.5703125,-29.350942611694332
36.0,25.201612472534176,69613.6640625,42006.7265625,-42006.7265625,81305.765625,-31.107891082763672,1.0,9.275747459014384e-08,0.7497945427894592,8.0,0.9914785027503968,0.8140128254890442,-122.89508819580078,0.07986716926097868,0.09693337231874466,1.0011747690441553e-05,-91.78720092773438,9.999999747378752e-06,0.0035106223076581955,69613.6640625,-42006.7265625,81305.765625,-31.107891082763672
37.0,20.03205108642578,73728.5546875,47444.25390625,-47444.25390625,87674.7265625,-32.7612419128418,1.0,9.14458908596316e-08,0.7061163187026978,8.0,0.9923467636108398,0.8775150179862976,-123.94031524658205,0.09106627851724625,0.1025358960032463,1.0008757271862123e-05,-91.17906951904298,9.999999747378752e-06,0.003121607471257448,73728.5546875,-47444.25390625,87674.7265625,-32.7612419128418
38.0,15.782828330993652,78281.5625,52697.92578125,-52697.92578125,94366.703125,-33.94782257080078,1.0,8.90453577540029e-08,0.6601030230522156,8.0,0.9933490157127379,0.9446200728416442,-124.61979675292967,0.09940714389085768,0.10398468375205992,1.001009968604194e-05,-90.67197418212889,9.999999747378752e-06,0.0027313800528645515,78281.5625,-52697.92578125,94366.703125,-33.94782257080078
39.0,12.600806236267088,82746.3359375,57142.296875,-57142.296875,100559.4296875,-34.62787246704101,1.0,8.916708083006597e-08,0.6169655919075012,8.0,0.9945040345191956,1.0067634582519531,-124.9178466796875,0.10450760275125504,0.1025743782520294,1.0011627637140919e-05,-90.28998565673827,9.999999747378752e-06,0.002285429975017905,82746.3359375,-57142.296875,100559.4296875,-34.62787246704101
40.0,9.973403930664062,87333.421875,61386.36328125,-61386.36328125,106749.296875,-35.10325241088867,1.0,8.920064686890326e-08,0.5757725834846497,8.0,0.9953315258026125,1.0683811902999876,-125.06214141845705,0.10916419327259064,0.10096898674964903,1.0008320714405272e-05,-89.9588851928711,9.999999747378752e-06,0.0021375364158302546,87333.421875,-61386.36328125,106749.296875,-35.10325241088867
41.0,7.971938610076904,91428.2734375,65384.265625,-65384.265625,112402.09375,-35.57018280029297,1.0,9.751263263524379e-08,0.5413948297500609,8.0,0.9960682988166808,1.1248530149459839,-125.2753448486328,0.11387677490711212,0.10003921389579772,1.000740212475648e-05,-89.70516204833984,9.999999747378752e-06,0.0019533701706677675,91428.2734375,-65384.265625,112402.09375,-35.57018280029297
42.0,6.275100231170654,95453.390625,69739.6484375,-69739.6484375,118215.7734375,-36.15241241455078,1.0,9.583395410572848e-08,0.5086190104484558,8.0,0.9969285130500792,1.183178663253784,-125.64151000976562,0.11977586150169373,0.10003387182950972,1.0008636309066787e-05,-89.48909759521484,9.999999747378752e-06,0.0017625602195039392,95453.390625,-69739.6484375,118215.7734375,-36.15241241455078
43.0,5.013369083404541,99010.8984375,74137.265625,-74137.265625,123691.1171875,-36.825092315673835,1.0,9.651315480141422e-08,0.4740001857280731,8.0,0.9974549412727358,1.237564206123352,-126.143798828125,0.1246047168970108,0.09949281811714172,1.0005280273617244e-05,-89.31871032714844,9.999999747378752e-06,0.0014731143601238728,99010.8984375,-74137.265625,123691.1171875,-36.825092315673835
44.0,3.985969305038452,102503.7421875,78842.28125,-78842.28125,129317.9140625,-37.56622314453125,1.0,1.0515314841086365e-07,0.43805173039436335,8.0,0.9979966878890992,1.2938815355300903,-126.74962615966795,0.1298292577266693,0.0991438329219818,1.000543124973774e-05,-89.1834030151367,9.999999747378752e-06,0.001260726829059422,102503.7421875,-78842.28125,129317.9140625,-37.56622314453125
45.0,3.1758129596710205,105923.3359375,83820.875,-83820.875,135076.609375,-38.35581207275391,1.0,1.1397221300057937e-07,0.4013603627681732,8.0,0.998513400554657,1.3514655828475952,-127.4241714477539,0.1358581781387329,0.09930829703807831,1.0005177500715943e-05,-89.06836700439453,9.999999747378752e-06,0.0011262580519542098,105923.3359375,-83820.875,135076.609375,-38.35581207275391
46.0,2.516103029251098,108751.640625,90120.34375,-90120.34375,141239.5,-39.64787673950195,1.0,9.76088401216657e-08,0.35418421030044556,8.0,0.9675146341323853,1.3685473203659055,-172.5739593505859,0.062061741948127754,0.04480647668242455,9.689551006886177e-06,-132.9261016845703,9.999999747378752e-06,0.0003746186848729849,108751.640625,-90120.34375,141239.5,-39.64787673950195
47.0,1.9955300092697144,111699.6875,94212.8203125,-94212.8203125,146126.234375,-40.14587402343751,1.0,8.574770760105822e-08,0.31073299050331116,8.0,0.9864454269409181,1.4898537397384644,-163.1563262939453,0.0945957899093628,0.06274678558111191,1.019566389004467e-05,-123.0104522705078,9.999999747378752e-06,0.00046203550300560886,111699.6875,-94212.8203125,146126.234375,-40.14587402343751
48.0,1.5879064798355103,116675.5546875,101093.0625,-101093.0625,154379.375,-40.90716171264648,1.0,9.639086329116253e-08,0.2834921181201935,8.0,0.994109272956848,1.555787682533264,-156.4687957763672,0.13348042964935303,0.08478568494319916,1.00776915132883e-05,-115.5616226196289,9.999999747378752e-06,0.0005087267491035163,116675.5546875,-101093.0625,154379.375,-40.90716171264648
49.0,1.258051514625549,121419.84375,106362.1640625,-106362.1640625,161417.75,-41.21792602539063,1.0,1.0848884812730831e-07,0.27526530623435974,8.0,0.9975032806396483,1.6196883916854858,-150.94467163085935,0.17390291392803192,0.10609804093837738,1.0034141268988604e-05,-109.72674560546876,9.999999747378752e-06,0.0005793910822831094,121419.84375,-106362.1640625,161417.75,-41.21792602539063
