# point,freq,zreal,reflected_zimag,zimag,zmod,zphz,zsig,Idc,Vdc,ie_range,gain,vmod,vphz,vsig,vthd,imod,iphz,isig,ithd,zreal_drift,zimag_drift,zmod_drift,zphz_drift
0.0,100019.53125,10559.0087890625,975.96875,-975.96875,10604.0166015625,-5.280841827392577,1.0,2.89887111648568e-07,0.3465204238891601,8.0,0.03999467194080353,0.039894592016935355,-145.80514526367188,0.0018497257260605689,0.04497484862804413,3.7622148738591928e-06,-140.52430725097656,9.999999747378752e-06,0.06872653216123581,10559.0087890625,-975.96875,10604.0166015625,-5.280841827392577
1.0,79511.71875,10703.30078125,992.8475341796877,-992.8475341796877,10749.2509765625,-5.299641132354736,1.0,2.886703498461429e-07,0.3824720978736877,8.0,0.049896549433469765,0.05045336857438088,-126.75006103515624,0.0036239465698599815,0.05951668694615364,4.693663868238217e-06,-121.45040893554688,9.999999747378752e-06,0.06150558963418007,10703.30078125,-992.8475341796877,10749.2509765625,-5.299641132354736
2.0,63105.46875,10820.26953125,1022.1151733398436,-1022.1151733398436,10868.4384765625,-5.396318435668944,1.0,2.7567429583541525e-07,0.39287903904914856,8.0,0.062139403074979775,0.06352954357862473,-73.51080322265625,0.004516324494034052,0.06988057494163513,5.845323357789312e-06,-68.1144790649414,9.999999747378752e-06,0.07997034490108491,10820.26953125,-1022.1151733398436,10868.4384765625,-5.396318435668944
3.0,50214.84375,11006.576171875,1045.174072265625,-1045.174072265625,11056.08984375,-5.424487590789794,1.0,2.8044487976330856e-07,0.41903102397918707,8.0,0.07667221128940582,0.07974087446928024,167.65968322753906,0.00621971907094121,0.07683933526277542,7.212394393718568e-06,173.08416748046875,9.999999747378752e-06,0.08152016997337341,11006.576171875,-1045.174072265625,11056.08984375,-5.424487590789794
4.0,39902.34375,11150.80859375,1107.04443359375,-1107.04443359375,11205.626953125,-5.669705867767334,1.0,2.739526223649591e-07,0.4246311783790588,8.0,0.09505389630794525,0.10019534081220625,9.461568832397461,0.008052186109125614,0.0769118219614029,8.9415207185084e-06,15.131275177001951,9.999999747378752e-06,0.08370956033468246,11150.80859375,-1107.04443359375,11205.626953125,-5.669705867767334
5.0,31699.21875,11316.958984375,1138.87841796875,-1138.87841796875,11374.1201171875,-5.746594429016112,1.0,2.5781349677345133e-07,0.44232842326164246,8.0,0.11773061007261276,0.12596464157104492,-107.9950714111328,0.010266679339110851,0.0804634690284729,1.1074671419919468e-05,-102.24848175048828,9.73461624198535e-07,0.08494193106889725,11316.958984375,-1138.87841796875,11374.1201171875,-5.746594429016112
6.0,25136.71875,11466.869140625,1195.81494140625,-1195.81494140625,11529.052734375,-5.953533172607422,1.0,2.5205213205481414e-07,0.45228150486946106,8.0,0.16164247691631317,0.1582922786474228,100.78501892089844,0.012691969983279703,0.07914835959672928,1.3729860256717075e-05,106.73855590820312,1.1967562159043155e-06,0.08465972542762755,11466.869140625,-1195.81494140625,11529.052734375,-5.953533172607422
7.0,19980.46875,11623.041015625,1272.819580078125,-1272.819580078125,11692.525390625,-6.249462127685546,1.0,1.7540347130307055e-07,0.44415116310119623,8.0,0.2565845251083374,0.18560227751731873,167.96240234375,0.011636504903435709,0.06193970516324043,1.5873582015046846e-05,174.21185302734375,1.1141282811877316e-06,0.06918983906507492,11623.041015625,-1272.819580078125,11692.525390625,-6.249462127685546
8.0,15878.90625,11796.443359375,1369.5863037109375,-1369.5863037109375,11875.6826171875,-6.622483730316161,1.0,1.2586644970724592e-07,0.4260776340961456,8.0,0.42073819041252136,0.1947332322597504,-10.80850601196289,0.005481427535414696,0.02770987153053284,1.6397645595134236e-05,-4.186021327972412,9.999999747378752e-06,0.02968814224004745,11796.443359375,-1369.5863037109375,11875.6826171875,-6.622483730316161
9.0,12597.65625,11987.2109375,1462.1131591796875,-1462.1131591796875,12076.05078125,-6.954173564910889,1.0,1.0004593775647665e-07,0.4094907343387604,8.0,0.5486903190612793,0.15748539566993713,-76.82935333251953,0.000743206706829369,0.001137355575338006,1.30411335703684e-05,-69.87517547607422,9.999999747378752e-06,0.0010876610176637769,11987.2109375,-1462.1131591796875,12076.05078125,-6.954173564910889
10.0,10019.53125,12159.810546875,1607.5599365234375,-1607.5599365234375,12265.6123046875,-7.530985355377196,1.0,9.896980657231325e-08,0.4004706144332886,8.0,0.6255790591239929,0.1398441046476364,108.39292907714844,0.0005521573475562036,0.003901463933289051,1.1401314623071812e-05,115.92391204833984,9.999999747378752e-06,0.017907781526446342,12159.810546875,-1607.5599365234375,12265.6123046875,-7.530985355377196
11.0,7928.24072265625,12357.451171875,1764.9283447265625,-1764.9283447265625,12482.8505859375,-8.128185272216797,1.0,9.326750216587243e-08,0.4032953679561615,8.0,0.6983128786087036,0.13934189081192017,77.7853012084961,0.0005058191018179059,0.0011264161439612508,1.1162664122821296e-05,85.91349029541014,9.999999747378752e-06,0.011829869821667671,12357.451171875,-1764.9283447265625,12482.8505859375,-8.128185272216797
12.0,6307.87060546875,12577.6123046875,1950.8741455078125,-1950.8741455078125,12728.009765625,-8.816713333129881,1.0,1.1432980784320534e-07,0.40437668561935425,8.0,0.7593536376953125,0.13840587437152863,10.493803977966309,0.0005110942875035107,0.0006779307150281966,1.0874116924242117e-05,19.310518264770508,9.999999747378752e-06,0.0021723199170082808,12577.6123046875,-1950.8741455078125,12728.009765625,-8.816713333129881
13.0,5034.72216796875,12826.9345703125,2177.40283203125,-2177.40283203125,13010.431640625,-9.634257316589357,1.0,1.0657804239144753e-07,0.39913064241409296,8.0,0.785749614238739,0.13462689518928528,19.68722343444824,0.0006092764087952673,0.0005383536336012185,1.034761135088047e-05,29.32147979736328,9.999999747378752e-06,0.000796724169049412,12826.9345703125,-2177.40283203125,13010.431640625,-9.634257316589357
14.0,3993.0556640625,13072.8349609375,2404.802001953125,-2404.802001953125,13292.181640625,-10.423266410827637,1.0,1.1051677262230442e-07,0.40641355514526367,8.0,0.841352105140686,0.1423278450965881,39.64564895629882,0.000615578202996403,0.00042502209544181824,1.0707636647566687e-05,50.06891632080078,9.999999747378752e-06,0.0007600554963573812,13072.8349609375,-2404.802001953125,13292.181640625,-10.423266410827637
15.0,3144.054931640625,13359.1630859375,2695.459228515625,-2695.459228515625,13628.3798828125,-11.407334327697752,1.0,1.2230978541083462e-07,0.4093807637691498,8.0,0.8818104267120361,0.1428373157978058,74.89468383789062,0.0003644979442469776,0.002802889794111252,1.0480872333573645e-05,86.30201721191406,9.999999747378752e-06,0.0008180825971066951,13359.1630859375,-2695.459228515625,13628.3798828125,-11.407334327697752
16.0,2519.53125,13657.642578125,3008.693359375,-3008.693359375,13985.115234375,-12.423471450805664,1.0,1.247813088411931e-07,0.4108967781066895,8.0,0.9098715782165528,0.14430151879787445,17.343828201293945,0.0006454507238231599,0.004316654521971941,1.031822193908738e-05,29.76729965209961,9.999999747378752e-06,0.0010200527030974627,13657.642578125,-3008.693359375,13985.115234375,-12.423471450805664
17.0,2000.76220703125,13996.8447265625,3388.46044921875,-3388.46044921875,14401.1572265625,-13.608767509460447,1.0,1.2177190455986422e-07,0.4149085581302642,8.0,0.929377019405365,0.1470988392829895,43.8929557800293,0.000497861357871443,0.0009495822014287113,1.0214375834038947e-05,57.50172424316406,9.999999747378752e-06,0.0009756303043104707,13996.8447265625,-3388.46044921875,14401.1572265625,-13.608767509460447
18.0,1580.6685791015625,14380.783203125,3824.6235351562495,-3824.6235351562495,14880.681640625,-14.893277168273924,1.0,1.2777766755789346e-07,0.4217531085014343,8.0,0.9448117613792419,0.15127815306186676,103.676513671875,0.00018448373884893957,0.0011754423612728715,1.0166076208406592e-05,118.56979370117188,9.999999747378752e-06,0.0011490191100165248,14380.783203125,-3824.6235351562495,14880.681640625,-14.893277168273924
19.0,1253.6336669921875,14811.5986328125,4328.62353515625,-4328.62353515625,15431.1513671875,-16.2907657623291,1.0,1.236694657791304e-07,0.42762246727943426,8.0,0.9564127922058104,0.15620626509189603,139.70013427734375,6.413049413822591e-05,0.0015524649061262608,1.0122786989086308e-05,155.9908905029297,9.999999747378752e-06,0.0011778477346524596,14811.5986328125,-4328.62353515625,15431.1513671875,-16.2907657623291
20.0,1000.7022705078124,15280.306640625,4891.8388671875,-4891.8388671875,16044.2470703125,-17.751951217651367,1.0,1.26457138094338e-07,0.43327087163925165,8.0,0.9629974961280823,0.16154707968235016,19.913089752197266,0.0005314756999723613,0.0020890296436846256,1.006884758680826e-05,37.66504287719727,9.999999747378752e-06,0.0029672905802726746,15280.306640625,-4891.8388671875,16044.2470703125,-17.751951217651367
21.0,790.028076171875,15838.5322265625,5571.3359375,-5571.3359375,16789.84375,-19.379749298095703,1.0,1.177516963934977e-07,0.43474635481834406,8.0,0.9708969593048096,0.16927571594715118,-141.019287109375,0.0006272323662415147,0.002329557202756405,1.0082029803015756e-05,-121.6395263671875,9.999999747378752e-06,0.0012543689226731656,15838.5322265625,-5571.3359375,16789.84375,-19.379749298095703
22.0,628.8109741210938,16463.236328125,6345.3125,-6345.3125,17643.7265625,-21.077819824218754,1.0,1.0775521275263601e-07,0.4333231151103973,8.0,0.9760519266128541,0.17737407982349396,73.88236999511719,0.0006804256699979305,0.002758345799520612,1.0053095138573552e-05,94.9601821899414,9.999999747378752e-06,0.0012955472338944671,16463.236328125,-6345.3125,17643.7265625,-21.077819824218754
23.0,502.2321472167969,16465.908203125,7774.674804687501,-7774.674804687501,18209.111328125,-25.275182723999023,1.0,1.0979933762200746e-07,0.43935480713844294,8.0,0.9494816660881041,0.1771341860294342,148.1700897216797,0.0004943470703437924,0.002202274277806282,9.727777978696393e-06,173.44528198242188,9.999999747378752e-06,0.0003931387618649751,16465.908203125,-7774.674804687501,18209.111328125,-25.275182723999023
24.0,400.1524353027344,17396.591796875,8681.2109375,-8681.2109375,19442.345703125,-26.520017623901367,1.0,1.0489576141026193e-07,0.4439212083816528,8.0,0.9735078811645507,0.19934326410293576,104.68343353271484,0.0009053717367351056,0.003852926194667816,1.0253045729768928e-05,131.20346069335935,9.999999747378752e-06,0.0006058262079022825,17396.591796875,-8681.2109375,19442.345703125,-26.520017623901367
25.0,315.5048217773437,18467.052734375,9807.0322265625,-9807.0322265625,20909.564453125,-27.970787048339844,1.0,1.0775174530408549e-07,0.43983235955238337,8.0,0.9847352504730223,0.2115071266889572,-164.97328186035156,0.001236759591847658,0.005638382397592068,1.0115329132531768e-05,-137.0024871826172,9.999999747378752e-06,0.000864059489686042,18467.052734375,-9807.0322265625,20909.564453125,-27.970787048339844
26.0,252.01612854003903,19588.19921875,11057.9599609375,-11057.9599609375,22493.91015625,-29.44566345214844,1.0,1.0554106211202453e-07,0.43254220485687256,8.0,0.9879665970802307,0.2256772220134735,79.12035369873047,0.0018347293371334672,0.007976490072906017,1.0032814316218717e-05,108.5660171508789,9.999999747378752e-06,0.0011137168621644376,19588.19921875,-11057.9599609375,22493.91015625,-29.44566345214844
27.0,200.3205108642578,20898.66796875,12607.521484375,-12607.521484375,24407.046875,-31.10128402709961,1.0,1.066889367962176e-07,0.4161707758903504,8.0,0.9900501370429992,0.24458520114421844,55.73126220703125,0.002751121995970607,0.011013571172952652,1.0021089110523462e-05,86.83254241943358,9.999999747378752e-06,0.0012929474469274282,20898.66796875,-12607.521484375,24407.046875,-31.10128402709961
28.0,158.005615234375,22419.091796875,14444.5703125,-14444.5703125,26669.482421875,-32.79359436035156,1.0,1.0943429629151069e-07,0.4001989364624024,8.0,0.9881211519241331,0.26617521047592163,100.28903198242188,0.003943464253097773,0.014596803113818169,9.980516551877374e-06,133.08262634277344,9.999999747378752e-06,0.0015250915894284844,22419.091796875,-14444.5703125,26669.482421875,-32.79359436035156
29.0,125.5580368041992,23961.4921875,16218.29296875,-16218.29296875,28934.16796875,-34.092037200927734,1.0,1.074777244980396e-07,0.40358117222785944,8.0,0.979086995124817,0.2866962850093841,-135.79505920410156,0.0056912824511528015,0.019634613767266277,9.908571882988326e-06,-101.70303344726562,9.999999747378752e-06,0.0019001447362825277,23961.4921875,-16218.29296875,28934.16796875,-34.092037200927734
30.0,99.73403930664062,25930.515625,18683.494140625,-18683.494140625,31960.359375,-35.7735595703125,1.0,1.0741229061750345e-07,0.37788084149360657,8.0,0.9598155617713928,0.3133127987384796,40.11310958862305,0.007915887981653214,0.024842040613293648,9.803169632505162e-06,75.88667297363281,9.999999747378752e-06,0.0018621460767462847,25930.515625,-18683.494140625,31960.359375,-35.7735595703125
31.0,79.44915008544922,27511.4375,19623.5,-19623.5,33792.9140625,-35.49969863891601,1.0,1.1220510032217135e-07,0.4447014927864074,8.0,0.9868049025535583,0.347431480884552,-131.10755920410156,0.01285355631262064,0.03606070205569267,1.0281192771799397e-05,-95.60787200927734,9.999999747378752e-06,0.001629875274375081,27511.4375,-19623.5,33792.9140625,-35.49969863891601
32.0,62.919464111328125,29682.529296875,22086.302734375,-22086.302734375,36998.0703125,-36.6523551940918,1.0,1.0750374457302315e-07,0.4439657628536224,8.0,0.9880750775337219,0.3704569935798645,-130.5410919189453,0.01667090132832527,0.04388633742928505,1.0012871825892944e-05,-93.88873291015624,9.999999747378752e-06,0.0015525668859481812,29682.529296875,-22086.302734375,36998.0703125,-36.6523551940918
33.0,49.86701965332031,32183.4765625,24782.478515625,-24782.478515625,40619.54296875,-37.59761428833008,1.0,1.1000792454751716e-07,0.4416368305683136,8.0,0.9896621704101561,0.40684789419174194,-131.58578491210935,0.02217292413115501,0.05382000654935837,1.0016062333306763e-05,-93.98816680908205,9.999999747378752e-06,0.0018173474818468092,32183.4765625,-24782.478515625,40619.54296875,-37.59761428833008
34.0,39.72457504272461,34898.3671875,27872.466796875,-27872.466796875,44662.8515625,-38.613502502441406,1.0,1.1902601215751929e-07,0.43318894505500793,8.0,0.9906599521636963,0.4470788240432739,-131.55389404296875,0.02914903499186039,0.06439423561096191,1.0010082405642606e-05,-92.9403839111328,9.999999747378752e-06,0.0018916304688900707,34898.3671875,-27872.466796875,44662.8515625,-38.613502502441406
35.0,31.672296524047848,37980.98828125,31421.966796875,-31421.966796875,49293.96875,-39.60121917724609,1.0,1.2214557898460046e-07,0.419533908367157,8.0,0.9918676614761353,0.4935405850410461,-131.70309448242188,0.03805568441748619,0.07616084069013596,1.0012190614361316e-05,-92.10187530517578,9.999999747378752e-06,0.001880396506749093,37980.98828125,-31421.966796875,49293.96875,-39.60121917724609
36.0,25.201612472534176,41593.3828125,35444.265625,-35444.265625,54647.1015625,-40.43634414672852,1.0,1.1605085603605403e-07,0.4010679423809052,8.0,0.9929372668266296,0.5470602512359619,-131.8726043701172,0.04927479103207588,0.08895785361528397,1.0010783626057672e-05,-91.43625640869139,9.999999747378752e-06,0.0019108590204268692,41593.3828125,-35444.265625,54647.1015625,-40.43634414672852
37.0,20.03205108642578,45917.34765625,40757.89453125,-40757.89453125,61397.140625,-41.59341812133789,1.0,1.1098593688529945e-07,0.35447835922241205,8.0,0.993355631828308,0.6142300367355347,-132.49942016601562,0.06054352223873138,0.09735958278179167,1.0004213436332064e-05,-90.90599822998048,9.999999747378752e-06,0.0020487422589212656,45917.34765625,-40757.89453125,61397.140625,-41.59341812133789
38.0,15.782828330993652,50739.35546875,46489.7734375,-46489.7734375,68817.0078125,-42.497371673583984,1.0,1.1889183326729837e-07,0.30167293548583984,8.0,0.9940988421440125,0.6886849403381348,-132.9522705078125,0.06972227990627289,0.10001600533723833,1.0007482160290236e-05,-90.45489501953124,9.999999747378752e-06,0.001890568411909044,50739.35546875,-46489.7734375,68817.0078125,-42.497371673583984
39.0,12.600806236267088,55463.02734375,51348.078125,-51348.078125,75582.8828125,-42.79374313354492,1.0,1.3329204762158042e-07,0.25337064266204834,8.0,0.9948837161064149,0.7564254999160767,-132.90478515625,0.07338140159845352,0.0958487391471863,1.0007895070884842e-05,-90.11103820800781,9.999999747378752e-06,0.0016429892275482416,55463.02734375,-51348.078125,75582.8828125,-42.79374313354492
40.0,9.973403930664062,60241.578125,55577.34375,-55577.34375,81962.7265625,-42.693843841552734,1.0,1.3800010378872685e-07,0.20828221738338473,8.0,0.9956735372543336,0.820277988910675,-132.519775390625,0.07383529841899872,0.08893576264381409,1.0007938726630528e-05,-89.82592010498048,9.999999747378752e-06,0.0014720128383487463,60241.578125,-55577.34375,81962.7265625,-42.693843841552734
41.0,7.971938610076904,64599.31640625,59086.875,-59086.875,87546.1640625,-42.44813537597656,1.0,1.1464305771369256e-07,0.17335200309753415,8.0,0.9964689612388611,0.8761610984802246,-132.0467071533203,0.074550561606884,0.08407658338546753,1.0007988748839123e-05,-89.59857177734375,9.999999747378752e-06,0.0012586448574438691,64599.31640625,-59086.875,87546.1640625,-42.44813537597656
42.0,6.275100231170654,69007.3671875,62562.21484375,-62562.21484375,93145.3046875,-42.19551467895508,1.0,7.200196705525741e-08,0.1497648060321808,8.0,0.9971322417259216,0.9320730566978455,-131.5994415283203,0.07870373874902725,0.0834353044629097,1.0006656339101028e-05,-89.40392303466797,9.999999747378752e-06,0.0011832708260044456,69007.3671875,-62562.21484375,93145.3046875,-42.19551467895508
43.0,5.013369083404541,72944.453125,66139.9140625,-66139.9140625,98465.125,-42.19910430908203,1.0,1.0050787579984899e-07,0.12118662893772124,8.0,0.9976387619972227,0.985151469707489,-131.4476776123047,0.08403970301151276,0.08429057896137236,1.0005080184782855e-05,-89.24857330322266,9.999999747378752e-06,0.001036116387695074,72944.453125,-66139.9140625,98465.125,-42.19910430908203
44.0,3.985969305038452,76585.0,69996.75,-69996.75,103753.5859375,-42.42652130126953,1.0,1.1796834797905831e-07,0.10577172040939332,8.0,0.9981497526168824,1.03806734085083,-131.5580291748047,0.0926680788397789,0.08821228146553038,1.0005122021539137e-05,-89.13150024414062,9.999999747378752e-06,0.0009747580625116824,76585.0,-69996.75,103753.5859375,-42.42652130126953
45.0,3.1758129596710205,80018.921875,73945.3984375,-73945.3984375,108953.8828125,-42.74099349975586,1.0,7.432750237512664e-08,0.0924774631857872,8.0,0.9986598491668701,1.0900957584381104,-131.7682342529297,0.10146615654230116,0.0919744074344635,1.0005110198108012e-05,-89.02723693847656,9.999999747378752e-06,0.0008583898888900877,80018.921875,-73945.3984375,108953.8828125,-42.74099349975586
46.0,2.516103029251098,82233.6015625,78927.4140625,-78927.4140625,113982.0234375,-43.824756622314446,1.0,1.2654402326006678e-07,0.07323923707008362,8.0,0.9675093293190001,1.1042665243148804,-176.71853637695312,0.04714337736368179,0.0421900786459446,9.688076715974601e-06,-132.8937835693359,9.999999747378752e-06,0.00030638431780971587,82233.6015625,-78927.4140625,113982.0234375,-43.824756622314446
47.0,1.9955300092697144,84467.828125,81307.28125,-81307.28125,117242.0078125,-43.90777206420898,1.0,8.245673654982964e-08,0.05954470857977867,8.0,0.986435055732727,1.1953541040420532,-166.87403869628906,0.07769499719142915,0.06422990560531616,1.0195612958341371e-05,-122.96627044677734,9.999999747378752e-06,0.0006821909337304533,84467.828125,-81307.28125,117242.0078125,-43.90777206420898
48.0,1.5879064798355103,89190.1875,85966.953125,-85966.953125,123875.7734375,-43.94576644897461,1.0,1.1546443090537652e-07,0.045339059084653854,8.0,0.994381070137024,1.248736262321472,-159.47091674804688,0.11002375930547714,0.08706814795732498,1.0080552783620078e-05,-115.52515411376952,9.999999747378752e-06,0.0004530513542704284,89190.1875,-85966.953125,123875.7734375,-43.94576644897461
