# point,freq,zreal,reflected_zimag,zimag,zmod,zphz,zsig,Idc,Vdc,ie_range,gain,vmod,vphz,vsig,vthd,imod,iphz,isig,ithd,zreal_drift,zimag_drift,zmod_drift,zphz_drift
0.0,250019.53125,139.79693603515625,-7.207733154296875,7.207733154296875,139.9826202392578,2.9514763355255127,1.0,2.052809477959272e-08,0.3997092247009277,8.0,0.3843129575252533,0.0005379713838919997,-24.5783805847168,0.0004808962694369256,0.6888326406478882,3.8431294342444735e-06,-27.529857635498047,9.999999747378752e-06,0.0417945422232151,139.79693603515625,7.207733154296875,139.9826202392578,2.9514763355255127
1.0,198691.40625,144.5303497314453,8.504620552062988,-8.504620552062988,144.7803497314453,-3.367580890655517,1.0,1.213935973964908e-07,0.4843703508377075,8.0,0.438084214925766,0.001650373451411724,-29.406700134277344,0.0002134845854016021,0.07534239441156387,1.13991536636604e-05,-26.03911781311035,9.999999747378752e-06,0.00862340070307255,144.5303497314453,-8.504620552062988,144.7803497314453,-3.367580890655517
2.0,157792.96875,144.87637329101562,18.441495895385746,-18.441495895385746,146.04537963867188,-7.254240036010742,1.0,6.851455935930062e-08,0.4965639412403106,8.0,0.5099052786827089,0.0016998855862766504,69.16983795166016,9.999999747378752e-06,0.0371212363243103,1.1639434887911191e-05,76.42407989501953,9.999999747378752e-06,0.0077328979969024676,144.87637329101562,-18.441495895385746,146.04537963867188,-7.254240036010742
3.0,125332.03125,144.11767578125,29.46788215637207,-29.46788215637207,147.0994873046875,-11.556035041809082,1.0,1.3450420510707772e-07,0.5099596381187439,8.0,0.5860751271247864,0.0016907325480133295,11.302657127380373,9.999999747378752e-06,0.05169275030493736,1.1493803867779206e-05,22.858692169189453,9.999999747378752e-06,0.007977104745805262,144.11767578125,-29.46788215637207,147.0994873046875,-11.556035041809082
4.0,99550.78125,147.9281463623047,42.28941345214844,-42.28941345214844,153.854248046875,-15.954071998596191,1.0,2.446531652822159e-07,0.5330445170402527,8.0,0.6482453942298889,0.0017017492791637778,-79.43344116210938,9.999999747378752e-06,0.02602820098400116,1.1060789802286308e-05,-63.47937011718751,9.999999747378752e-06,0.004048119764775038,147.9281463623047,-42.28941345214844,153.854248046875,-15.954071998596191
5.0,79160.15625,151.45303344726562,55.43720245361328,-55.43720245361328,161.28021240234375,-20.104425430297848,1.0,2.189997587720427e-07,0.5408329367637633,8.0,0.731934666633606,0.0018210166599601507,-38.99039077758789,9.999999747378752e-06,0.07541602849960326,1.1291012015135491e-05,-18.88596534729004,9.999999747378752e-06,0.0016686932649463415,151.45303344726562,-55.43720245361328,161.28021240234375,-20.104425430297848
6.0,62871.09375,156.6686248779297,70.8828353881836,-70.8828353881836,171.95765686035156,-24.343801498413082,1.0,2.152877698335942e-07,0.5481101870536804,8.0,0.801174759864807,0.0018822463462129235,-113.78375244140624,9.999999747378752e-06,0.012047906406223772,1.0945987924060319e-05,-89.43994903564453,9.999999747378752e-06,0.002353850984945893,156.6686248779297,-70.8828353881836,171.95765686035156,-24.343801498413082
7.0,49980.46875,161.9846038818359,86.7904281616211,-86.7904281616211,183.77047729492188,-28.182153701782223,1.0,2.376385026536809e-07,0.5549168586730957,8.0,0.8561035990715027,0.001963698305189609,-101.65708923339844,9.999999747378752e-06,0.04960270598530769,1.0685603228921536e-05,-73.47493743896483,9.999999747378752e-06,0.00583324208855629,161.9846038818359,-86.7904281616211,183.77047729492188,-28.182153701782223
8.0,39667.96875,168.57740783691406,106.37145233154295,-106.37145233154295,199.3319549560547,-32.251708984375,1.0,2.3975411522769724e-07,0.570757269859314,8.0,0.897596776485443,0.002089930698275566,138.839599609375,9.999999747378752e-06,0.02947591990232468,1.0484674930921756e-05,171.09130859375,9.999999747378752e-06,0.006398570723831654,168.57740783691406,-106.37145233154295,199.3319549560547,-32.251708984375
9.0,31582.03125,175.42977905273435,129.203125,-129.203125,217.8739471435547,-36.37145614624024,1.0,2.1917171011409667e-07,0.5817620754241943,8.0,0.9262039661407471,0.0022481775376945734,-175.72647094726562,9.999999747378752e-06,0.01635883003473282,1.0318708518752828e-05,-139.35501098632812,9.999999747378752e-06,0.004396962467581034,175.42977905273435,-129.203125,217.8739471435547,-36.37145614624024
10.0,25019.53125,184.9451446533203,156.75210571289062,-156.75210571289062,242.43746948242188,-40.28327941894531,1.0,2.1592057919406213e-07,0.5859909057617188,8.0,0.9467464089393616,0.002478145295754075,-47.939491271972656,9.999999747378752e-06,0.06261832267045975,1.0221791853837203e-05,-7.656213760375976,9.999999747378752e-06,0.004715906921774149,184.9451446533203,-156.75210571289062,242.43746948242188,-40.28327941894531
11.0,19863.28125,197.00631713867188,187.8393096923828,-187.8393096923828,272.20413208007807,-43.635475158691406,1.0,2.140341024414738e-07,0.5949695110321045,8.0,0.9613886475563048,0.0027641400229185815,28.002599716186523,9.999999747378752e-06,0.008645663037896156,1.0154658411920536e-05,71.63807678222656,9.999999747378752e-06,0.003379863686859608,197.00631713867188,-187.8393096923828,272.20413208007807,-43.635475158691406
12.0,15682.8701171875,210.743896484375,225.6060943603516,-225.6060943603516,308.7249450683594,-46.95075607299805,1.0,1.6839780414557026e-07,0.6036365628242493,8.0,0.9700358510017395,0.003115018364042044,-51.670860290527344,9.999999747378752e-06,0.005450875964015721,1.0089945135405289e-05,-4.720104217529297,9.999999747378752e-06,0.001986718038097024,210.743896484375,-225.6060943603516,308.7249450683594,-46.95075607299805
13.0,12597.65625,226.52040100097656,268.8288269042969,-268.8288269042969,351.54006958007807,-49.881858825683594,1.0,2.0962806956958962e-07,0.61198753118515,8.0,0.9747737050056456,0.003532571019604802,-102.32811737060545,9.999999747378752e-06,0.005440445151180029,1.0048842341348063e-05,-52.44626235961913,9.999999747378752e-06,0.0030270749703049655,226.52040100097656,-268.8288269042969,351.54006958007807,-49.881858825683594
14.0,9895.8330078125,247.7711944580078,323.15579223632807,-323.15579223632807,407.2102966308594,-52.521766662597656,1.0,1.626173968816147e-07,0.6220208406448364,8.0,0.981756567955017,0.004101274069398642,-106.86186981201172,9.999999747378752e-06,0.048455324023962014,1.0071635188069195e-05,-54.34010696411133,9.999999747378752e-06,0.0025150987785309557,247.7711944580078,-323.15579223632807,407.2102966308594,-52.521766662597656
15.0,7910.15625,270.6806335449219,380.0332946777344,-380.0332946777344,466.576171875,-54.53943634033203,1.0,2.2564850610251602e-07,0.6305921673774719,8.0,0.9866607785224913,0.0046890689991414556,-79.43976593017578,9.999999747378752e-06,0.0036811956670135255,1.0049953743873628e-05,-24.900323867797848,9.999999747378752e-06,0.0029804115183651447,270.6806335449219,-380.0332946777344,466.576171875,-54.53943634033203
16.0,6307.87060546875,301.0322265625,431.8900451660156,-431.8900451660156,526.4498291015625,-55.123069763183594,1.0,1.9763592717936265e-07,0.7111057639122009,8.0,0.9876534938812256,0.005269794724881649,-10.078030586242676,9.999999747378752e-06,0.010026351548731329,1.0010061487264464e-05,45.04503631591797,9.999999747378752e-06,0.00360414432361722,301.0322265625,-431.8900451660156,526.4498291015625,-55.123069763183594
17.0,4973.3232421875,337.7677917480469,512.3705444335938,-512.3705444335938,613.6860961914064,-56.60610580444336,1.0,1.9297387154892928e-07,0.7229114174842833,8.0,0.9617573618888856,0.0059759533032774925,-100.18273162841795,9.999999747378752e-06,0.00359030207619071,9.737801519804634e-06,-43.57662582397461,9.999999747378752e-06,0.0008245551143772899,337.7677917480469,-512.3705444335938,613.6860961914064,-56.60610580444336
18.0,3944.3598632812495,381.3173522949218,604.4963989257812,-604.4963989257812,714.7158813476562,-57.75620269775391,1.0,1.6681521231021182e-07,0.728993833065033,8.0,0.9807938337326048,0.007288625929504634,6.547978401184082,9.999999747378752e-06,0.002419346245005727,1.0197933988820296e-05,64.30418395996094,9.999999747378752e-06,0.0007623657584190368,381.3173522949218,-604.4963989257812,714.7158813476562,-57.75620269775391
19.0,3144.054931640625,430.93081665039057,707.6788330078125,-707.6788330078125,828.5594482421875,-58.66127777099609,1.0,1.838362777561997e-07,0.7381320595741272,8.0,0.9889242649078368,0.008354278281331062,51.98176193237305,0.0001265357568627223,0.012548033148050308,1.0082896551466545e-05,110.6430435180664,9.999999747378752e-06,0.0008468246087431908,430.93081665039057,-707.6788330078125,828.5594482421875,-58.66127777099609
20.0,2488.426025390625,492.8597106933594,827.8893432617188,-827.8893432617188,963.4891967773436,-59.233783721923835,1.0,2.0870314187959599e-07,0.75073105096817,8.0,0.9935070872306824,0.009679540991783142,111.89272308349608,9.999999747378752e-06,0.02278864197432995,1.0046341230918188e-05,171.1265106201172,9.999999747378752e-06,0.001167469541542232,492.8597106933594,-827.8893432617188,963.4891967773436,-59.233783721923835
21.0,1976.6566162109373,559.6859130859375,945.652099609375,-945.652099609375,1098.8658447265625,-59.380756378173835,1.0,2.087903396841284e-07,0.7761819958686829,8.0,0.9970088005065918,0.01102738920599222,-170.78091430664062,9.999999747378752e-06,0.003663489827886224,1.003524630505126e-05,-111.40016174316406,9.999999747378752e-06,0.0009551112889312208,559.6859130859375,-945.652099609375,1098.8658447265625,-59.380756378173835
22.0,1582.03125,638.5208740234375,1095.28173828125,-1095.28173828125,1267.8134765625,-59.7589225769043,1.0,1.8932544776362192e-07,0.7837313413619995,8.0,0.998465359210968,0.012696655467152596,69.76268005371094,9.999999747378752e-06,0.004116496536880732,1.001460896077333e-05,129.5216064453125,9.999999747378752e-06,0.0012103229528293011,638.5208740234375,-1095.28173828125,1267.8134765625,-59.7589225769043
23.0,1253.6336669921875,734.0341186523436,1280.6676025390625,-1280.6676025390625,1476.114990234375,-60.18016815185546,1.0,1.7256657258712949e-07,0.7895697355270386,8.0,0.9988465309143065,0.01476678531616926,102.14502716064452,9.999999747378752e-06,0.0045816232450306416,1.0003817806136794e-05,162.3251953125,9.999999747378752e-06,0.0012650202261283992,734.0341186523436,-1280.6676025390625,1476.114990234375,-60.18016815185546
24.0,996.09375,835.3134765625,1462.651611328125,-1462.651611328125,1684.368896484375,-60.26951599121094,1.0,1.9736560830097005e-07,0.8066645860671997,8.0,1.000245451927185,0.016867278143763542,-56.52813720703125,9.999999747378752e-06,0.005513522308319807,1.0014005056291351e-05,3.741376161575317,9.999999747378752e-06,0.0013607689179480076,835.3134765625,-1462.651611328125,1684.368896484375,-60.26951599121094
25.0,790.028076171875,954.5841674804688,1690.3392333984375,-1690.3392333984375,1941.2567138671875,-60.54531097412109,1.0,1.9703318798747205e-07,0.8172348141670227,8.0,1.0031036138534544,0.01946803741157055,-175.86776733398435,9.999999747378752e-06,0.008050289936363697,1.0028574251919052e-05,-115.32245635986328,9.999999747378752e-06,0.0017847134731709955,954.5841674804688,-1690.3392333984375,1941.2567138671875,-60.54531097412109
26.0,628.8109741210938,1099.1170654296875,1970.1540527343752,-1970.1540527343752,2256.006591796875,-60.84355926513672,1.0,2.100619553857541e-07,0.8203829526901245,8.0,1.0028512477874756,0.022554390132427212,38.60256576538086,0.0005549569614231585,0.009705625474452972,9.99748499452835e-06,99.44612884521484,9.999999747378752e-06,0.0011543222935870288,1099.1170654296875,-1970.1540527343752,2256.006591796875,-60.84355926513672
35.0,78.78150939941406,3756.657470703125,7989.452148437501,-7989.452148437501,8828.5791015625,-64.8169937133789,1.0,2.2445681224780853e-07,0.8686653971672058,8.0,0.9951515793800354,0.08841902017593382,-159.43423461914062,0.005019577220082283,0.05523019284009933,1.0015089173975866e-05,-94.61725616455078,9.999999747378752e-06,0.0008989227935671806,3756.657470703125,-7989.452148437501,8828.5791015625,-64.8169937133789
36.0,62.919464111328125,4317.45849609375,9294.8427734375,-9294.8427734375,10248.63671875,-65.08511352539062,1.0,1.894329102469783e-07,0.8760904669761658,8.0,0.9945930242538451,0.1024288386106491,-158.19834899902344,0.006707660853862762,0.06395984441041945,9.994387255574113e-06,-93.1132354736328,9.999999747378752e-06,0.0006674598553217947,4317.45849609375,-9294.8427734375,10248.63671875,-65.08511352539062
37.0,49.86701965332031,5058.64404296875,11023.26953125,-11023.26953125,12128.576171875,-65.34933471679688,1.0,1.7893252390877026e-07,0.8759623765945433,8.0,0.9956545829772947,0.12141521275043488,-158.6548614501953,0.009081585332751274,0.07385782152414323,1.0010673577198759e-05,-93.30553436279295,9.999999747378752e-06,0.0009351539192721248,5058.64404296875,-11023.26953125,12128.576171875,-65.34933471679688
38.0,39.72457504272461,5909.10302734375,13036.6328125,-13036.6328125,14313.326171875,-65.6166763305664,1.0,1.9420541264025815e-07,0.8738062977790833,8.0,0.9958425760269165,0.14316026866436005,-157.9775848388672,0.012156163342297075,0.08390526473522186,1.0001887858379632e-05,-92.36090850830078,9.999999747378752e-06,0.0004928339039906859,5909.10302734375,-13036.6328125,14313.326171875,-65.6166763305664
39.0,31.459732055664062,6856.01611328125,15260.8427734375,-15260.8427734375,16730.16015625,-65.80774688720703,1.0,1.9658315864035106e-07,0.8803757429122925,8.0,0.9959456920623779,0.16731892526149747,-157.42140197753906,0.016110757365822792,0.09514497220516205,1.0001035661844073e-05,-91.6136703491211,9.999999747378752e-06,0.0008256380097009242,6856.01611328125,-15260.8427734375,16730.16015625,-65.80774688720703
40.0,24.93350982666016,8062.6015625,17923.8515625,-17923.8515625,19653.751953125,-65.78058624267578,1.0,1.9035002196687853e-07,0.8820773959159851,8.0,0.9964762330055236,0.19664222002029416,-156.7510528564453,0.02158871293067932,0.1083955317735672,1.0005326657847036e-05,-90.97047424316406,9.999999747378752e-06,0.001157437334768474,8062.6015625,-17923.8515625,19653.751953125,-65.78058624267578
41.0,19.862287521362305,9480.787109375,21082.07421875,-21082.07421875,23115.77734375,-65.78614807128906,1.0,1.782163963071071e-07,0.8772881031036378,8.0,0.9964893460273743,0.23116081953048703,-156.31637573242188,0.028211155906319615,0.1205458417534828,1.0000131624110509e-05,-90.5302276611328,9.999999747378752e-06,0.0007403066265396775,9480.787109375,-21082.07421875,23115.77734375,-65.78614807128906
42.0,15.782828330993652,11182.9169921875,24751.865234375,-24751.865234375,27160.86328125,-65.6865005493164,1.0,1.8037540883142358e-07,0.8703076243400573,8.0,0.996611475944519,0.27164193987846375,-155.82293701171875,0.03641470149159432,0.132422536611557,1.000122574623674e-05,-90.13643646240233,9.999999747378752e-06,0.001020253635942936,11182.9169921875,-24751.865234375,27160.86328125,-65.6865005493164
43.0,12.466754913330078,13081.91796875,28792.20703125,-28792.20703125,31624.796875,-65.56503295898438,1.0,1.8744637486634017e-07,0.8683074116706848,8.0,0.9967669248580932,0.316297322511673,-155.40420532226562,0.046222832053899765,0.144401878118515,1.0001559530792292e-05,-89.83917999267578,9.999999747378752e-06,0.0012267532292753458,13081.91796875,-28792.20703125,31624.796875,-65.56503295898438
44.0,9.973403930664062,14948.142578125,32387.78515625,-32387.78515625,35670.93359375,-65.2249526977539,1.0,1.775382401092429e-07,0.8845115303993225,8.0,0.99743515253067,0.35694852471351624,-154.8165283203125,0.05771692469716072,0.1597638577222824,1.000670454232022e-05,-89.59156799316406,9.999999747378752e-06,0.0009900737786665559,14948.142578125,-32387.78515625,35670.93359375,-65.2249526977539
45.0,7.878151416778564,17512.40625,37107.609375,-37107.609375,41032.4140625,-64.73570251464844,1.0,2.0826219326863793e-07,0.8815634250640869,8.0,0.9977345466613768,0.41044726967811584,-154.1390380859375,0.0713195651769638,0.1716957986354828,1.0003001079894602e-05,-89.40334320068358,9.999999747378752e-06,0.000942260376177728,17512.40625,-37107.609375,41032.4140625,-64.73570251464844
46.0,6.275100231170654,20608.94921875,42079.83984375,-42079.83984375,46855.5390625,-63.90631866455078,1.0,1.9492408398491534e-07,0.8695852756500243,8.0,0.997820258140564,0.4685957133769989,-153.1506195068359,0.08508908003568649,0.17943203449249268,1.0000859219871929e-05,-89.24430084228516,9.999999747378752e-06,0.0011944333091378212,20608.94921875,-42079.83984375,46855.5390625,-63.90631866455078
47.0,5.013369083404541,24537.63671875,47381.53125,-47381.53125,53358.26953125,-62.621559143066406,1.0,1.8457909334301806e-07,0.8393603563308717,8.0,0.9980401992797853,0.5337003469467163,-151.7217254638672,0.09685335308313368,0.17932382225990295,1.0002204362535848e-05,-89.10016632080078,9.999999747378752e-06,0.0008444141130894423,24537.63671875,-47381.53125,53358.26953125,-62.621559143066406
48.0,3.939075708389282,29240.82421875,52982.30859375,-52982.30859375,60515.70703125,-61.10578918457031,1.0,1.943277254667919e-07,0.7969617247581483,8.0,0.9985232353210448,0.6054499745368958,-150.1336212158203,0.10584165900945663,0.17274506390094757,1.0004840078181587e-05,-89.02783966064453,9.999999747378752e-06,0.0007114787586033344,29240.82421875,-52982.30859375,60515.70703125,-61.10578918457031
49.0,3.137550115585327,33949.52734375,58180.1171875,-58180.1171875,67360.9453125,-59.73538589477539,1.0,1.8423378378429334e-07,0.7532217502593994,8.0,0.9980961084365844,0.6733213067054749,-148.6797637939453,0.11214343458414076,0.16458086669445035,9.995722393796312e-06,-88.94437408447266,9.999999747378752e-06,0.0007194379577413201,33949.52734375,-58180.1171875,67360.9453125,-59.73538589477539
50.0,2.485418796539306,37688.453125,62944.3203125,-62944.3203125,73364.890625,-59.088573455810554,1.0,1.8902494502981426e-07,0.7292120456695556,8.0,0.9690347909927368,0.7122873663902283,168.66851806640625,0.07838965207338333,0.10874742269515993,9.708832294563763e-06,-132.242919921875,9.999999747378752e-06,0.0004765945195686072,37688.453125,-62944.3203125,73364.890625,-59.088573455810554
51.0,1.9955300092697144,43026.88671875,67711.7421875,-67711.7421875,80225.890625,-57.56640625,1.0,1.895192838219373e-07,0.6511650085449219,8.0,0.9867689609527587,0.8169408440589904,179.49403381347656,0.09751473367214201,0.11794525384902954,1.01830082712695e-05,-122.93956756591795,9.999999747378752e-06,0.0005875167553313076,43026.88671875,-67711.7421875,80225.890625,-57.56640625
52.0,1.5836148262023924,49367.921875,75018.890625,-75018.890625,89805.484375,-56.652156829833984,1.0,1.850108475309753e-07,0.5649980902671814,8.0,0.9939770698547363,0.9046149253845216,-172.08328247070312,0.10822085291147232,0.11821548640727995,1.0073047633341048e-05,-115.4311294555664,9.999999747378752e-06,0.0004708294873125851,49367.921875,-75018.890625,89805.484375,-56.652156829833984
53.0,1.258051514625549,55358.75,80595.296875,-80595.296875,97776.2421875,-55.515869140625,1.0,1.9455528388334642e-07,0.49187913537025446,8.0,0.9971520304679871,0.9808856248855591,-165.206298828125,0.11552152037620544,0.11637616157531738,1.0031942110799719e-05,-109.6904296875,9.999999747378752e-06,0.0008927411399781704,55358.75,-80595.296875,97776.2421875,-55.515869140625
54.0,0.9977650046348573,61229.81640625,84703.3125,-84703.3125,104516.703125,-54.137813568115234,1.0,1.974685659433817e-07,0.4406952261924744,8.0,0.9989708065986632,1.047073483467102,-159.3655242919922,0.12948420643806455,0.1221996545791626,1.0018239663622808e-05,-105.22770690917967,9.999999747378752e-06,0.0006623945664614439,61229.81640625,-84703.3125,104516.703125,-54.137813568115234
