# point,freq,zreal,reflected_zimag,zimag,zmod,zphz,zsig,Idc,Vdc,ie_range,gain,vmod,vphz,vsig,vthd,imod,iphz,isig,ithd,zreal_drift,zimag_drift,zmod_drift,zphz_drift
0.0,250019.53125,133.142333984375,2.4723782539367676,-2.4723782539367676,133.165283203125,-1.0638281106948853,1.0,1.4158921146645298e-07,0.3128810226917267,8.0,0.38713186979293823,0.0005155252292752266,-99.69825744628906,0.0006645905086770654,0.9427462220191956,3.871318767778576e-06,-98.63442993164062,9.999999747378752e-06,0.024082198739051815,133.142333984375,-2.4723782539367676,133.165283203125,-1.0638281106948853
1.0,198691.40625,143.28135681152344,9.594329833984377,-9.594329833984377,143.6022186279297,-3.830890417098999,1.0,1.2726782472327614e-07,0.460208535194397,8.0,0.4399804174900055,0.001632058178074658,-86.27368164062499,9.999999747378752e-06,0.061522115021944046,1.1365130376361776e-05,-82.44279479980467,9.999999747378752e-06,0.009603939950466156,143.28135681152344,-9.594329833984377,143.6022186279297,-3.830890417098999
2.0,157792.96875,148.44729614257812,20.14243698120117,-20.14243698120117,149.8076019287109,-7.727128028869631,1.0,2.174091306983428e-08,0.4596584141254425,8.0,0.5076873302459717,0.0017286093207076192,99.3036651611328,9.999999747378752e-06,0.04585612937808037,1.153886205429444e-05,107.03079223632812,9.999999747378752e-06,0.006241168361157178,148.44729614257812,-20.14243698120117,149.8076019287109,-7.727128028869631
3.0,125332.03125,148.00660705566406,31.43365669250488,-31.43365669250488,151.30772399902344,-11.990325927734377,1.0,1.0482229129138433e-07,0.473116546869278,8.0,0.5845867395401001,0.0017422629753127694,52.42271423339844,0.00022861312027089295,0.059007957577705376,1.151469950855244e-05,64.41304016113281,9.999999747378752e-06,0.006286832503974438,148.00660705566406,-31.43365669250488,151.30772399902344,-11.990325927734377
4.0,99550.78125,149.06689453125,43.724136352539055,-43.724136352539055,155.34716796875,-16.347408294677734,1.0,2.178470737135285e-07,0.48289689421653753,8.0,0.6480672955513,0.0017221638699993491,33.70998764038086,9.999999747378752e-06,0.02177071198821068,1.1085905498475768e-05,50.05739974975586,9.999999747378752e-06,0.005321536213159561,149.06689453125,-43.724136352539055,155.34716796875,-16.347408294677734
5.0,79160.15625,153.34625244140625,58.145553588867195,-58.145553588867195,163.99993896484375,-20.765634536743164,1.0,2.2120016751614457e-07,0.5012717247009277,8.0,0.7308196425437926,0.0018494125688448548,-142.91065979003906,9.999999747378752e-06,0.07657870650291443,1.1276909390289802e-05,-122.14502716064452,9.999999747378752e-06,0.0020884680561721325,153.34625244140625,-58.145553588867195,163.99993896484375,-20.765634536743164
6.0,62871.09375,158.3175048828125,73.97650909423827,-73.97650909423827,174.74826049804688,-25.045122146606445,1.0,2.2670948851555295e-07,0.5237692594528198,8.0,0.8003941178321838,0.0019138440256938336,12.892478942871092,9.999999747378752e-06,0.014329105615615845,1.095200605050195e-05,37.937599182128906,9.999999747378752e-06,0.002504953648895025,158.3175048828125,-73.97650909423827,174.74826049804688,-25.045122146606445
7.0,49980.46875,162.6629180908203,89.98071289062499,-89.98071289062499,185.89178466796875,-28.950176239013672,1.0,2.2072563865549455e-07,0.5403113961219788,8.0,0.8549538850784301,0.001985633047297597,-100.90785980224608,5.7915094657801085e-05,0.07812931388616563,1.0681661478884052e-05,-71.95768737792969,9.999999747378752e-06,0.005517809186130761,162.6629180908203,-89.98071289062499,185.89178466796875,-28.950176239013672
8.0,39667.96875,169.53952026367188,106.11904144287108,-106.11904144287108,200.0122528076172,-32.04348373413086,1.0,2.846863935701549e-07,0.637818455696106,8.0,0.8965798616409301,0.002097504213452339,4.020853519439696,9.999999747378752e-06,0.05378631129860877,1.0486879546078852e-05,36.06433868408203,9.999999747378752e-06,0.004303948022425176,169.53952026367188,-106.11904144287108,200.0122528076172,-32.04348373413086
9.0,31582.03125,178.30699157714844,126.2325210571289,-126.2325210571289,218.4674530029297,-35.29660415649414,1.0,1.9864700107063982e-07,0.7047810554504395,8.0,0.926502287387848,0.002257585991173982,-121.16432189941406,9.999999747378752e-06,0.013521564193069935,1.0333739737689028e-05,-85.86771392822266,9.999999747378752e-06,0.006957989651709794,178.30699157714844,-126.2325210571289,218.4674530029297,-35.29660415649414
10.0,25019.53125,187.8699493408203,150.7021484375,-150.7021484375,240.84487915039065,-38.73526382446289,1.0,2.300887445016997e-07,0.7305927872657776,8.0,0.9474130272865297,0.002462806412950158,28.619815826416012,9.999999747378752e-06,0.14639875292778015,1.0225695405097213e-05,67.3550796508789,9.999999747378752e-06,0.00872732326388359,187.8699493408203,-150.7021484375,240.84487915039065,-38.73526382446289
11.0,19863.28125,199.703125,180.53446960449216,-180.53446960449216,269.21002197265625,-42.11403274536133,1.0,2.0672182188263835e-07,0.7362057566642761,8.0,0.96110600233078,0.002731009153649211,79.57535552978516,9.999999747378752e-06,0.008164249360561369,1.0144530278921591e-05,121.6893844604492,9.999999747378752e-06,0.0027946126647293568,199.703125,-180.53446960449216,269.21002197265625,-42.11403274536133
12.0,15682.8701171875,213.75277709960935,216.89773559570312,-216.89773559570312,304.5240173339844,-45.418411254882805,1.0,1.5622993032593513e-07,0.73745197057724,8.0,0.9703348278999328,0.0030744816176593304,-36.99960708618164,9.999999747378752e-06,0.008668488822877407,1.0096023288497236e-05,8.418807983398438,9.999999747378752e-06,0.002915114862844348,213.75277709960935,-216.89773559570312,304.5240173339844,-45.418411254882805
13.0,12597.65625,229.7696990966797,255.49343872070312,-255.49343872070312,343.6146240234375,-48.034400939941406,1.0,2.1627744217767034e-07,0.7414978742599486,8.0,0.9777114391326904,0.0034622682724148035,-78.4651641845703,9.999999747378752e-06,0.006915209349244833,1.0076020771521144e-05,-30.430763244628903,9.999999747378752e-06,0.003271309193223715,229.7696990966797,-255.49343872070312,343.6146240234375,-48.034400939941406
14.0,9895.8330078125,251.66786193847656,306.03955078125,-306.03955078125,396.2283630371094,-50.56825256347656,1.0,1.5646455153728314e-07,0.7473860383033752,8.0,0.9833131432533264,0.0039849854074418545,-107.17323303222656,9.999999747378752e-06,0.06445151567459105,1.005729427561164e-05,-56.604976654052734,9.999999747378752e-06,0.0040081823244690895,251.66786193847656,-306.03955078125,396.2283630371094,-50.56825256347656
15.0,7910.15625,274.04412841796875,361.8284912109375,-361.8284912109375,453.8943176269531,-52.8601951599121,1.0,2.211576770605461e-07,0.7511258125305175,8.0,0.9878823757171632,0.00456003425642848,-85.2733383178711,9.999999747378752e-06,0.0043845148757100105,1.0046467650681734e-05,-32.413150787353516,9.999999747378752e-06,0.0029917110223323102,274.04412841796875,-361.8284912109375,453.8943176269531,-52.8601951599121
16.0,6307.87060546875,305.2505798339844,426.26568603515625,-426.26568603515625,524.2903442382812,-54.3933982849121,1.0,1.8367940413099856e-07,0.7557390332221984,8.0,0.9892807006835936,0.005250325426459312,15.841156959533691,9.999999747378752e-06,0.005709539167582989,1.0014155122917144e-05,70.23455810546875,9.999999747378752e-06,0.003164124209433794,305.2505798339844,-426.26568603515625,524.2903442382812,-54.3933982849121
17.0,4973.3232421875,342.3594665527344,506.3721618652344,-506.3721618652344,611.2468872070312,-55.937278747558594,1.0,2.2040082114926923e-07,0.7648884654045106,8.0,0.9613976478576659,0.005940188188105822,-105.2716827392578,9.999999747378752e-06,0.009000518359243868,9.718148248794025e-06,-49.33440399169922,9.999999747378752e-06,0.00120021088514477,342.3594665527344,-506.3721618652344,611.2468872070312,-55.937278747558594
18.0,3944.3598632812495,384.0464782714844,575.0948486328125,-575.0948486328125,691.5387573242188,-56.26512908935546,1.0,2.232798408385861e-07,0.8003460764884948,8.0,0.9813975691795347,0.007059247232973576,4.545568943023682,9.999999747378752e-06,0.00441273394972086,1.0208029380009975e-05,60.81069946289063,9.999999747378752e-06,0.0009666606783866881,384.0464782714844,-575.0948486328125,691.5387573242188,-56.26512908935546
19.0,3144.054931640625,433.4280700683594,668.767822265625,-668.767822265625,796.9381103515626,-57.052749633789055,1.0,1.9765921877024087e-07,0.8101284503936766,8.0,0.9903161525726318,0.0080418037250638,50.996036529541016,2.0966264855815098e-05,0.01641617901623249,1.0090876457979903e-05,108.04878997802734,9.999999747378752e-06,0.0011088743340224028,433.4280700683594,-668.767822265625,796.9381103515626,-57.052749633789055
20.0,2488.426025390625,492.2815246582031,786.8507080078125,-786.8507080078125,928.1568603515624,-57.96845245361328,1.0,1.8369459553468917e-07,0.8128626942634583,8.0,0.9935597777366638,0.009311968460679054,114.76528930664062,0.0002516099775675684,0.020527001470327377,1.00327533800737e-05,172.73374938964844,9.999999747378752e-06,0.000946367101278156,492.2815246582031,-786.8507080078125,928.1568603515624,-57.96845245361328
21.0,1976.6566162109373,559.9902954101562,918.7650756835936,-918.7650756835936,1075.9732666015625,-58.63755798339844,1.0,1.8560841397174957e-07,0.817989706993103,8.0,0.9976790547370911,0.010804341174662111,-171.3192596435547,0.00011781524517573416,0.003113008104264736,1.0041459972853772e-05,-112.68169403076172,9.999999747378752e-06,0.001126150949858129,559.9902954101562,-918.7650756835936,1075.9732666015625,-58.63755798339844
22.0,1582.03125,634.365234375,1059.653076171875,-1059.653076171875,1235.0238037109375,-59.092994689941406,1.0,1.9957377617174646e-07,0.8270224332809448,8.0,0.9996340870857239,0.012374439276754856,69.52157592773438,9.999999747378752e-06,0.003908722661435604,1.0019595720223153e-05,128.61456298828125,9.999999747378752e-06,0.0014053448103368282,634.365234375,-1059.653076171875,1235.0238037109375,-59.092994689941406
23.0,1253.6336669921875,725.5045776367188,1235.2733154296875,-1235.2733154296875,1432.570068359375,-59.57329940795898,1.0,1.9257608130374138e-07,0.8332393765449525,8.0,1.000547170639038,0.014338786713778973,104.6995849609375,0.0004338049911893904,0.004879892338067293,1.0009133802668655e-05,164.27288818359375,9.999999747378752e-06,0.0014285672223195431,725.5045776367188,-1235.2733154296875,1432.570068359375,-59.57329940795898
24.0,996.09375,831.5037231445312,1441.8900146484375,-1441.8900146484375,1664.4654541015625,-60.02897644042969,1.0,2.0638427145058813e-07,0.8360992074012755,8.0,1.0022412538528442,0.016672838479280472,-54.04122924804688,0.000389325839933008,0.006785104051232338,1.0016931810241658e-05,5.987743377685546,9.999999747378752e-06,0.0015423764707520604,831.5037231445312,-1441.8900146484375,1664.4654541015625,-60.02897644042969
25.0,790.028076171875,954.5953369140624,1697.466552734375,-1697.466552734375,1947.4714355468752,-60.64813232421875,1.0,1.668868208071217e-07,0.8362838029861449,8.0,1.0033875703811643,0.019496988505125042,-175.9899444580078,9.999999747378752e-06,0.008595381863415241,1.0011437552748248e-05,-115.34181213378906,9.999999747378752e-06,0.0014894788619130848,954.5953369140624,-1697.466552734375,1947.4714355468752,-60.64813232421875
26.0,628.8109741210938,1092.4964599609375,1966.36669921875,-1966.36669921875,2249.47705078125,-60.943824768066406,1.0,1.7625097825657576e-07,0.8431722521781921,8.0,1.0028822422027588,0.02248344197869301,39.46296310424805,0.0005312513676472008,0.00976521894335747,9.994963875215035e-06,100.40678405761717,9.999999747378752e-06,0.0012965138303115964,1092.4964599609375,-1966.36669921875,2249.47705078125,-60.943824768066406
35.0,78.78150939941406,3310.8984375,7146.60791015625,-7146.60791015625,7876.296875,-65.14253234863281,1.0,2.241232976984975e-07,0.9655751585960387,8.0,0.9948947429656982,0.07876248657703398,-159.763916015625,0.004368550609797239,0.0536581389605999,9.999938811233731e-06,-94.62139129638672,9.999999747378752e-06,0.0008198946015909313,3310.8984375,-7146.60791015625,7876.296875,-65.14253234863281
36.0,62.919464111328125,3834.4165039062495,8426.5361328125,-8426.5361328125,9257.9296875,-65.53253936767578,1.0,2.057671650845805e-07,0.967947483062744,8.0,0.9954289197921754,0.09262900054454803,-158.6562957763672,0.005948498845100403,0.06256251037120819,1.000536940409802e-05,-93.12375640869139,9.999999747378752e-06,0.0006563314818777144,3834.4165039062495,-8426.5361328125,9257.9296875,-65.53253936767578
37.0,49.86701965332031,4484.77587890625,9956.0478515625,-9956.0478515625,10919.5283203125,-65.7504653930664,1.0,2.135853947038413e-07,0.971440017223358,8.0,0.9959102869033811,0.1092480942606926,-159.08102416992188,0.007974755950272083,0.07233016192913054,1.0004835530708078e-05,-93.33055114746092,9.999999747378752e-06,0.0008587358752265571,4484.77587890625,-9956.0478515625,10919.5283203125,-65.7504653930664
38.0,39.72457504272461,5216.14697265625,11651.0078125,-11651.0078125,12765.3505859375,-65.88197326660156,1.0,2.058628183476685e-07,0.9786420464515686,8.0,0.996664583683014,0.1277502030134201,-158.23129272460935,0.010891342535614967,0.08412671089172363,1.0007574019255117e-05,-92.34931945800781,9.999999747378752e-06,0.0006584247457794845,5216.14697265625,-11651.0078125,12765.3505859375,-65.88197326660156
39.0,31.459732055664062,6222.3779296875,14029.3017578125,-14029.3017578125,15347.2890625,-66.08141326904297,1.0,2.0232828035204878e-07,0.9699911475181581,8.0,0.9966731667518616,0.15347422659397125,-157.67233276367188,0.015029245987534525,0.0966709405183792,1.000008614937542e-05,-91.59093475341795,9.999999747378752e-06,0.0007965769618749617,6222.3779296875,-14029.3017578125,15347.2890625,-66.08141326904297
40.0,24.93350982666016,7446.96240234375,16941.927734375,-16941.927734375,18506.3828125,-66.27172088623047,1.0,1.4526885649956967e-07,0.9572486877441406,8.0,0.9966810941696168,0.18506529927253723,-157.2648468017578,0.0206083320081234,0.10995608568191528,1.0000079782912508e-05,-90.99312591552734,9.999999747378752e-06,0.0011105104349553585,7446.96240234375,-16941.927734375,18506.3828125,-66.27172088623047
41.0,19.862287521362305,8770.525390625,19898.802734375,-19898.802734375,21745.90625,-66.21420288085938,1.0,1.5054015989335312e-07,0.9555497765541076,8.0,0.9968873858451843,0.21750408411026,-156.735595703125,0.027454184368252758,0.12470653653144836,1.0002069757319987e-05,-90.52137756347656,9.999999747378752e-06,0.0012730695307254791,8770.525390625,-19898.802734375,21745.90625,-66.21420288085938
42.0,15.782828330993652,10312.3837890625,23162.259765625,-23162.259765625,25354.201171875,-66.00025177001953,1.0,1.7674724972494005e-07,0.9577088952064513,8.0,0.9968803524971008,0.2535402178764343,-156.1322784423828,0.036050669848918915,0.14044895768165588,9.999929716286717e-06,-90.1320343017578,9.999999747378752e-06,0.0009761333931237459,10312.3837890625,-23162.259765625,25354.201171875,-66.00025177001953
43.0,12.466754913330078,12600.5390625,27749.900390625,-27749.900390625,30476.720703125,-65.57838439941406,1.0,1.754728629066449e-07,0.9347875714302064,8.0,0.997007668018341,0.304806113243103,-155.411865234375,0.047936588525772095,0.15537872910499573,1.000127667794004e-05,-89.83348846435545,9.999999747378752e-06,0.000911113864276558,12600.5390625,-27749.900390625,30476.720703125,-65.57838439941406
44.0,9.973403930664062,15099.8583984375,32618.642578125,-32618.642578125,35944.14453125,-65.15959167480469,1.0,1.967752325526817e-07,0.9099310636520384,8.0,0.997473418712616,0.35960936546325684,-154.75547790527344,0.06042681634426117,0.1660274714231491,1.000467182166176e-05,-89.59588623046875,9.999999747378752e-06,0.0013045172672718763,15099.8583984375,-32618.642578125,35944.14453125,-65.15959167480469
45.0,7.878151416778564,17834.984375,37530.578125,-37530.578125,41552.75,-64.58236694335938,1.0,1.910678122385434e-07,0.8995548486709594,8.0,0.9974427223205566,0.4155146777629852,-154.00283813476562,0.074592225253582,0.1773827075958252,9.999692338169552e-06,-89.42047119140625,9.999999747378752e-06,0.0009465995826758444,17834.984375,-37530.578125,41552.75,-64.58236694335938
46.0,6.275100231170654,20474.234375,41564.55078125,-41564.55078125,46333.640625,-63.775657653808594,1.0,1.5924061358418842e-07,0.911260426044464,8.0,0.9979239702224733,0.46355992555618286,-153.0164031982422,0.08974560350179672,0.1913148462772369,1.0004824616771655e-05,-89.24075317382812,9.999999747378752e-06,0.0009306809515692291,20474.234375,-41564.55078125,46333.640625,-63.775657653808594
47.0,5.013369083404541,24349.265625,46676.30078125,-46676.30078125,52645.64453125,-62.450645446777344,1.0,1.6141052583407145e-07,0.8832956552505493,8.0,0.9980480074882508,0.526521861553192,-151.58230590820312,0.10158032178878784,0.1906432956457138,1.0001243026636075e-05,-89.13165283203125,9.999999747378752e-06,0.000982934609055519,24349.265625,-46676.30078125,52645.64453125,-62.450645446777344
48.0,3.939075708389282,29302.2734375,52428.81640625,-52428.81640625,60061.66796875,-60.799331665039055,1.0,2.1840033070930081e-07,0.8300503492355346,8.0,0.9978597164154052,0.6005033850669861,-149.836181640625,0.10913220047950745,0.17957960069179535,9.998113455367273e-06,-89.03684234619139,9.999999747378752e-06,0.0008883933187462388,29302.2734375,-52428.81640625,60061.66796875,-60.799331665039055
49.0,3.137550115585327,34205.49609375,57637.95703125,-57637.95703125,67023.5,-59.31280517578125,1.0,1.5120028251658368e-07,0.7767401933670045,8.0,0.9993276596069337,0.6712210178375244,-148.24859619140625,0.11464090645313262,0.16877081990242004,1.0014710824179929e-05,-88.93579864501953,9.999999747378752e-06,0.0007116037886589766,34205.49609375,-57637.95703125,67023.5,-59.31280517578125
50.0,2.485418796539306,38307.70703125,63112.9453125,-63112.9453125,73829.0234375,-58.74348068237305,1.0,2.2437910729422586e-07,0.7320190668106078,8.0,0.9686828255653379,0.715650200843811,168.98495483398435,0.07824380695819855,0.10803508013486862,9.693345418781972e-06,-132.27159118652344,9.999999747378752e-06,0.0002809017023537308,38307.70703125,-63112.9453125,73829.0234375,-58.74348068237305
51.0,1.9955300092697144,43640.39453125,67993.2421875,-67993.2421875,80793.34375,-57.3062629699707,1.0,2.0283701473999827e-07,0.6495866775512695,8.0,0.9866308569908142,0.8229031562805175,179.72555541992188,0.09808983653783798,0.11777791380882265,1.0185282917518634e-05,-122.96818542480467,9.999999747378752e-06,0.0007050478598102927,43640.39453125,-67993.2421875,80793.34375,-57.3062629699707
52.0,1.5836148262023924,49790.671875,75366.515625,-75366.515625,90328.4140625,-56.54936981201172,1.0,1.96600524304813e-07,0.5699531435966492,8.0,0.9941076040267944,0.9101293087005616,-171.97474670410156,0.11198456585407256,0.12158870697021484,1.0075780664919876e-05,-115.42536163330078,9.999999747378752e-06,0.0005203113541938365,49790.671875,-75366.515625,90328.4140625,-56.54936981201172
53.0,1.258051514625549,56092.9375,81237.8984375,-81237.8984375,98721.90625,-55.37579727172852,1.0,1.9638470405425326e-07,0.4811544418334961,8.0,0.9974511861801149,0.9905394315719603,-165.06178283691406,0.11666122823953629,0.1163828670978546,1.0033633770945016e-05,-109.68598175048828,9.999999747378752e-06,0.000485363561892882,56092.9375,-81237.8984375,98721.90625,-55.37579727172852
54.0,0.9977650046348573,61897.69921875,85039.15625,-85039.15625,105180.7109375,-53.95014190673828,1.0,1.9540048867838777e-07,0.44570446014404297,8.0,0.9988916516304016,1.05332612991333,-159.15582275390625,0.13471034169197083,0.12638182938098907,1.0014441613748204e-05,-105.2056884765625,9.999999747378752e-06,0.0005311552667990327,61897.69921875,-85039.15625,105180.7109375,-53.95014190673828
