# point,freq,zreal,reflected_zimag,zimag,zmod,zphz,zsig,Idc,Vdc,ie_range,gain,vmod,vphz,vsig,vthd,imod,iphz,isig,ithd,zreal_drift,zimag_drift,zmod_drift,zphz_drift
0.0,250019.53125,140.30667114257812,-11.818411827087402,11.818411827087402,140.8035430908203,4.814813613891602,1.0,9.31550232508016e-08,0.4437139630317688,8.0,0.3847081065177917,0.0005416827043518424,104.3314971923828,0.0005740722408518195,0.945768654346466,3.847081188723678e-06,99.51668548583984,9.999999747378752e-06,0.02020173706114292,140.30667114257812,11.818411827087402,140.8035430908203,4.814813613891602
1.0,198691.40625,142.4748382568359,6.095886707305908,-6.095886707305908,142.60519409179688,-2.449946165084839,1.0,6.788258133383351e-08,0.615534245967865,8.0,0.4395231306552887,0.0016292425571009517,-42.76137924194336,9.999999747378752e-06,0.06515220552682877,1.1424846888985485e-05,-40.31143569946289,9.999999747378752e-06,0.00560845760628581,142.4748382568359,-6.095886707305908,142.60519409179688,-2.449946165084839
2.0,157792.96875,145.62969970703125,15.295745849609377,-15.295745849609377,146.43077087402344,-5.995893478393555,1.0,3.924129998722492e-08,0.6564930081367493,8.0,0.5082581639289856,0.0016933042788878083,51.34612274169922,0.0002723580691963434,0.027564024552702904,1.156385496869916e-05,57.34201431274414,9.999999747378752e-06,0.008633534424006939,145.62969970703125,-15.295745849609377,146.43077087402344,-5.995893478393555
3.0,125332.03125,144.90211486816406,26.137325286865234,-26.137325286865234,147.2405548095703,-10.225016593933104,1.0,2.12212114547583e-09,0.6529735922813416,8.0,0.5859250426292419,0.0016974038444459438,-104.10177612304688,9.999999747378752e-06,0.050721634179353714,1.152809909399366e-05,-93.87676239013673,9.999999747378752e-06,0.009664882905781267,144.90211486816406,-26.137325286865234,147.2405548095703,-10.225016593933104
4.0,99550.78125,147.63365173339844,39.38558197021484,-39.38558197021484,152.79698181152344,-14.937434196472168,1.0,2.157707683636545e-07,0.6631412506103516,8.0,0.6487162709236145,0.0016917161410674453,-82.962890625,9.999999747378752e-06,0.03541411831974983,1.1071659173467197e-05,-68.02545166015625,9.999999747378752e-06,0.0034658238291740417,147.63365173339844,-39.38558197021484,152.79698181152344,-14.937434196472168
5.0,79160.15625,150.62481689453125,52.41162109375,-52.41162109375,159.4829559326172,-19.185922622680664,1.0,2.1299766217453003e-07,0.6698889136314392,8.0,0.7326271533966064,0.0018011194188147783,-149.75686645507812,9.999999747378752e-06,0.08209917694330214,1.1293491297692526e-05,-130.57095336914062,9.999999747378752e-06,0.0017504525603726506,150.62481689453125,-52.41162109375,159.4829559326172,-19.185922622680664
6.0,62871.09375,155.8577117919922,65.95286560058594,-65.95286560058594,169.2377166748047,-22.93617248535156,1.0,2.12705359103893e-07,0.6733748316764832,8.0,0.8021165728569031,0.0018528986256569624,-1.1563990116119385,9.999999747378752e-06,0.01689649187028408,1.0948496310447808e-05,21.779773712158203,9.999999747378752e-06,0.0017231241799890995,155.8577117919922,-65.95286560058594,169.2377166748047,-22.93617248535156
7.0,49980.46875,159.79713439941406,81.53524017333984,-81.53524017333984,179.39654541015625,-27.0325927734375,1.0,2.3204682975119797e-07,0.6800348162651062,8.0,0.8579445481300354,0.0019188268342986703,-55.549671173095696,9.999999747378752e-06,0.10375546663999556,1.069600875780452e-05,-28.517078399658203,9.999999747378752e-06,0.0041326708160340795,159.79713439941406,-81.53524017333984,179.39654541015625,-27.0325927734375
8.0,39667.96875,167.2899932861328,100.12748718261717,-100.12748718261717,194.9652557373047,-30.901638031005856,1.0,2.452725311741233e-07,0.6908355355262756,8.0,0.8984787464141845,0.0020417654886841774,-2.6215074062347408,9.999999747378752e-06,0.037964805960655205,1.0472456779098138e-05,28.280128479003903,9.999999747378752e-06,0.006338455248624086,167.2899932861328,-100.12748718261717,194.9652557373047,-30.901638031005856
9.0,31582.03125,175.10479736328125,118.9786911010742,-118.9786911010742,211.70172119140625,-34.19498443603516,1.0,2.360656026212382e-07,0.7342469096183776,8.0,0.9293544292449952,0.002189767314121127,124.77034759521484,9.999999747378752e-06,0.013700355775654316,1.0343644134991337e-05,158.96533203125,9.999999747378752e-06,0.005080364178866148,175.10479736328125,-118.9786911010742,211.70172119140625,-34.19498443603516
10.0,25019.53125,184.09056091308597,143.50531005859375,-143.50531005859375,233.41616821289065,-37.93771743774414,1.0,2.0316389282015734e-07,0.7436197400093079,8.0,0.9491813778877257,0.002383959013968706,21.522680282592773,9.999999747378752e-06,0.07417230308055876,1.0213340829068327e-05,59.46039581298828,9.999999747378752e-06,0.005626981612294912,184.09056091308597,-143.50531005859375,233.41616821289065,-37.93771743774414
11.0,19863.28125,195.07354736328125,172.2238616943359,-172.2238616943359,260.2205810546875,-41.44020080566406,1.0,2.2415662215280466e-07,0.7493445873260498,8.0,0.9626413583755491,0.002639106707647443,9.056724548339844,9.999999747378752e-06,0.007865175604820251,1.0141806342289785e-05,50.49692153930664,9.999999747378752e-06,0.0018272283487021923,195.07354736328125,-172.2238616943359,260.2205810546875,-41.44020080566406
12.0,15682.8701171875,209.41418457031247,204.73303222656247,-204.73303222656247,292.8650207519531,-44.35240936279297,1.0,1.960681572654721e-07,0.7590442299842833,8.0,0.9723233580589294,0.0029581058770418167,-9.098556518554688,9.999999747378752e-06,0.019699571654200557,1.0100577128469013e-05,35.25385284423828,9.999999747378752e-06,0.0025497323367744684,209.41418457031247,-204.73303222656247,292.8650207519531,-44.35240936279297
13.0,12597.65625,224.4856719970703,246.2697296142578,-246.2697296142578,333.23052978515625,-47.64945602416992,1.0,1.9527684003151083e-07,0.760512888431549,8.0,0.976029336452484,0.0033450063783675432,-71.19597625732422,9.999999747378752e-06,0.008782532066106796,1.0038114851340652e-05,-23.546520233154297,9.999999747378752e-06,0.0014228273648768663,224.4856719970703,-246.2697296142578,333.23052978515625,-47.64945602416992
14.0,9895.8330078125,244.549560546875,291.1029663085937,-291.1029663085937,380.1912841796875,-49.967079162597656,1.0,1.4404230341824587e-07,0.7673553824424743,8.0,0.982802927494049,0.003828298067674041,-99.19884490966797,9.999999747378752e-06,0.05027395486831665,1.0069399650092237e-05,-49.23177337646484,9.999999747378752e-06,0.002953910734504461,244.549560546875,-291.1029663085937,380.1912841796875,-49.967079162597656
15.0,7910.15625,266.6454772949219,343.79888916015625,-343.79888916015625,435.0833129882813,-52.2033576965332,1.0,2.1594146915049353e-07,0.7752873897552489,8.0,0.9862045645713806,0.004365892149508,-77.34767150878906,9.999999747378752e-06,0.004747076891362667,1.0034611477749422e-05,-25.14430809020996,9.999999747378752e-06,0.0027347805444151163,266.6454772949219,-343.79888916015625,435.0833129882813,-52.2033576965332
16.0,6307.87060546875,296.2273254394531,405.5925598144531,-405.5925598144531,502.2508850097656,-53.857215881347656,1.0,1.843053638594938e-07,0.7840221524238585,8.0,0.9871796369552611,0.005027474369853735,-5.851886749267577,9.999999747378752e-06,0.0038695852272212505,1.0009886864281723e-05,48.005332946777344,9.999999747378752e-06,0.003092161612585187,296.2273254394531,-405.5925598144531,502.2508850097656,-53.857215881347656
17.0,4973.3232421875,329.8298645019531,482.3475341796875,-482.3475341796875,584.3345336914064,-55.6356315612793,1.0,1.7952324071757178e-07,0.790174663066864,8.0,0.9626043438911438,0.005697878543287516,-105.9029541015625,9.999999747378752e-06,0.0034913285635411735,9.751055586093571e-06,-50.26732635498047,9.999999747378752e-06,0.0007884381338953971,329.8298645019531,-482.3475341796875,584.3345336914064,-55.6356315612793
18.0,3944.3598632812495,370.3695373535156,562.5238037109375,-562.5238037109375,673.5032348632812,-56.63881683349609,1.0,2.0540599621199362e-07,0.8033210635185242,8.0,0.9809956550598145,0.006863710936158896,5.953775882720947,9.999999747378752e-06,0.00809465441852808,1.0191058208874892e-05,62.592597961425774,9.999999747378752e-06,0.0009452479425817728,370.3695373535156,-562.5238037109375,673.5032348632812,-56.63881683349609
19.0,3144.054931640625,414.9452209472656,621.83447265625,-621.83447265625,747.5678100585938,-56.28512954711913,1.0,2.0684728951891887e-07,0.8526334166526793,8.0,0.9915505051612854,0.007556111551821232,51.68162536621094,9.999999747378752e-06,0.007813146337866783,1.0107592970598487e-05,107.96675872802734,9.999999747378752e-06,0.0009660280193202195,414.9452209472656,-621.83447265625,747.5678100585938,-56.28512954711913
20.0,2488.426025390625,469.5871887207031,723.8772583007811,-723.8772583007811,862.8501586914062,-57.028079986572266,1.0,1.814455288240424e-07,0.8618044257164001,8.0,0.9964578747749328,0.00867120549082756,119.0903091430664,9.999999747378752e-06,0.03239456191658974,1.0049491720565127e-05,176.11837768554688,9.999999747378752e-06,0.0011456708889454603,469.5871887207031,-723.8772583007811,862.8501586914062,-57.028079986572266
21.0,1976.6566162109373,523.8662719726562,811.9107055664062,-811.9107055664062,966.247802734375,-57.16882324218751,1.0,2.075025378189821e-07,0.888920783996582,8.0,0.997971773147583,0.009677158668637277,-170.7017822265625,9.999999747378752e-06,0.0052454816177487365,1.0015192856371868e-05,-113.532958984375,9.999999747378752e-06,0.001284384517930448,523.8662719726562,-811.9107055664062,966.247802734375,-57.16882324218751
22.0,1582.03125,578.3642578125,897.8042602539062,-897.8042602539062,1067.968994140625,-57.21042251586913,1.0,2.0658569610532143e-07,0.9174378514289857,8.0,1.0020759105682373,0.01072360947728157,74.94213104248048,9.999999747378752e-06,0.004928239621222019,1.004112527880352e-05,132.15255737304688,9.999999747378752e-06,0.0012043439783155918,578.3642578125,-897.8042602539062,1067.968994140625,-57.21042251586913
23.0,1253.6336669921875,640.0714111328125,1013.6671752929688,-1013.6671752929688,1198.8380126953125,-57.72998809814453,1.0,1.7800496721065429e-07,0.9373046159744263,8.0,1.0034610033035278,0.012004950083792208,107.24712371826172,0.000362900085747242,0.00529542937874794,1.0013821338361595e-05,164.97711181640625,9.999999747378752e-06,0.001118190004490316,640.0714111328125,-1013.6671752929688,1198.8380126953125,-57.72998809814453
24.0,996.09375,717.398681640625,1167.381591796875,-1167.381591796875,1370.197265625,-58.42775344848633,1.0,1.9343100632340793e-07,0.9467818737030029,8.0,1.0033729076385498,0.013700769282877443,-53.178325653076165,9.999999747378752e-06,0.0065292613580822945,9.999122084991539e-06,5.249427318572998,9.999999747378752e-06,0.0016425776993855834,717.398681640625,-1167.381591796875,1370.197265625,-58.42775344848633
25.0,790.028076171875,785.227294921875,1310.623291015625,-1310.623291015625,1527.8465576171875,-59.07312011718751,1.0,1.897361983083101e-07,0.970009744167328,8.0,1.0048916339874268,0.015301592648029327,-173.48928833007812,0.00031255721114575863,0.008177116513252258,1.001513737719506e-05,-114.41618347167967,9.999999747378752e-06,0.0015789633616805077,785.227294921875,-1310.623291015625,1527.8465576171875,-59.07312011718751
26.0,628.8109741210938,888.1228637695312,1530.4132080078125,-1530.4132080078125,1769.4425048828125,-59.87273406982422,1.0,1.7333607615910299e-07,0.9730555415153505,8.0,1.0046839714050293,0.017690768465399742,42.07999038696289,0.0005197386490181088,0.00957874860614538,9.997933375416324e-06,101.95272827148436,9.999999747378752e-06,0.0014627560740336776,888.1228637695312,-1530.4132080078125,1769.4425048828125,-59.87273406982422
35.0,78.78150939941406,2895.191650390625,6431.36767578125,-6431.36767578125,7052.9873046875,-65.7642822265625,1.0,1.7347588254779114e-07,1.0183914899826048,8.0,0.995620548725128,0.07052738964557648,-160.32928466796875,0.0033781426027417183,0.04743322730064392,9.999648682423869e-06,-94.56499481201172,9.999999747378752e-06,0.000513235863763839,2895.191650390625,-6431.36767578125,7052.9873046875,-65.7642822265625
36.0,62.919464111328125,3354.827392578125,7580.20166015625,-7580.20166015625,8289.41015625,-66.12689208984375,1.0,1.8318442585041336e-07,1.0196675062179563,8.0,0.9955217242240904,0.08288587629795073,-159.2200164794922,0.00464404048398137,0.054724033921957016,9.999007488659117e-06,-93.09312438964845,9.999999747378752e-06,0.0007137249340303241,3354.827392578125,-7580.20166015625,8289.41015625,-66.12689208984375
37.0,49.86701965332031,3858.117919921875,8874.7919921875,-8874.7919921875,9677.138671875,-66.50408172607422,1.0,2.1797981730742322e-07,1.0288505554199219,8.0,0.9965847730636596,0.09687472134828568,-159.8272247314453,0.006163532845675944,0.0629921555519104,1.0010678124672268e-05,-93.32314300537107,9.999999747378752e-06,0.00047485646791756153,3858.117919921875,-8874.7919921875,9677.138671875,-66.50408172607422
38.0,39.72457504272461,4442.82470703125,10325.5625,-10325.5625,11240.8154296875,-66.71903228759766,1.0,1.884498175286353e-07,1.0395402908325195,8.0,0.9966811537742615,0.1124190241098404,-159.077880859375,0.008285601623356342,0.07267644256353377,1.0000967449741438e-05,-92.35884857177734,9.999999747378752e-06,0.0006735091446898878,4442.82470703125,-10325.5625,11240.8154296875,-66.71903228759766
39.0,31.459732055664062,5216.31494140625,12247.318359375,-12247.318359375,13311.90234375,-66.93012237548828,1.0,1.7572027388723654e-07,1.0404963493347168,8.0,0.9968647956848145,0.13314354419708252,-158.50477600097656,0.011327472515404224,0.08403696864843369,1.0001842383644544e-05,-91.57465362548828,9.999999747378752e-06,0.00045351972221396863,5216.31494140625,-12247.318359375,13311.90234375,-66.93012237548828
40.0,24.93350982666016,6108.9931640625,14428.228515625,-14428.228515625,15668.234375,-67.05192565917969,1.0,1.9735884393412562e-07,1.0440980195999143,8.0,0.9970186352729795,0.1567065268754959,-158.013427734375,0.015345895662903784,0.09682363271713258,1.000154315988766e-05,-90.96149444580078,9.999999747378752e-06,0.0012586534721776843,6108.9931640625,-14428.228515625,15668.234375,-67.05192565917969
41.0,19.862287521362305,7241.18408203125,17210.17578125,-17210.17578125,18671.5,-67.18106842041016,1.0,1.858682168176529e-07,1.0367747545242307,8.0,0.9975013732910156,0.18680539727211,-157.6786346435547,0.020946400240063667,0.11078400164842604,1.000484189717099e-05,-90.49755859375,9.999999747378752e-06,0.0007395176799036561,7241.18408203125,-17210.17578125,18671.5,-67.18106842041016
42.0,15.782828330993652,8523.4580078125,20230.076171875,-20230.076171875,21952.341796875,-67.15303802490233,1.0,1.374754532434963e-07,1.0360065698623655,8.0,0.9976208209991456,0.2195497304201126,-157.28395080566406,0.028046282008290287,0.12621577084064484,1.0001197551900987e-05,-90.13091278076173,9.999999747378752e-06,0.0008561955182813109,8523.4580078125,-20230.076171875,21952.341796875,-67.15303802490233
43.0,12.466754913330078,9869.1064453125,23170.861328125,-23170.861328125,25185.078125,-66.92951965332031,1.0,1.4417253169085598e-07,1.0531725883483887,8.0,0.997693121433258,0.25186899304389954,-156.73301696777344,0.03705371916294098,0.145366832613945,1.0000724614656065e-05,-89.80350494384764,9.999999747378752e-06,0.0007315702969208359,9869.1064453125,-23170.861328125,25185.078125,-66.92951965332031
44.0,9.973403930664062,11684.9873046875,27007.482421875,-27007.482421875,29426.91015625,-66.60391998291016,1.0,2.2724452719558033e-07,1.0487774610519407,8.0,0.9979153871536256,0.29433465003967285,-156.18197631835935,0.04882095754146576,0.16386964917182922,1.0002228009398095e-05,-89.57806396484375,9.999999747378752e-06,0.0007579342345707119,11684.9873046875,-27007.482421875,29426.91015625,-66.60391998291016
45.0,7.878151416778564,14329.8603515625,32172.462890625,-32172.462890625,35219.48828125,-65.99144744873047,1.0,2.2042992497972594e-07,1.0263454914093015,8.0,0.9981203079223632,0.35226720571517944,-155.37469482421875,0.06473483890295029,0.18158166110515597,1.0002053386415353e-05,-89.38324737548828,9.999999747378752e-06,0.0009088554652407763,14329.8603515625,-32172.462890625,35219.48828125,-65.99144744873047
46.0,6.275100231170654,17407.99609375,37577.046875,-37577.046875,41413.4375,-65.1435317993164,1.0,1.4821223714989173e-07,1.0036362409591675,8.0,0.9977438449859619,0.4139781594276428,-154.35833740234375,0.08193280547857283,0.19556164741516116,9.9962280728505e-06,-89.21481323242188,9.999999747378752e-06,0.000867868133354932,17407.99609375,-37577.046875,41413.4375,-65.1435317993164
47.0,5.013369083404541,21913.669921875,44323.03515625,-44323.03515625,49444.31640625,-63.691837310791016,1.0,1.9019930164176913e-07,0.9397372007369997,8.0,0.9985607862472534,0.494847983121872,-152.81253051757812,0.09647187590599059,0.19264067709445956,1.0008187928178812e-05,-89.12069702148438,9.999999747378752e-06,0.0009033620590344072,21913.669921875,-44323.03515625,49444.31640625,-63.691837310791016
48.0,3.939075708389282,26415.419921875,49977.45703125,-49977.45703125,56528.93359375,-62.14145660400391,1.0,1.4626968436459722e-07,0.9043000936508178,8.0,0.9984935522079469,0.565251350402832,-151.16810607910156,0.108951099216938,0.19046691060066223,9.99932672129944e-06,-89.02665710449217,9.999999747378752e-06,0.0007748397183604537,26415.419921875,-49977.45703125,56528.93359375,-62.14145660400391
49.0,3.137550115585327,31167.23828125,55425.86328125,-55425.86328125,63587.91796875,-60.649948120117195,1.0,1.9992458533124593e-07,0.8548489212989806,8.0,0.9984734654426575,0.6358663439750671,-149.5476837158203,0.11607115715742113,0.18038159608840945,9.999798749049662e-06,-88.89774322509764,9.999999747378752e-06,0.0006558464956469834,31167.23828125,-55425.86328125,63587.91796875,-60.649948120117195
50.0,2.485418796539306,35342.078125,60384.375,-60384.375,69966.671875,-59.660194396972656,1.0,1.9323493916090229e-07,0.8189849853515626,8.0,0.9697083234786988,0.6795099377632141,168.0583038330078,0.08180321753025056,0.11895234137773512,9.711909115139859e-06,-132.281494140625,9.999999747378752e-06,0.00033107600756920874,35342.078125,-60384.375,69966.671875,-59.660194396972656
51.0,1.9955300092697144,41280.66015625,65955.640625,-65955.640625,77808.9921875,-57.95815658569336,1.0,1.8967094206345794e-07,0.7227544784545897,8.0,0.9864848256111144,0.7915512919425964,179.09994506835935,0.1016734018921852,0.1269188821315765,1.01730056485394e-05,-122.94190216064452,9.999999747378752e-06,0.00034591389703564346,41280.66015625,-65955.640625,77808.9921875,-57.95815658569336
52.0,1.5836148262023924,47631.50390625,72988.1171875,-72988.1171875,87155.1796875,-56.87183380126953,1.0,1.8707081039792686e-07,0.6491348147392273,8.0,0.9943722486495972,0.8785202503204346,-172.2780303955078,0.11762210726737976,0.13230425119400024,1.0079954336106312e-05,-115.40619659423828,9.999999747378752e-06,0.0004966449923813343,47631.50390625,-72988.1171875,87155.1796875,-56.87183380126953
53.0,1.258051514625549,54403.58984375,79232.7109375,-79232.7109375,96112.296875,-55.52532196044922,1.0,1.850570043870903e-07,0.5433101058006288,8.0,0.9975609183311462,0.964204967021942,-165.21115112304688,0.1179141029715538,0.12084629386663436,1.0032067621068563e-05,-109.68582916259764,9.999999747378752e-06,0.0002333401644136757,54403.58984375,-79232.7109375,96112.296875,-55.52532196044922
54.0,0.9977650046348573,60031.1328125,83264.4296875,-83264.4296875,102648.4375,-54.20953750610352,1.0,1.8316583805244593e-07,0.5029870271682739,8.0,0.9996230602264403,1.0286064147949219,-159.4283447265625,0.13303843140602112,0.12780918180942535,1.0020671652455349e-05,-105.21880340576172,9.999999747378752e-06,0.0006200742209330201,60031.1328125,-83264.4296875,102648.4375,-54.20953750610352
