# point,freq,zreal,reflected_zimag,zimag,zmod,zphz,zsig,Idc,Vdc,ie_range,gain,vmod,vphz,vsig,vthd,imod,iphz,isig,ithd,zreal_drift,zimag_drift,zmod_drift,zphz_drift
0.0,250019.53125,3704.6044921875,-617.71484375,617.71484375,3755.7509765625,9.466547966003418,1.0,3.045835512693884e-07,0.10096047818660736,8.0,0.11160466074943542,0.004191593732684851,133.98971557617188,0.001240552868694067,0.2598674297332764,1.1160466328874463e-06,124.52317810058592,9.999999747378752e-06,0.19076161086559293,3704.6044921875,617.71484375,3755.7509765625,9.466547966003418
1.0,198691.40625,3770.2158203125,-349.6404724121094,349.6404724121094,3786.393310546875,5.298314571380615,1.0,4.823307904189278e-07,0.2842104434967041,8.0,0.0577283352613449,0.01958540081977844,-164.9262237548828,0.004286802839487791,0.1834411472082138,5.172573764866684e-06,-170.2245330810547,9.999999747378752e-06,0.14761391282081604,3770.2158203125,349.6404724121094,3786.393310546875,5.298314571380615
2.0,157792.96875,3665.166259765625,-285.69775390625,285.69775390625,3676.284423828125,4.457162380218506,1.0,5.341732958186185e-07,0.4295888245105744,8.0,0.06756089627742767,0.02336393296718597,-156.40357971191406,0.00386197748593986,0.15165239572525024,6.355312052619411e-06,-160.86073303222656,9.367417987959924e-07,0.14042536914348602,3665.166259765625,285.69775390625,3676.284423828125,4.457162380218506
3.0,125332.03125,3640.0981445312495,-224.86636352539065,224.86636352539065,3647.037109375,3.5349438190460205,1.0,5.011777943764173e-07,0.5166366100311279,8.0,0.0832672119140625,0.02856640890240669,21.65121459960937,0.0040427432395517835,0.13398894667625427,7.832772098481655e-06,18.116271972656246,1.00355885024328e-06,0.12320325523614883,3640.0981445312495,224.86636352539065,3647.037109375,3.5349438190460205
4.0,99550.78125,3631.479736328125,-141.44073486328125,141.44073486328125,3634.233154296875,2.2304580211639404,1.0,2.9564904480139376e-07,0.5549479722976685,8.0,0.10048697143793106,0.034352947026491165,-76.36906433105469,0.002005017362535,0.046916451305150986,9.452598533243872e-06,-78.59951782226561,9.999999747378752e-06,0.04561736434698105,3631.479736328125,141.44073486328125,3634.233154296875,2.2304580211639404
5.0,79160.15625,3639.7685546875,-81.59326934814453,81.59326934814453,3640.682861328125,1.284193515777588,1.0,2.602249651317834e-07,0.6092891097068787,8.0,0.12659916281700134,0.04335659742355347,135.16273498535156,0.0026959581300616264,0.059242025017738335,1.1908918168046512e-05,133.8785400390625,9.999999747378752e-06,0.05868116766214371,3639.7685546875,81.59326934814453,3640.682861328125,1.284193515777588
6.0,62871.09375,3646.930908203125,-27.410303115844727,27.410303115844727,3647.033935546875,0.4306265115737915,1.0,2.144977315765573e-07,0.6350364685058594,8.0,0.1861533224582672,0.05362653732299805,-98.61895751953124,0.00369303347542882,0.06780332326889038,1.4704150999023112e-05,-99.0495834350586,1.0244945087833912e-06,0.06761316955089569,3646.930908203125,27.410303115844727,3647.033935546875,0.4306265115737915
7.0,49980.46875,3653.8427734375,21.582939147949215,-21.582939147949215,3653.906494140625,-0.33843737840652466,1.0,1.2236682778166141e-07,0.6305144429206848,8.0,0.311114639043808,0.06106707081198692,-119.26502227783205,0.0029915347695350647,0.04803893342614174,1.6712816432118416e-05,-118.92658233642578,9.482214977651892e-07,0.055965747684240334,3653.8427734375,-21.582939147949215,3653.906494140625,-0.33843737840652466
8.0,39667.96875,3663.638916015625,69.82706451416016,-69.82706451416016,3664.3041992187505,-1.0918956995010376,1.0,9.749226848043689e-08,0.6165362000465393,8.0,0.49831300973892206,0.05869124457240105,16.12965965270996,0.0008505068835802376,0.01310611329972744,1.6017022062442265e-05,17.221555709838867,9.999999747378752e-06,0.017320014536380768,3663.638916015625,-69.82706451416016,3664.3041992187505,-1.0918956995010376
9.0,31582.03125,3672.945556640625,119.65670776367188,-119.65670776367188,3674.8940429687505,-1.8659139871597288,1.0,1.0120669458046905e-07,0.6104748249053955,8.0,0.6047229170799255,0.044596321880817406,146.21290588378906,0.00042003541602753103,0.005484270863234997,1.2135403267166112e-05,148.0788116455078,9.999999747378752e-06,0.015661951154470444,3672.945556640625,-119.65670776367188,3674.8940429687505,-1.8659139871597288
10.0,25019.53125,3692.8950195312495,172.11924743652344,-172.11924743652344,3696.904052734375,-2.668522834777832,1.0,8.87094344648176e-08,0.6003714203834534,8.0,0.688021183013916,0.04206138104200363,-20.247852325439453,0.0005480943364091218,0.014601505361497402,1.1377461305528412e-05,-17.579328536987305,9.999999747378752e-06,0.015338131226599216,3692.8950195312495,-172.11924743652344,3696.904052734375,-2.668522834777832
11.0,19863.28125,3713.8076171875,224.63136291503903,-224.63136291503903,3720.5947265625,-3.461344718933105,1.0,1.2231141965912684e-07,0.5974997282028198,8.0,0.7608257532119752,0.041142985224723816,49.129985809326165,0.0005787729169242084,0.0009282215032726526,1.1058174095524008e-05,52.591331481933594,9.999999747378752e-06,0.002360790967941284,3713.8076171875,-224.63136291503903,3720.5947265625,-3.461344718933105
12.0,15682.8701171875,3731.679931640625,286.52520751953125,-286.52520751953125,3742.663818359375,-4.390659809112549,1.0,1.392526058907606e-07,0.5987744927406311,8.0,0.8241742253303527,0.04054288193583488,-10.073028564453123,0.0006437169504351914,0.0018061784794554117,1.083262759493664e-05,-5.682368755340576,9.999999747378752e-06,0.003114503575488925,3731.679931640625,-286.52520751953125,3742.663818359375,-4.390659809112549
13.0,12597.65625,3760.511962890625,349.2710876464844,-349.2710876464844,3776.697021484375,-5.306328773498535,1.0,1.342446580565593e-07,0.5998484492301941,8.0,0.868954837322235,0.039818994700908654,-58.00101852416992,0.0007721948204562069,0.0015631770947948098,1.0543339158175511e-05,-52.694690704345696,9.999999747378752e-06,0.0028480570763349533,3760.511962890625,-349.2710876464844,3776.697021484375,-5.306328773498535
14.0,9895.8330078125,3787.3100585937505,423.5613098144531,-423.5613098144531,3810.9213867187505,-6.381270408630371,1.0,1.4568229289579906e-07,0.6050720810890198,8.0,0.90853613615036,0.03984510898590088,-65.16635131835938,0.0006265430711209774,0.014114223420619965,1.0455504707351793e-05,-58.78508377075195,9.999999747378752e-06,0.003431922988966108,3787.3100585937505,-423.5613098144531,3810.9213867187505,-6.381270408630371
15.0,7910.15625,3835.9213867187505,502.1950378417969,-502.1950378417969,3868.6552734375,-7.458686351776123,1.0,1.6346174902537314e-07,0.6113932728767395,8.0,0.9312572479248048,0.039654042571783066,-41.5005989074707,0.0008550500497221946,0.0013819151790812612,1.0250084415019955e-05,-34.04191207885742,9.999999747378752e-06,0.004282435867935419,3835.9213867187505,-502.1950378417969,3868.6552734375,-7.458686351776123
16.0,6307.87060546875,3871.184814453125,607.7297973632812,-607.7297973632812,3918.59765625,-8.921935081481934,1.0,1.6016528547879719e-07,0.6187445521354675,8.0,0.9501261711120604,0.039979953318834305,36.37395477294922,0.00044121284736320376,0.002333769341930747,1.0202617886534426e-05,45.29589080810546,9.999999747378752e-06,0.002836252097040415,3871.184814453125,-607.7297973632812,3918.59765625,-8.921935081481934
17.0,4973.3232421875,3930.264892578125,722.9584350585938,-722.9584350585938,3996.2045898437505,-10.422842979431152,1.0,1.718199484912475e-07,0.629427969455719,8.0,0.9348892569541932,0.03932118788361549,-70.86347961425781,0.0006865519098937513,0.0007279595592990517,9.83963309408864e-06,-60.44063949584961,9.999999747378752e-06,0.0005869955057278275,3930.264892578125,-722.9584350585938,3996.2045898437505,-10.422842979431152
18.0,3944.3598632812495,3993.6650390625,846.5042724609374,-846.5042724609374,4082.392578125,-11.967390060424805,1.0,1.5756525328924909e-07,0.6358222961425781,8.0,0.9603339433670046,0.0419350191950798,46.61467742919922,0.0004328937502577901,0.0005528601468540728,1.0272167855873704e-05,58.582069396972656,9.999999747378752e-06,0.0005826338892802596,3993.6650390625,-846.5042724609374,4082.392578125,-11.967390060424805
19.0,3144.054931640625,4065.789794921875,987.9233398437501,-987.9233398437501,4184.09375,-13.657301902770996,1.0,1.5324516766668242e-07,0.6418969631195068,8.0,0.9728977084159853,0.04238832741975784,87.72823333740233,0.00044551483006216586,0.011181375943124294,1.013082692224998e-05,101.38553619384764,9.999999747378752e-06,0.000931682763621211,4065.789794921875,-987.9233398437501,4184.09375,-13.657301902770996
20.0,2488.426025390625,4152.39892578125,1150.7867431640625,-1150.7867431640625,4308.91259765625,-15.49006462097168,1.0,1.4543951465384453e-07,0.6516615748405457,8.0,0.9818820357322691,0.04348703846335411,151.38247680664062,0.0002470529288984835,0.014539376832544804,1.0092346201417968e-05,166.87252807617188,9.999999747378752e-06,0.0010627423180267215,4152.39892578125,-1150.7867431640625,4308.91259765625,-15.49006462097168
21.0,1976.6566162109373,4251.82177734375,1335.075927734375,-1335.075927734375,4456.50244140625,-17.432336807250977,1.0,1.3193144354772812e-07,0.6603157520294188,8.0,0.9880594611167908,0.04484540224075317,-132.66957092285156,0.0004154696653131396,0.0015271436423063278,1.0062914043373892e-05,-115.23722839355467,9.999999747378752e-06,0.0012174630537629128,4251.82177734375,-1335.075927734375,4456.50244140625,-17.432336807250977
22.0,1582.03125,4362.58203125,1544.9609375,-1544.9609375,4628.0693359375,-19.50104522705078,1.0,1.2100240098789072e-07,0.6661792397499084,8.0,0.9915481209754944,0.046444106847047806,111.0971221923828,0.0005881711840629578,0.0020899146329611536,1.003530815069098e-05,130.59815979003906,9.999999747378752e-06,0.0011896867072209716,4362.58203125,-1544.9609375,4628.0693359375,-19.50104522705078
23.0,1253.6336669921875,4497.63330078125,1815.75537109375,-1815.75537109375,4850.3271484375,-21.984596252441406,1.0,9.046497240206008e-08,0.665973424911499,8.0,0.9935218095779419,0.04859981685876846,138.05307006835935,9.999999747378752e-06,0.002874582773074508,1.0019904948421752e-05,160.03765869140625,9.999999747378752e-06,0.0012210828717797995,4497.63330078125,-1815.75537109375,4850.3271484375,-21.984596252441406
24.0,996.09375,4653.66845703125,2134.058349609375,-2134.058349609375,5119.65185546875,-24.63503074645996,1.0,9.543703782810552e-08,0.6649678349494934,8.0,0.9952454566955566,0.05128533393144608,-21.65484046936035,0.000624351145233959,0.004038332495838404,1.0017349268309772e-05,2.980192184448242,9.999999747378752e-06,0.0015261201187968254,4653.66845703125,-2134.058349609375,5119.65185546875,-24.63503074645996
25.0,790.028076171875,4831.3173828125,2476.857177734375,-2476.857177734375,5429.2216796875,-27.142719268798828,1.0,9.143330004235395e-08,0.6731289625167847,8.0,0.9967110157012941,0.054372165352106094,-142.51654052734375,0.0004137445357628167,0.005310358013957738,1.0014725376095155e-05,-115.37382507324217,9.999999747378752e-06,0.001307547208853066,4831.3173828125,-2476.857177734375,5429.2216796875,-27.142719268798828
26.0,628.8109741210938,5040.7255859375,2912.279052734375,-2912.279052734375,5821.5361328125,-30.017171859741207,1.0,9.572400472279696e-08,0.6722534894943237,8.0,0.9970464706420897,0.05823495239019394,69.33496856689453,0.0005795962060801685,0.007165587972849608,1.0003365787270012e-05,99.35214233398435,9.999999747378752e-06,0.001314822700805962,5040.7255859375,-2912.279052734375,5821.5361328125,-30.017171859741207
27.0,496.3235168457031,5026.44921875,3571.305908203125,-3571.305908203125,6165.98876953125,-35.393898010253906,1.0,1.0568452779580185e-07,0.6773906350135803,8.0,0.9696108102798462,0.05996319651603699,97.42549133300781,0.0008443171973340213,0.006357251666486263,9.724830306367949e-06,132.8193817138672,9.999999747378752e-06,0.0003422134614083916,5026.44921875,-3571.305908203125,6165.98876953125,-35.393898010253906
28.0,395.3313293457031,5335.43701171875,4112.134765625,-4112.134765625,6736.2109375,-37.6222038269043,1.0,1.0631096358793e-07,0.6837557554244995,8.0,0.9908508062362672,0.06883771717548369,60.356006622314446,0.000709437532350421,0.010507594794034956,1.0219057003268972e-05,97.97821807861328,9.999999747378752e-06,0.0006103742052800952,5335.43701171875,-4112.134765625,6736.2109375,-37.6222038269043
29.0,315.5048217773437,5720.05810546875,4863.783203125,-4863.783203125,7508.35888671875,-40.37461853027344,1.0,1.0394992244755485e-07,0.6742900013923645,8.0,0.9971970915794371,0.07556448131799699,-175.70620727539062,0.0010798635194078088,0.015135920606553555,1.0064049092761707e-05,-135.3315887451172,9.999999747378752e-06,0.0008182316669262946,5720.05810546875,-4863.783203125,7508.35888671875,-40.37461853027344
30.0,249.33511352539065,6144.76513671875,5682.00244140625,-5682.00244140625,8369.1875,-42.75925064086913,1.0,1.0330421673643286e-07,0.6770592927932739,8.0,0.9996171593666077,0.0838949829339981,48.1142578125,0.0016553382156416772,0.02057852037250996,1.002426870400086e-05,90.8735122680664,9.999999747378752e-06,0.0011414622422307728,6144.76513671875,-5682.00244140625,8369.1875,-42.75925064086913
31.0,198.6228790283203,6678.25048828125,6758.77392578125,-6758.77392578125,9501.5810546875,-45.34334945678711,1.0,1.1827003731923469e-07,0.6663342714309692,8.0,0.9994561672210691,0.09500051289796829,31.420209884643555,0.002575099235400557,0.026672659441828728,9.998389032261912e-06,76.76355743408203,9.999999747378752e-06,0.0011427884455770254,6678.25048828125,-6758.77392578125,9501.5810546875,-45.34334945678711
32.0,158.005615234375,7148.19287109375,7656.807617187501,-7656.807617187501,10474.8916015625,-46.96758270263672,1.0,1.3484293504006928e-07,0.6869288086891174,8.0,0.9953701496124269,0.1043206825852394,88.13566589355469,0.0034803529269993305,0.033173419535160065,9.959117960534057e-06,135.10324096679688,9.999999747378752e-06,0.0012897888664156199,7148.19287109375,-7656.807617187501,10474.8916015625,-46.96758270263672
33.0,125.5580368041992,7796.86279296875,8937.63671875,-8937.63671875,11860.5400390625,-48.89976501464844,1.0,1.282336228314307e-07,0.6888633370399475,8.0,0.9858908057212828,0.11747586727142333,-148.6437835693359,0.004851977806538344,0.04088033363223076,9.904765647661407e-06,-99.7440185546875,9.999999747378752e-06,0.00132682709954679,7796.86279296875,-8937.63671875,11860.5400390625,-48.89976501464844
34.0,99.73403930664062,8426.1298828125,9847.544921875,-9847.544921875,12960.470703125,-49.44778823852539,1.0,1.0355192614497355e-07,0.7251401543617249,8.0,0.9916579723358153,0.130362868309021,-146.28656005859375,0.006897659040987492,0.05154941231012344,1.0058496627607383e-05,-96.83876800537107,9.999999747378752e-06,0.0011484387796372175,8426.1298828125,-9847.544921875,12960.470703125,-49.44778823852539
35.0,78.78150939941406,9333.9072265625,11528.86328125,-11528.86328125,14833.6279296875,-51.005950927734375,1.0,1.5802008590526384e-07,0.7268856763839722,8.0,0.9918974041938781,0.1483720988035202,-145.83206176757812,0.009363911114633085,0.06157196685671806,1.0002414455811959e-05,-94.82611846923827,9.999999747378752e-06,0.001377289416268468,9333.9072265625,-11528.86328125,14833.6279296875,-51.005950927734375
36.0,62.919464111328125,10385.203125,13398.9013671875,-13398.9013671875,16952.375,-52.22150039672852,1.0,1.5391955798804702e-07,0.7276526689529419,8.0,0.9929075241088867,0.1696964055299759,-145.5201416015625,0.01271179225295782,0.07308993488550186,1.0010184269049203e-05,-93.29865264892578,9.999999747378752e-06,0.0011972954962402582,10385.203125,-13398.9013671875,16952.375,-52.22150039672852
37.0,49.86701965332031,11629.71484375,15479.3701171875,-15479.3701171875,19361.33203125,-53.08230972290039,1.0,1.7405433538897341e-07,0.7298324704170227,8.0,0.9935390353202819,0.19373644888401031,-146.54971313476562,0.01668674685060978,0.0850273296236992,1.0006359843828248e-05,-93.4674072265625,9.999999747378752e-06,0.0014513260684907436,11629.71484375,-15479.3701171875,19361.33203125,-53.08230972290039
38.0,39.72457504272461,13001.173828125,17647.125,-17647.125,21919.205078125,-53.61979675292969,1.0,1.9574586929138604e-07,0.7366572618484497,8.0,0.9941754341125488,0.21933244168758392,-146.13565063476562,0.02163156494498253,0.09744725376367569,1.0006405318563338e-05,-92.51585388183592,9.999999747378752e-06,0.0014603069284930823,13001.173828125,-17647.125,21919.205078125,-53.61979675292969
39.0,31.459732055664062,14705.990234375,20227.990234375,-20227.990234375,25008.751953125,-53.982398986816406,1.0,2.0112778997827266e-07,0.7389853596687315,8.0,0.9948614239692689,0.2502600848674774,-145.7106475830078,0.028027668595314022,0.11064447462558746,1.0006900083681103e-05,-91.72824859619139,9.999999747378752e-06,0.001405566232278943,14705.990234375,-20227.990234375,25008.751953125,-53.982398986816406
40.0,24.93350982666016,16775.958984375,23174.123046875,-23174.123046875,28608.96484375,-54.098880767822266,1.0,1.657975872149109e-07,0.7381621599197388,8.0,0.9951967000961304,0.2861860692501068,-145.2021942138672,0.03658192977309226,0.12628629803657532,1.0003370334743522e-05,-91.10330200195312,9.999999747378752e-06,0.001582991098985076,16775.958984375,-23174.123046875,28608.96484375,-54.098880767822266
41.0,19.862287521362305,19354.501953125,26749.9921875,-26749.9921875,33017.5546875,-54.11302185058594,1.0,1.1526205412337732e-07,0.7238644361495972,8.0,0.9956385493278505,0.33032214641571045,-144.72698974609375,0.04693412408232689,0.1403638571500778,1.0004439900512809e-05,-90.61395263671875,9.999999747378752e-06,0.0015114187262952328,19354.501953125,-26749.9921875,33017.5546875,-54.11302185058594
42.0,15.782828330993652,22437.2109375,30882.326171875,-30882.326171875,38172.58984375,-54.00013732910156,1.0,1.2070444199707708e-07,0.7043338418006897,8.0,0.9961413145065309,0.38191860914230347,-144.23269653320312,0.0595434419810772,0.15403267741203308,1.0005049261962993e-05,-90.23255157470705,9.999999747378752e-06,0.00159731216263026,22437.2109375,-30882.326171875,38172.58984375,-54.00013732910156
43.0,12.466754913330078,25991.291015625,35455.09765625,-35455.09765625,43961.47265625,-53.755741119384766,1.0,1.3907923346323514e-07,0.6859447360038757,8.0,0.9963416457176208,0.4397031664848328,-143.66744995117188,0.07399780303239822,0.1662834882736206,1.0002011549659072e-05,-89.91171264648438,9.999999747378752e-06,0.0015925423940643668,25991.291015625,-35455.09765625,43961.47265625,-53.755741119384766
44.0,9.973403930664062,29765.41796875,40202.3515625,-40202.3515625,50022.08984375,-53.48412322998047,1.0,1.5694931221332808e-07,0.6669660806655884,8.0,0.9969236850738524,0.5005131363868712,-143.14654541015625,0.08887887001037596,0.17546558380126953,1.000584143184824e-05,-89.66242218017578,9.999999747378752e-06,0.001600109157152474,29765.41796875,-40202.3515625,50022.08984375,-53.48412322998047
45.0,7.878151416778564,34508.50390625,45818.32421875,-45818.32421875,57359.87890625,-53.01442337036133,1.0,1.3117841035636957e-07,0.6353331208229065,8.0,0.99723219871521,0.5737763047218323,-142.48056030273435,0.10452373325824736,0.18000054359436035,1.0003094757848883e-05,-89.46613311767578,9.999999747378752e-06,0.0014028424629941583,34508.50390625,-45818.32421875,57359.87890625,-53.01442337036133
46.0,6.275100231170654,39569.37109375,51489.2578125,-51489.2578125,64937.5,-52.45780944824219,1.0,1.375055518337831e-07,0.5945512652397156,8.0,0.9975112676620483,0.6495567560195923,-141.76876831054688,0.11611511558294296,0.176638662815094,1.0002798262576105e-05,-89.31096649169923,9.999999747378752e-06,0.0013609557645395398,39569.37109375,-51489.2578125,64937.5,-52.45780944824219
47.0,5.013369083404541,44405.76171875,56577.65625,-56577.65625,71922.8984375,-51.87290954589844,1.0,1.469709758339377e-07,0.5621411204338074,8.0,0.9981337785720824,0.7196776866912842,-141.05552673339844,0.12492450326681136,0.17152661085128784,1.0006240700022316e-05,-89.1826171875,9.999999747378752e-06,0.0010429301764816044,44405.76171875,-56577.65625,71922.8984375,-51.87290954589844
