# point,freq,zreal,reflected_zimag,zimag,zmod,zphz,zsig,Idc,Vdc,ie_range,gain,vmod,vphz,vsig,vthd,imod,iphz,isig,ithd,zreal_drift,zimag_drift,zmod_drift,zphz_drift
0.0,250019.53125,45915.25,63207.8203125,-63207.8203125,78124.5078125,-54.00469970703125,1.0,4.909052790935675e-07,0.7708885073661805,8.0,0.01502393279224634,0.11041101068258284,56.10409927368164,0.013027514331042767,0.11647403240203856,1.4132698424873524e-06,110.10879516601562,9.999999747378752e-06,0.26867565512657166,45915.25,-63207.8203125,78124.5078125,-54.00469970703125
1.0,198691.40625,57126.796875,71588.609375,-71588.609375,91588.2109375,-51.41058349609375,1.0,5.04110516885703e-07,0.8114410638809203,8.0,0.01617269590497017,0.13933604955673215,-129.57083129882812,0.014101804234087467,0.09545066952705385,1.5213315691653406e-06,-78.16025543212889,9.999999747378752e-06,0.23020638525485992,57126.796875,-71588.609375,91588.2109375,-51.41058349609375
2.0,157792.96875,74051.875,79642.1796875,-79642.1796875,108749.9765625,-47.08309555053711,1.0,4.774842636834364e-07,0.8373275995254515,8.0,0.017174016684293747,0.17568817734718323,64.32483673095703,0.01780315861105919,0.09376911818981169,1.615523729014967e-06,111.4079360961914,9.999999747378752e-06,0.2600113451480865,74051.875,-79642.1796875,108749.9765625,-47.08309555053711
3.0,125332.03125,90100.6640625,83462.7578125,-83462.7578125,122817.59375,-42.80979919433594,1.0,4.803263209396391e-07,0.8579108119010925,8.0,0.019127754494547844,0.22098666429519653,-105.3890380859375,0.02107548527419567,0.09239693731069565,1.7993078245126524e-06,-62.57923889160156,9.999999747378752e-06,0.2372145652770996,90100.6640625,-83462.7578125,122817.59375,-42.80979919433594
4.0,99550.78125,109259.7421875,84748.8671875,-84748.8671875,138275.3125,-37.79945373535156,1.0,2.792059490275279e-07,0.8652553558349609,8.0,0.020828226581215855,0.2709183394908905,-32.36574172973633,0.011166347190737724,0.0377139151096344,1.9592675926105585e-06,5.433708190917969,9.999999747378752e-06,0.07677531242370605,109259.7421875,-84748.8671875,138275.3125,-37.79945373535156
5.0,79160.15625,127900.0859375,81473.9296875,-81473.9296875,151645.75,-32.49763870239258,1.0,2.56448004165577e-07,0.87458336353302,8.0,0.0242916252464056,0.34651994705200195,-144.94491577148435,0.022783154621720317,0.05239498987793922,2.285062237206148e-06,-112.44728088378906,9.999999747378752e-06,0.09739001840353011,127900.0859375,-81473.9296875,151645.75,-32.49763870239258
6.0,62871.09375,144580.3125,75055.9921875,-75055.9921875,162901.40625,-27.435184478759766,1.0,2.427646563774033e-07,0.8777751326560974,8.0,0.028661204501986504,0.4391984343528748,-168.44570922851562,0.028645401820540428,0.0637403205037117,2.6960995000990806e-06,-141.01051330566406,9.999999747378752e-06,0.10875459760427474,144580.3125,-75055.9921875,162901.40625,-27.435184478759766
7.0,49980.46875,157540.078125,66052.1953125,-66052.1953125,170826.71875,-22.74695587158203,1.0,2.3624892264706435e-07,0.8708131313323975,8.0,0.034481056034564965,0.5540868639945984,-164.45834350585935,0.03729783371090889,0.06649189442396164,3.2435607408842766e-06,-141.7113800048828,9.999999747378752e-06,0.12376649677753448,157540.078125,-66052.1953125,170826.71875,-22.74695587158203
8.0,39667.96875,167548.5,56270.9921875,-56270.9921875,176745.359375,-18.564573287963867,1.0,2.2381223629963642e-07,0.8852477073669434,8.0,0.04204471409320831,0.6990382075309753,53.08746719360352,0.05567599460482597,0.07846502959728241,3.955058218707563e-06,71.65204620361328,9.999999747378752e-06,0.11821942776441574,167548.5,-56270.9921875,176745.359375,-18.564573287963867
9.0,31582.03125,174835.46875,47132.43359375,-47132.43359375,181077.078125,-15.08723258972168,1.0,2.1512906300813486e-07,0.885908305644989,8.0,0.051570463925600045,0.8784275650978088,116.14698791503906,0.07012814283370972,0.07875506579875946,4.851125595450866e-06,131.23422241210935,9.999999747378752e-06,0.10868196189403533,174835.46875,-47132.43359375,181077.078125,-15.08723258972168
10.0,25019.53125,179646.875,38979.078125,-38979.078125,183827.0,-12.242055892944336,1.0,2.1718048515140254e-07,0.8922827243804932,8.0,0.06413187831640244,1.1089825630187988,-78.08551025390625,0.09276574105024336,0.08264736831188203,6.032751571183326e-06,-65.84345245361328,9.999999747378752e-06,0.0990831181406975,179646.875,-38979.078125,183827.0,-12.242055892944336
11.0,19863.28125,183190.6875,31757.041015625,-31757.041015625,185922.9375,-9.8347749710083,1.0,2.5106527345997165e-07,0.9022572040557859,8.0,0.07986243069171906,1.3967444896697998,73.56808471679686,0.11226624250411989,0.07930212467908859,7.512491720262915e-06,83.40286254882812,9.999999747378752e-06,0.0902990773320198,183190.6875,-31757.041015625,185922.9375,-9.8347749710083
12.0,15682.8701171875,185317.078125,25712.375,-25712.375,187092.34375,-7.8992438316345215,1.0,2.9497243758669356e-07,0.8949590921401978,8.0,0.10044372081756592,1.7677478790283203,-72.96347045898438,0.14177432656288147,0.07919958978891373,9.448530363442842e-06,-65.06422424316406,9.999999747378752e-06,0.08690348267555235,185317.078125,-25712.375,187092.34375,-7.8992438316345215
13.0,12597.65625,186879.40625,21025.5234375,-21025.5234375,188058.46875,-6.419268608093262,1.0,2.5454951924075436e-07,0.9080734252929688,8.0,0.12432804703712463,2.1993961334228516,-109.50916290283205,0.1757580190896988,0.0789264142513275,1.1695278772094753e-05,-103.08989715576172,1.0159028533962555e-06,0.08412938565015791,186879.40625,-21025.5234375,188058.46875,-6.419268608093262
14.0,9895.8330078125,187599.3125,16882.466796875,-16882.466796875,188357.421875,-5.1423187255859375,1.0,2.2718582215475183e-07,0.9143400788307189,8.0,0.18231727182865143,2.7621130943298335,-123.21401977539062,0.2099981904029846,0.07512864470481873,1.4664210539194755e-05,-118.0717086791992,1.1862611017932068e-06,0.07977204769849777,187599.3125,-16882.466796875,188357.421875,-5.1423187255859375
15.0,7910.15625,188020.1875,13917.7158203125,-13917.7158203125,188534.59375,-4.2334532737731925,1.0,1.719451034887243e-07,0.8932929039001466,8.0,0.3045357167720794,3.149208784103393,-87.24141693115233,0.17919990420341492,0.05619805306196213,1.6703614164725877e-05,-83.00796508789062,9.826620726016701e-07,0.05698723718523979,188020.1875,-13917.7158203125,188534.59375,-4.2334532737731925
16.0,6307.87060546875,188508.25,11473.2216796875,-11473.2216796875,188857.078125,-3.48291015625,1.0,1.657242023611616e-07,0.8754814267158508,8.0,0.4940611720085144,3.0639081001281734,-7.52410840988159,0.0436871126294136,0.013979275710880756,1.622342279006261e-05,-4.041197776794434,9.999999747378752e-06,0.013797073625028132,188508.25,-11473.2216796875,188857.078125,-3.48291015625
17.0,4973.3232421875,189116.125,9729.640625,-9729.640625,189366.25,-2.9451549053192134,1.0,1.3870024417883542e-07,0.8658327460289001,8.0,0.592598021030426,2.271339178085327,-92.45433807373047,0.005024528596550225,0.00036846610601060087,1.1994425221928395e-05,-89.5091781616211,9.999999747378752e-06,0.0005800073849968612,189116.125,-9729.640625,189366.25,-2.9451549053192134
18.0,3944.3598632812495,189222.078125,8084.120117187501,-8084.120117187501,189394.6875,-2.4463553428649902,1.0,1.4804146530877918e-07,0.8632023334503175,8.0,0.6898447275161743,2.2047479152679443,19.321088790893555,0.004685717169195414,0.0004117583739571273,1.164102377515519e-05,21.767444610595703,9.999999747378752e-06,0.000649019202683121,189222.078125,-8084.120117187501,189394.6875,-2.4463553428649902
19.0,3144.054931640625,189392.828125,6939.38330078125,-6939.38330078125,189519.921875,-2.0983877182006836,1.0,1.586282110110915e-07,0.8626655340194702,8.0,0.771903395652771,2.1206376552581787,76.78995513916014,0.005226967856287956,0.0022755078971385956,1.1189523320354056e-05,78.88833618164062,9.999999747378752e-06,0.000599229708313942,189392.828125,-6939.38330078125,189519.921875,-2.0983877182006836
20.0,2488.426025390625,189560.0,6080.134765625,-6080.134765625,189657.484375,-1.83713161945343,1.0,1.712918731300306e-07,0.8690994381904602,8.0,0.840148091316223,2.064253091812134,142.019775390625,0.005783348809927702,0.002748745260760188,1.0884109542530496e-05,143.85690307617188,9.999999747378752e-06,0.0007076397305354476,189560.0,-6080.134765625,189657.484375,-1.83713161945343
21.0,1976.6566162109373,189691.90625,5454.04541015625,-5454.04541015625,189770.296875,-1.6469217538833618,1.0,1.6222452359215822e-07,0.8737574219703673,8.0,0.8928511142730714,2.016747236251831,-133.58493041992188,0.004094161093235016,0.000585350557230413,1.0627306437527295e-05,-131.93801879882812,9.999999747378752e-06,0.0009711392922326921,189691.90625,-5454.04541015625,189770.296875,-1.6469217538833618
22.0,1582.03125,189842.703125,5081.83740234375,-5081.83740234375,189910.71875,-1.5333658456802368,1.0,1.3943707699581864e-07,0.8719446659088135,8.0,0.9309784173965454,1.9802043437957764,106.0138473510742,0.006337471306324005,0.0006030495278537273,1.0427028428239282e-05,107.54721069335936,9.999999747378752e-06,0.0007950831204652785,189842.703125,-5081.83740234375,189910.71875,-1.5333658456802368
23.0,1253.6336669921875,190006.03125,4904.1171875,-4904.1171875,190069.3125,-1.47849440574646,1.0,1.3406051380115969e-07,0.8684228658676147,8.0,0.9580946564674376,1.9560538530349727,145.0723114013672,0.002201992087066173,0.0007487975526601075,1.0291266335116232e-05,146.55079650878906,9.999999747378752e-06,0.000694554764777422,190006.03125,-4904.1171875,190069.3125,-1.47849440574646
24.0,996.09375,190258.921875,4902.37060546875,-4902.37060546875,190322.0625,-1.4760044813156128,1.0,1.4547862292602076e-07,0.8683466911315918,8.0,0.977360725402832,1.941492199897766,-10.00334358215332,0.006665760651230812,0.0008620833395980297,1.0201087206951343e-05,-8.527338027954102,9.999999747378752e-06,0.0010266137542203069,190258.921875,-4902.37060546875,190322.0625,-1.4760044813156128
25.0,790.028076171875,190527.71875,5008.51220703125,-5008.51220703125,190593.53125,-1.505820393562317,1.0,1.3749067306889629e-07,0.865602970123291,8.0,0.9893856048583984,1.9293848276138303,-124.41094207763672,0.00418824004009366,0.0009484131005592643,1.0123034371645188e-05,-122.9051284790039,9.999999747378752e-06,0.0010000232141464949,190527.71875,-5008.51220703125,190593.53125,-1.505820393562317
26.0,628.8109741210938,190817.8125,5291.49609375,-5291.49609375,190891.171875,-1.5884402990341187,1.0,1.4694582262109182e-07,0.865601658821106,8.0,0.9971193671226499,1.923833131790161,89.48071289062499,0.0058482615277171135,0.0010090938303619623,1.0078167179017328e-05,91.06915283203124,9.999999747378752e-06,0.0012923754984512923,190817.8125,-5291.49609375,190891.171875,-1.5884402990341187
27.0,496.3235168457031,187074.96875,13956.5771484375,-13956.5771484375,187594.859375,-4.2666015625,1.0,1.3283126065744002e-07,0.8680697083473204,8.0,0.9723031520843504,1.829260230064392,123.68421936035156,0.005477295722812414,0.0004107355780433864,9.751121069712097e-06,127.95082092285156,9.999999747378752e-06,0.0004118740907870233,187074.96875,-13956.5771484375,187594.859375,-4.2666015625
28.0,395.3313293457031,189042.6875,13134.1298828125,-13134.1298828125,189498.40625,-3.974355697631836,1.0,1.444645931769628e-07,0.8759164214134216,8.0,0.9946769475936889,1.938589692115784,88.89038085937501,0.005707899574190377,0.0008109649643301965,1.023011100187432e-05,92.86473846435545,9.999999747378752e-06,0.0005157853593118489,189042.6875,-13134.1298828125,189498.40625,-3.974355697631836
29.0,315.5048217773437,190526.921875,12536.1103515625,-12536.1103515625,190938.90625,-3.7644672393798824,1.0,1.6048008433244834e-07,0.8804219961166381,8.0,1.0035445690155027,1.9264113903045652,-142.1636199951172,0.0025773292873054743,0.0011919745011255145,1.008915114653064e-05,-138.39913940429688,9.999999747378752e-06,0.0005765268579125404,190526.921875,-12536.1103515625,190938.90625,-3.7644672393798824
30.0,249.33511352539065,191646.8125,12264.908203125,-12264.908203125,192038.875,-3.6617903709411617,1.0,1.6637463318147638e-07,0.8873287439346313,8.0,1.0071461200714111,1.9272806644439695,84.51959991455078,0.003830785630270839,0.0016353130340576172,1.0035888408310711e-05,88.18138885498048,9.999999747378752e-06,0.0008030210738070309,191646.8125,-12264.908203125,192038.875,-3.6617903709411617
31.0,198.6228790283203,192778.28125,12428.9443359375,-12428.9443359375,193178.53125,-3.688910484313965,1.0,1.5823667354197826e-07,0.8794945478439331,8.0,1.005887746810913,1.9293713569641116,70.91300201416016,0.004773051477968693,0.0024107743520289655,9.987505109165795e-06,74.60191345214844,9.999999747378752e-06,0.0010141049278900027,192778.28125,-12428.9443359375,193178.53125,-3.688910484313965
32.0,158.005615234375,193897.828125,13068.7060546875,-13068.7060546875,194337.75,-3.855901718139648,1.0,1.5509340300923213e-07,0.8714614510536195,8.0,1.0032280683517456,1.9382389783859248,129.2854766845703,0.0072932168841362,0.003220789600163698,9.973558917408807e-06,133.14137268066406,9.999999747378752e-06,0.0013370374217629433,193897.828125,-13068.7060546875,194337.75,-3.855901718139648
33.0,125.5580368041992,194959.609375,13778.609375,-13778.609375,195445.90625,-4.042610168457031,1.0,1.543240415458058e-07,0.8746352195739746,8.0,0.9924540519714355,1.9334694147109983,-104.91055297851562,0.008039833046495914,0.00397913483902812,9.892606612993404e-06,-100.86795043945312,9.999999747378752e-06,0.0011985072633251548,194959.609375,-13778.609375,195445.90625,-4.042610168457031
34.0,99.73403930664062,195772.3125,14201.2734375,-14201.2734375,196286.71875,-4.148953914642334,1.0,1.368478308449994e-07,0.9153921008110046,8.0,0.9988626241683961,1.975541949272156,-102.07213592529295,0.01040026918053627,0.0051371785812079915,1.0064572961709928e-05,-97.92317962646483,9.999999747378752e-06,0.0005807280540466309,195772.3125,-14201.2734375,196286.71875,-4.148953914642334
35.0,78.78150939941406,197213.390625,15418.9638671875,-15418.9638671875,197815.234375,-4.4705281257629395,1.0,1.2847587527176074e-07,0.9185063242912291,8.0,0.9984599947929382,1.977354884147644,-100.11615753173828,0.013561793603003023,0.006650404538959265,9.995968866860494e-06,-95.6456298828125,9.999999747378752e-06,0.0005963700241409241,197213.390625,-15418.9638671875,197815.234375,-4.4705281257629395
36.0,62.919464111328125,199128.359375,16629.705078125,-16629.705078125,199821.546875,-4.7738356590271,1.0,1.3628661577058665e-07,0.9172070622444154,8.0,0.9985979795455933,1.9984915256500244,-98.67930603027344,0.01762343943119049,0.008596550673246382,1.0001382179325446e-05,-93.9054718017578,9.999999747378752e-06,0.0005546779721044004,199128.359375,-16629.705078125,199821.546875,-4.7738356590271
37.0,49.86701965332031,200191.53125,18820.068359375,-18820.068359375,201074.21875,-5.370609283447266,1.0,1.3343618832095674e-07,0.9155299067497251,8.0,0.999051809310913,2.011656045913696,-99.3197021484375,0.0223658699542284,0.010977473109960556,1.000454449240351e-05,-93.9490966796875,9.999999747378752e-06,0.0005082385032437742,200191.53125,-18820.068359375,201074.21875,-5.370609283447266
38.0,39.72457504272461,202105.84375,20799.890625,-20799.890625,203173.34375,-5.875955581665039,1.0,1.4251511970542197e-07,0.9162695407867432,8.0,0.9992284774780272,2.032092809677124,-98.75042724609376,0.027394736185669896,0.013307297602295876,1.00017687145737e-05,-92.8744659423828,9.999999747378752e-06,0.0007121565868146718,202105.84375,-20799.890625,203173.34375,-5.875955581665039
39.0,31.459732055664062,204242.609375,23271.16015625,-23271.16015625,205564.078125,-6.500181198120117,1.0,1.2607530663899524e-07,0.9078168272972107,8.0,0.9993857741355897,2.055964469909668,-98.46922302246092,0.038666613399982445,0.01856471039354801,1.000157408270752e-05,-91.96903991699217,9.999999747378752e-06,0.0006837978144176304,204242.609375,-23271.16015625,205564.078125,-6.500181198120117
40.0,24.93350982666016,206675.8125,26041.9453125,-26041.9453125,208310.046875,-7.181640148162842,1.0,1.3030293644078486e-07,0.9034275412559507,8.0,0.9995610713958739,2.083465814590454,-98.48207855224608,0.04410520195960999,0.020885566249489784,1.0001754162658472e-05,-91.30043792724608,9.999999747378752e-06,0.0004582270048558712,206675.8125,-26041.9453125,208310.046875,-7.181640148162842
41.0,19.862287521362305,209516.640625,29134.291015625,-29134.291015625,211532.5625,-7.916488170623779,1.0,1.4755867994153962e-07,0.8915370106697081,8.0,0.9995769858360289,2.1153593063354488,-98.64934539794922,0.05652788653969765,0.026375999674201008,1.000015890895156e-05,-90.73285675048828,9.999999747378752e-06,0.0005714307189919056,209516.640625,-29134.291015625,211532.5625,-7.916488170623779
42.0,15.782828330993652,213438.15625,33813.86328125,-33813.86328125,216100.03125,-9.002246856689453,1.0,9.055744953911926e-08,0.8383716940879821,8.0,0.9998396039009094,2.1615681648254395,-99.3177719116211,0.0696922242641449,0.03185902535915375,1.0002627277572172e-05,-90.31552886962889,9.999999747378752e-06,0.00034713416243903333,213438.15625,-33813.86328125,216100.03125,-9.002246856689453
43.0,12.466754913330078,217940.5625,38856.83984375,-38856.83984375,221377.375,-10.109100341796877,1.0,9.395298405934227e-08,0.7975832223892213,8.0,0.9997078776359558,2.213482141494751,-100.06055450439452,0.08639995753765106,0.03856028616428375,9.998682799050584e-06,-89.95146179199217,9.999999747378752e-06,0.00028793647652491927,217940.5625,-38856.83984375,221377.375,-10.109100341796877
44.0,9.973403930664062,222613.078125,43866.390625,-43866.390625,226893.90625,-11.147439002990723,1.0,9.160125102880556e-08,0.7538583874702453,8.0,0.9997322559356688,2.268994092941284,-100.83463287353516,0.10163123160600662,0.04425689578056336,1.0000243491958827e-05,-89.68719482421875,9.999999747378752e-06,0.0003840300487354398,222613.078125,-43866.390625,226893.90625,-11.147439002990723
45.0,7.878151416778564,227685.40625,48938.23046875,-48938.23046875,232885.375,-12.130480766296387,1.0,1.0408416528662201e-07,0.7105116248130798,8.0,0.9999635815620422,2.329392671585083,-101.59803009033205,0.11437868326902388,0.04851934313774109,1.0002314411394764e-05,-89.46755981445312,9.999999747378752e-06,0.0002854939375538379,227685.40625,-48938.23046875,232885.375,-12.130480766296387
46.0,6.275100231170654,233022.8125,53972.21875,-53972.21875,239191.625,-13.040766716003416,1.0,1.210626834335926e-07,0.6522707939147949,8.0,0.9997809529304504,2.3914794921875,-102.32008361816406,0.12181981652975082,0.05033561214804649,9.998173482017592e-06,-89.27931976318358,9.999999747378752e-06,0.0003101929323747754,233022.8125,-53972.21875,239191.625,-13.040766716003416
47.0,5.013369083404541,238320.578125,58682.16796875,-58682.16796875,245438.984375,-13.832876205444336,1.0,1.5227188043809292e-07,0.5908512473106384,8.0,0.9998366832733153,2.454526662826538,-102.98668670654295,0.12529954314231873,0.050380852073431015,1.0000557267630938e-05,-89.15380096435545,9.999999747378752e-06,0.00023122582933865488,238320.578125,-58682.16796875,245438.984375,-13.832876205444336
48.0,3.939075708389282,244018.03125,63573.33203125,-63573.33203125,252163.375,-14.602505683898924,1.0,1.6539088676381652e-07,0.5194455981254578,8.0,1.000148057937622,2.522418975830078,-103.6348876953125,0.1256912797689438,0.04923681914806365,1.0003114766732324e-05,-89.03237915039062,9.999999747378752e-06,0.0001737423735903576,244018.03125,-63573.33203125,252163.375,-14.602505683898924
49.0,3.137550115585327,249142.03125,68220.7109375,-68220.7109375,258313.40625,-15.313512802124023,1.0,1.531020359379909e-07,0.44792988896369934,8.0,1.0004858970642088,2.5840063095092773,-104.23365020751952,0.12299612164497375,0.04703349620103836,1.0003377610701136e-05,-88.92012786865233,9.999999747378752e-06,0.0001777449215296656,249142.03125,-68220.7109375,258313.40625,-15.313512802124023
