# point,freq,zreal,reflected_zimag,zimag,zmod,zphz,zsig,Idc,Vdc,ie_range,gain,vmod,vphz,vsig,vthd,imod,iphz,isig,ithd,zreal_drift,zimag_drift,zmod_drift,zphz_drift
0.0,100019.53125,1742.868408203125,203.93930053710935,-203.93930053710935,1754.7596435546875,-6.67403507232666,1.0,2.585256027032301e-07,0.028957564383745197,8.0,0.026396995410323143,0.004357261583209038,-78.69561767578125,0.00288591324351728,0.6523875594139099,2.4831099381117383e-06,-72.0215835571289,9.999999747378752e-06,0.10082189738750456,1742.868408203125,-203.93930053710935,1754.7596435546875,-6.67403507232666
1.0,79511.71875,16737.79296875,1560.122314453125,-1560.122314453125,16810.345703125,-5.325128555297852,1.0,2.377370265094214e-07,0.21627314388751984,8.0,0.032986760139465325,0.05216242372989655,-90.80136108398435,0.00439014146104455,0.05849885940551758,3.1029953788674902e-06,-85.47624206542967,9.999999747378752e-06,0.06271214783191681,16737.79296875,-1560.122314453125,16810.345703125,-5.325128555297852
2.0,63105.46875,16914.71875,1482.64208984375,-1482.64208984375,16979.57421875,-5.009398460388184,1.0,2.1132095184839275e-07,0.23697152733802795,8.0,0.04113290458917618,0.06569882482290268,-65.07061767578125,0.0049021560698747635,0.07049240171909332,3.869286047120113e-06,-60.061222076416016,9.999999747378752e-06,0.09372163563966752,16914.71875,-1482.64208984375,16979.57421875,-5.009398460388184
3.0,50214.84375,17060.732421875,1514.729248046875,-1514.729248046875,17127.841796875,-5.073676109313965,1.0,1.8477044250175825e-07,0.29201805591583246,8.0,0.05114483833312988,0.08240355551242828,-156.0759124755859,0.00643399590626359,0.07679840922355652,4.811087819689419e-06,-151.0022430419922,9.999999747378752e-06,0.08139678835868835,17060.732421875,-1514.729248046875,17127.841796875,-5.073676109313965
4.0,39902.34375,17325.154296875,1497.37939453125,-1497.37939453125,17389.7421875,-4.939687728881836,1.0,1.6503560118508179e-07,0.31776586174964905,8.0,0.06330105662345886,0.10354890674352644,58.56504821777344,0.009410726837813854,0.08384484797716141,5.954597781965276e-06,63.50473785400391,9.999999747378752e-06,0.0865786001086235,17325.154296875,-1497.37939453125,17389.7421875,-4.939687728881836
5.0,31699.21875,17410.7265625,1645.79638671875,-1645.79638671875,17488.33984375,-5.399994373321533,1.0,1.5867510683165165e-07,0.31766530871391296,8.0,0.07912405580282211,0.13016630709171295,-23.300729751586918,0.010667810216546059,0.08076890558004379,7.443034064635867e-06,-17.90073585510254,9.999999747378752e-06,0.0863717645406723,17410.7265625,-1645.79638671875,17488.33984375,-5.399994373321533
6.0,25136.71875,17608.646484375,1681.18798828125,-1681.18798828125,17688.720703125,-5.45379114151001,1.0,1.6973028493794118e-07,0.3470543920993805,8.0,0.09848415106534956,0.1638717949390411,170.5395965576172,0.013441485352814196,0.08085901290178299,9.264197615266314e-06,175.99337768554688,9.999999747378752e-06,0.08466011285781859,17608.646484375,-1681.18798828125,17688.720703125,-5.45379114151001
7.0,19980.46875,17742.8828125,1804.54296875,-1804.54296875,17834.412109375,-5.807308673858643,1.0,1.933924380637109e-07,0.3314666748046875,8.0,0.12274622172117232,0.20592467486858368,160.39053344726562,0.01585479266941547,0.07604402303695679,1.154647998191649e-05,166.1978302001953,1.0207538707618369e-06,0.08698198944330214,17742.8828125,-1804.54296875,17834.412109375,-5.807308673858643
8.0,15878.90625,17916.92578125,1915.9107666015625,-1915.9107666015625,18019.072265625,-6.103616237640381,1.0,1.468788042302549e-07,0.3321046829223633,8.0,0.17440854012966156,0.2560306787490845,-33.40205764770508,0.0200281273573637,0.07711802423000334,1.4208872016752139e-05,-27.29844284057617,1.207850914397568e-06,0.08198001980781555,17916.92578125,-1915.9107666015625,18019.072265625,-6.103616237640381
9.0,12597.65625,18136.6015625,2048.82177734375,-2048.82177734375,18251.958984375,-6.445158958435059,1.0,1.0438650122068793e-07,0.341325044631958,8.0,0.2834343612194061,0.2966158092021942,-107.0192413330078,0.0175907202064991,0.05854572728276253,1.6251175111392513e-05,-100.57408905029295,1.0503810017326032e-06,0.06188752502202988,18136.6015625,-2048.82177734375,18251.958984375,-6.445158958435059
10.0,10019.53125,18410.857421875,2265.394775390625,-2265.394775390625,18549.708984375,-7.014794826507568,1.0,5.7435016742601874e-08,0.32165190577507013,8.0,0.45512601733207697,0.2978627681732178,101.93138885498045,0.005181110464036465,0.017149971798062325,1.605754550837446e-05,108.94618225097656,9.999999747378752e-06,0.025082299485802647,18410.857421875,-2265.394775390625,18549.708984375,-7.014794826507568
11.0,7928.24072265625,18713.38671875,2501.8203125,-2501.8203125,18879.8828125,-7.614803791046143,1.0,6.515912787108391e-08,0.3031271696090698,8.0,0.5635843873023987,0.23379033803939817,63.54562377929688,0.0008002834510989486,0.000686256680637598,1.2383039575070143e-05,71.16043090820312,9.999999747378752e-06,0.012005104683339596,18713.38671875,-2501.8203125,18879.8828125,-7.614803791046143
12.0,6307.87060546875,19015.294921875,2748.72705078125,-2748.72705078125,19212.935546875,-8.22532844543457,1.0,7.224403475447616e-08,0.30224660038948054,8.0,0.6369615793228148,0.21714411675930023,4.730087757110596,0.0008885000133886933,0.0005102414870634675,1.1301974154775962e-05,12.95541763305664,9.999999747378752e-06,0.001956176245585084,19015.294921875,-2748.72705078125,19212.935546875,-8.22532844543457
13.0,5034.72216796875,19359.890625,3079.619140625,-3079.619140625,19603.302734375,-9.038434028625488,1.0,6.969903409981271e-08,0.29119959473609924,8.0,0.6814863085746765,0.20973607897758484,6.8773956298828125,0.0007569120498374104,0.0004744554171338677,1.0699017366277984e-05,15.915827751159668,9.999999747378752e-06,0.001338625675998628,19359.890625,-3079.619140625,19603.302734375,-9.038434028625488
14.0,3993.0556640625,19719.083984375,3382.728515625,-3382.728515625,20007.126953125,-9.734110832214355,1.0,7.488308284564482e-08,0.2951972484588623,8.0,0.753251552581787,0.2211401462554932,40.504337310791016,0.0007439101464115083,0.0008756485767662525,1.1053069101762956e-05,50.23844909667969,9.999999747378752e-06,0.0016849361127242444,19719.083984375,-3382.728515625,20007.126953125,-9.734110832214355
15.0,3144.054931640625,20118.169921875,3754.509033203125,-3754.509033203125,20465.509765625,-10.571094512939451,1.0,7.40876942018076e-08,0.2984793484210968,8.0,0.8114124536514281,0.22045718133449557,70.61483001708984,0.0006710212910547853,0.0029265354387462135,1.077213164535351e-05,81.18592834472656,9.999999747378752e-06,0.001995085040107369,20118.169921875,-3754.509033203125,20465.509765625,-10.571094512939451
16.0,2519.53125,20533.248046875,4151.701171875,-4151.701171875,20948.767578125,-11.430757522583008,1.0,7.1583542649023e-08,0.30039143562316895,8.0,0.8511998653411865,0.21975985169410703,9.052417755126951,0.0009621591889299452,0.004125596955418587,1.0490347449376712e-05,20.48317527770996,9.999999747378752e-06,0.002306960988789797,20533.248046875,-4151.701171875,20948.767578125,-11.430757522583008
17.0,2000.76220703125,21028.861328125,4640.65478515625,-4640.65478515625,21534.826171875,-12.44459056854248,1.0,7.780784727628996e-08,0.2976209223270416,8.0,0.8839839696884155,0.2236424386501312,40.14905548095703,0.0009662812226451932,0.00325282639823854,1.0385151654190848e-05,52.593647003173835,9.999999747378752e-06,0.0025380353908985853,21028.861328125,-4640.65478515625,21534.826171875,-12.44459056854248
18.0,1580.6685791015625,21557.59765625,5177.08447265625,-5177.08447265625,22170.525390625,-13.503928184509276,1.0,8.330167844405878e-08,0.30370980501174927,8.0,0.9094483852386473,0.22809177637100217,96.84696960449217,0.0010537280468270183,0.004465651698410511,1.0288064004271291e-05,110.35089111328124,9.999999747378752e-06,0.0026326789520680904,21557.59765625,-5177.08447265625,22170.525390625,-13.503928184509276
19.0,1253.6336669921875,22150.947265625,5776.4951171875,-5776.4951171875,22891.75390625,-14.615999221801756,1.0,9.331780148613689e-08,0.30928125977516174,8.0,0.9281746745109558,0.23363114893436432,135.2111663818359,0.0013494555605575442,0.00571901910007,1.020590843836544e-05,149.8271484375,9.999999747378752e-06,0.0028629654552787542,22150.947265625,-5776.4951171875,22891.75390625,-14.615999221801756
20.0,1000.7022705078124,22809.869140625,6462.68212890625,-6462.68212890625,23707.728515625,-15.818928718566895,1.0,8.980950383374875e-08,0.3039184808731079,8.0,0.9433473348617551,0.240952730178833,17.09282112121582,0.001745043322443962,0.006891230586916208,1.0163467777601907e-05,32.911746978759766,9.999999747378752e-06,0.0047172969207167625,22809.869140625,-6462.68212890625,23707.728515625,-15.818928718566895
21.0,790.028076171875,23559.734375,7259.4375,-7259.4375,24652.798828125,-17.12558364868164,1.0,8.744905244384425e-08,0.3061732351779938,8.0,0.9530762434005736,0.24907046556472776,-140.36273193359375,0.002190880477428436,0.00825838278979063,1.0103131899086293e-05,-123.23712921142578,9.999999747378752e-06,0.003017759416252374,23559.734375,-7259.4375,24652.798828125,-17.12558364868164
22.0,628.8109741210938,24349.255859375,8121.04931640625,-8121.04931640625,25667.833984375,-18.444755554199215,1.0,9.295274594478542e-08,0.31002941727638245,8.0,0.9624015688896179,0.2591897845268249,75.11027526855469,0.00267550116404891,0.00974155217409134,1.0097844096890183e-05,93.5550308227539,9.999999747378752e-06,0.002916400786489248,24349.255859375,-8121.04931640625,25667.833984375,-18.444755554199215
23.0,502.2321472167969,24243.375,9942.1728515625,-9942.1728515625,26202.82421875,-22.2984619140625,1.0,9.669877698570416e-08,0.32267579436302185,8.0,0.9394022822380066,0.2557663321495056,149.37466430664062,0.0020281209144741297,0.0073454808443784705,9.761021829035599e-06,171.67312622070312,9.999999747378752e-06,0.0018098028376698492,24243.375,-9942.1728515625,26202.82421875,-22.2984619140625
24.0,400.1524353027344,25399.970703125,10926.2685546875,-10926.2685546875,27650.3515625,-23.275854110717773,1.0,8.993012556857138e-08,0.32745400071144104,8.0,0.9645310640335085,0.28389987349510193,107.47486877441406,0.003094007261097431,0.010599730536341667,1.02674976005801e-05,130.7507171630859,9.999999747378752e-06,0.0019800250884145494,25399.970703125,-10926.2685546875,27650.3515625,-23.275854110717773
25.0,315.5048217773437,26691.46484375,12119.791015625,-12119.791015625,29314.22265625,-24.421369552612305,1.0,9.718775828559956e-08,0.33059972524642944,8.0,0.9768933057785033,0.29689937829971313,-162.2876739501953,0.003987204749137163,0.013209394179284573,1.0128168469236698e-05,-137.86630249023435,9.999999747378752e-06,0.002002176130190492,26691.46484375,-12119.791015625,29314.22265625,-24.421369552612305
26.0,252.01612854003903,27928.833984375,13366.544921875,-13366.544921875,30962.626953125,-25.5754508972168,1.0,1.0647377735040209e-07,0.34147778153419495,8.0,0.9828532934188842,0.31151527166366577,81.88538360595702,0.004941210616379976,0.015673283487558365,1.006100956146838e-05,107.46083831787108,9.999999747378752e-06,0.002299685962498188,27928.833984375,-13366.544921875,30962.626953125,-25.5754508972168
27.0,200.3205108642578,29327.859375,14917.6669921875,-14917.6669921875,32903.80078125,-26.96024513244629,1.0,1.0076119849600219e-07,0.3422537744045257,8.0,0.9849404096603392,0.3297367393970489,59.38448715209961,0.0060342024080455295,0.01807585544884205,1.0021235539170448e-05,86.34473419189453,9.999999747378752e-06,0.0021342837717384096,29327.859375,-14917.6669921875,32903.80078125,-26.96024513244629
28.0,158.005615234375,31090.1953125,17112.7890625,-17112.7890625,35488.69921875,-28.829439163208008,1.0,1.0240498227176432e-07,0.31052255630493164,8.0,0.9833630919456482,0.35431864857673645,103.694091796875,0.007102755829691887,0.01978936791419983,9.983985364669934e-06,132.52354431152344,9.999999747378752e-06,0.0023260165471583605,31090.1953125,-17112.7890625,35488.69921875,-28.829439163208008
29.0,125.5580368041992,32878.7421875,19537.73828125,-19537.73828125,38245.71875,-30.720312118530277,1.0,1.020783457761354e-07,0.28744626045227045,8.0,0.9765909910202025,0.37982332706451416,-132.88018798828125,0.008726860396564007,0.02260373719036579,9.931133718055207e-06,-102.15987396240234,9.999999747378752e-06,0.002177290851250291,32878.7421875,-19537.73828125,38245.71875,-30.720312118530277
30.0,99.73403930664062,34813.47265625,22042.642578125,-22042.642578125,41205.046875,-32.34052658081055,1.0,1.0518225934674776e-07,0.2914678752422333,8.0,0.9562703967094419,0.40347662568092346,43.38813018798828,0.011126650497317314,0.027214154601097103,9.791922821023037e-06,75.72865295410156,9.999999747378752e-06,0.002280124695971608,34813.47265625,-22042.642578125,41205.046875,-32.34052658081055
31.0,79.44915008544922,36559.63671875,23505.28515625,-23505.28515625,43463.83984375,-32.73817825317383,1.0,9.827741109802445e-08,0.36690104007720953,8.0,0.9840714931488035,0.447274386882782,-128.6920166015625,0.01780400425195694,0.03881712630391121,1.0290724276273975e-05,-95.95384216308592,9.999999747378752e-06,0.002433073241263628,36559.63671875,-23505.28515625,43463.83984375,-32.73817825317383
32.0,62.919464111328125,39092.5078125,26806.82421875,-26806.82421875,47400.73828125,-34.43952178955078,1.0,9.385468047184986e-08,0.3608241379261017,8.0,0.9856652617454528,0.4747750759124756,-128.62684631347656,0.022391995415091515,0.046003401279449456,1.0016196029027924e-05,-94.18733215332033,9.999999747378752e-06,0.0022133635357022285,39092.5078125,-26806.82421875,47400.73828125,-34.43952178955078
33.0,49.86701965332031,41881.24609375,30591.822265625,-30591.822265625,51864.23046875,-36.14596176147461,1.0,9.447160920217357e-08,0.35375946760177607,8.0,0.9872744679450989,0.519489049911499,-130.3756103515625,0.02958342805504799,0.05623617768287659,1.0016326086770276e-05,-94.22963714599608,9.999999747378752e-06,0.002263040281832218,41881.24609375,-30591.822265625,51864.23046875,-36.14596176147461
34.0,39.72457504272461,45071.44140625,34921.8203125,-34921.8203125,57017.265625,-37.76889801025391,1.0,9.467279227237667e-08,0.33997026085853577,8.0,0.9883865714073181,0.5708149075508118,-130.9147491455078,0.03943640366196632,0.06823524832725525,1.0011263839260208e-05,-93.14585876464845,9.999999747378752e-06,0.002624751999974251,45071.44140625,-34921.8203125,57017.265625,-37.76889801025391
35.0,31.672296524047848,48698.15234375,39735.59765625,-39735.59765625,62852.42578125,-39.21296691894531,1.0,9.566181802256324e-08,0.3248393833637237,8.0,0.9894835948944093,0.6292219161987305,-131.47833251953125,0.051761846989393234,0.08126042038202284,1.0011099220719188e-05,-92.26536560058592,9.999999747378752e-06,0.0027973991818726063,48698.15234375,-39735.59765625,62852.42578125,-39.21296691894531
36.0,25.201612472534176,52953.07421875,44869.58203125,-44869.58203125,69406.828125,-40.27614212036133,1.0,9.178059912073876e-08,0.3066941499710083,8.0,0.9905803203582765,0.69483745098114,-131.8570556640625,0.06630071997642517,0.09425561875104904,1.0011083759309258e-05,-91.58091735839844,9.999999747378752e-06,0.0028649703599512577,52953.07421875,-44869.58203125,69406.828125,-40.27614212036133
37.0,20.03205108642578,57640.42578125,50360.890625,-50360.890625,76541.7421875,-41.14396667480469,1.0,9.492163144386721e-08,0.27585265040397644,8.0,0.9916505813598634,0.7662443518638611,-132.16064453125,0.07821604609489441,0.10084394365549088,1.0010804544435814e-05,-91.01667785644531,9.999999747378752e-06,0.0027044189628213644,57640.42578125,-50360.890625,76541.7421875,-41.14396667480469
38.0,15.782828330993652,62731.89453125,55516.7265625,-55516.7265625,83769.90625,-41.508316040039055,1.0,9.103238340912867e-08,0.2395348250865936,8.0,0.9929443001747132,0.8387920260429382,-132.05923461914062,0.08488810062408446,0.09998901933431624,1.0013046448875684e-05,-90.55091857910156,9.999999747378752e-06,0.002506587654352188,62731.89453125,-55516.7265625,83769.90625,-41.508316040039055
39.0,12.600806236267088,67492.1953125,59697.04296875,-59697.04296875,90105.125,-41.49285507202149,1.0,8.498904691123244e-08,0.20462991297245023,8.0,0.9938995838165283,0.9019181132316588,-131.6837615966797,0.08716395497322081,0.09549271315336227,1.0009620382334104e-05,-90.19091033935545,9.999999747378752e-06,0.0024130824021995068,67492.1953125,-59697.04296875,90105.125,-41.49285507202149
40.0,9.973403930664062,72179.1640625,63432.98046875,-63432.98046875,96091.4921875,-41.309871673583984,1.0,7.775801691423112e-08,0.17297586798667908,8.0,0.9950921535491944,0.9620679020881652,-131.19546508789062,0.09063972532749176,0.09309223294258115,1.001199871097924e-05,-89.8855972290039,9.999999747378752e-06,0.0019944326486438513,72179.1640625,-63432.98046875,96091.4921875,-41.309871673583984
41.0,7.971938610076904,76341.140625,67046.734375,-67046.734375,101603.3203125,-41.29127502441406,1.0,7.479378183461449e-08,0.14253617823123932,8.0,0.9958625435829161,1.0168198347091675,-130.93621826171875,0.0962328165769577,0.0935150235891342,1.0007742275774945e-05,-89.64493560791014,9.999999747378752e-06,0.001964098308235407,76341.140625,-67046.734375,101603.3203125,-41.29127502441406
42.0,6.275100231170654,80427.1796875,70957.5625,-70957.5625,107254.40625,-41.42062377929688,1.0,7.029881032849516e-08,0.11783374100923538,8.0,0.9968146085739136,1.073569416999817,-130.8650360107422,0.10634151101112364,0.09787810593843459,1.0009560355683789e-05,-89.44440460205078,9.999999747378752e-06,0.00176929438021034,80427.1796875,-70957.5625,107254.40625,-41.42062377929688
43.0,5.013369083404541,83843.6484375,75052.6171875,-75052.6171875,112528.453125,-41.83330535888672,1.0,8.076725066530342e-08,0.09541298449039459,8.0,0.9973395466804504,1.125877022743225,-131.11453247070312,0.11836923658847807,0.10388223826885223,1.0005265721702015e-05,-89.28123474121092,9.999999747378752e-06,0.0016239782562479377,83843.6484375,-75052.6171875,112528.453125,-41.83330535888672
44.0,3.985969305038452,87006.2265625,79452.40625,-79452.40625,117825.1640625,-42.40172576904297,1.0,8.47772767542665e-08,0.07686590403318405,8.0,0.9978072643280029,1.1788041591644287,-131.5525360107422,0.13211631774902344,0.1107429414987564,1.0004690011555795e-05,-89.15080261230467,9.999999747378752e-06,0.001420229789800942,87006.2265625,-79452.40625,117825.1640625,-42.40172576904297
45.0,3.1758129596710205,89810.015625,83931.078125,-83931.078125,122923.8203125,-43.06200408935546,1.0,8.579782218021138e-08,0.061859503388404846,8.0,0.9982994794845581,1.2298444509506223,-132.11026000976562,0.14559896290302277,0.11697710305452345,1.0004932846641168e-05,-89.04825592041014,9.999999747378752e-06,0.0012985458597540855,89810.015625,-83931.078125,122923.8203125,-43.06200408935546
46.0,2.516103029251098,91535.4921875,88958.4921875,-88958.4921875,127641.53125,-44.18201446533203,1.0,7.412447189381055e-08,0.0529635064303875,8.0,0.9674906730651855,1.2370234727859497,-177.08621215820312,0.06558988243341446,0.052390482276678085,9.691387276689056e-06,-132.90419006347656,9.999999747378752e-06,0.0004526583652477712,91535.4921875,-88958.4921875,127641.53125,-44.18201446533203
47.0,1.9955300092697144,93331.2734375,90893.1875,-90893.1875,130277.7734375,-44.24177551269531,1.0,7.277566993479921e-08,0.0413898266851902,8.0,0.9862952232360842,1.3280991315841675,-167.22979736328125,0.101487897336483,0.07551294565200804,1.0194364222115835e-05,-122.98802185058592,9.999999747378752e-06,0.000421673379605636,93331.2734375,-90893.1875,130277.7734375,-44.24177551269531
48.0,1.5879064798355103,97974.7265625,95161.9296875,-95161.9296875,136582.71875,-44.16561508178711,1.0,9.243754561794049e-08,0.035833053290843964,8.0,0.9941755533218384,1.3767398595809937,-159.7086181640625,0.138813316822052,0.0996389165520668,1.00798979474348e-05,-115.54300689697264,9.999999747378752e-06,0.0005182736786082386,97974.7265625,-95161.9296875,136582.71875,-44.16561508178711
