# point,freq,zreal,reflected_zimag,zimag,zmod,zphz,zsig,Idc,Vdc,ie_range,gain,vmod,vphz,vsig,vthd,imod,iphz,isig,ithd,zreal_drift,zimag_drift,zmod_drift,zphz_drift
0.0,250019.53125,4381.52685546875,-338.711181640625,338.711181640625,4394.599609375,4.420423030853272,1.0,4.846391448154464e-07,0.4483034014701843,8.0,0.04046456888318062,0.01672768034040928,15.62437343597412,0.0037948791868984695,0.2214278876781464,3.8064172258600593e-06,11.203950881958008,9.999999747378752e-06,0.16188271343708038,4381.52685546875,338.711181640625,4394.599609375,4.420423030853272
1.0,198691.40625,4373.951171875,-269.24371337890625,269.24371337890625,4382.22998046875,3.5224645137786865,1.0,4.977597427568982e-07,0.5079614520072937,8.0,0.04835225641727448,0.01993211545050144,152.6014404296875,0.0036147944629192352,0.17407777905464172,4.548395281744888e-06,149.0789794921875,9.999999747378752e-06,0.149777814745903,4373.951171875,269.24371337890625,4382.22998046875,3.5224645137786865
2.0,157792.96875,4351.19775390625,-155.1746368408203,155.1746368408203,4353.9638671875,2.0424458980560303,1.0,4.906619324174244e-07,0.5761630535125732,8.0,0.05889469012618065,0.024121394380927082,169.4385528564453,0.003828168613836169,0.152069091796875,5.540100119105773e-06,167.39610290527344,9.999999747378752e-06,0.13741269707679749,4351.19775390625,155.1746368408203,4353.9638671875,2.0424458980560303
3.0,125332.03125,4345.46484375,-115.25304412841795,115.25304412841795,4346.9931640625,1.5192770957946775,1.0,4.3557400886129477e-07,0.6308578252792358,8.0,0.07224000245332717,0.029539842158555984,29.804674148559567,0.004052344709634781,0.13219375908374786,6.7954656515212255e-06,28.285398483276367,9.999999747378752e-06,0.12601405382156372,4345.46484375,115.25304412841795,4346.9931640625,1.5192770957946775
4.0,99550.78125,4320.537109375,-41.3979377746582,41.3979377746582,4320.7353515625,0.5489721298217772,1.0,3.310091756247857e-07,0.6251510977745056,8.0,0.08735317736864091,0.0355040468275547,-62.75239181518555,0.002192323096096516,0.0473661795258522,8.217130016419105e-06,-63.301361083984375,9.999999747378752e-06,0.0461139939725399,4320.537109375,41.3979377746582,4320.7353515625,0.5489721298217772
5.0,79160.15625,4338.455078125,10.28144073486328,-10.28144073486328,4338.46728515625,-0.13578154146671295,1.0,2.820478357534739e-07,0.6508339643478394,8.0,0.11001963913440704,0.04490017518401146,176.4314727783203,0.0029365560039877887,0.061129584908485406,1.0349316653446294e-05,176.56724548339844,9.999999747378752e-06,0.05880407243967056,4338.455078125,-10.28144073486328,4338.46728515625,-0.13578154146671295
6.0,62871.09375,4348.18603515625,55.68328094482422,-55.68328094482422,4348.54248046875,-0.733695089817047,1.0,2.68713733930781e-07,0.7088500857353209,8.0,0.142705500125885,0.056404560804367065,-78.59075164794922,0.004005483817309141,0.07049187272787094,1.2970911484444512e-05,-77.85706329345702,9.338770041722457e-07,0.07016851007938385,4348.18603515625,-55.68328094482422,4348.54248046875,-0.733695089817047
7.0,49980.46875,4363.08837890625,97.62561798095705,-97.62561798095705,4364.18017578125,-1.281799077987671,1.0,2.1613699630052002e-07,0.7295528054237365,8.0,0.22200769186019895,0.06789378821849823,-145.23648071289062,0.004610419739037752,0.06735971570014954,1.555705239297822e-05,-143.95468139648435,1.1091597116319463e-06,0.07039088755846024,4363.08837890625,-97.62561798095705,4364.18017578125,-1.281799077987671
8.0,39667.96875,4380.6337890625,141.0518035888672,-141.0518035888672,4382.904296875,-1.844226598739624,1.0,1.693068298891376e-07,0.7173328399658203,8.0,0.37692764401435846,0.07441353797912596,12.598230361938477,0.0031504170037806034,0.042242828756570816,1.6978134226519614e-05,14.44245719909668,9.999999747378752e-06,0.04373852536082268,4380.6337890625,-141.0518035888672,4382.904296875,-1.844226598739624
9.0,31582.03125,4402.19140625,187.839599609375,-187.839599609375,4406.197265625,-2.4433040618896484,1.0,1.379661256351028e-07,0.7132112383842468,8.0,0.5436304211616516,0.06354913860559464,116.90416717529295,0.0003463012399151921,0.0038082562386989594,1.4422673302760812e-05,119.34747314453124,9.999999747378752e-06,0.01051533780992031,4402.19140625,-187.839599609375,4406.197265625,-2.4433040618896484
10.0,25019.53125,4422.7529296875,234.20016479492188,-234.20016479492188,4428.94970703125,-3.031179904937744,1.0,1.4188393038239158e-07,0.7074609994888306,8.0,0.6330872178077698,0.051577527076005936,43.97755813598633,0.0004389102687127888,0.006385115440934896,1.1645544873317704e-05,47.00873565673828,9.999999747378752e-06,0.0134111437946558,4422.7529296875,-234.20016479492188,4428.94970703125,-3.031179904937744
11.0,19863.28125,4444.81103515625,284.9886779785156,-284.9886779785156,4453.93798828125,-3.6686210632324214,1.0,1.329144367900881e-07,0.7139772772789001,8.0,0.712725818157196,0.050142168998718255,79.3996353149414,0.0004055968602187932,0.0011305470252409575,1.1257940059294924e-05,83.06825256347656,9.999999747378752e-06,0.0023162076249718666,4444.81103515625,-284.9886779785156,4453.93798828125,-3.6686210632324214
12.0,15682.8701171875,4473.1005859375,346.6571655273437,-346.6571655273437,4486.51318359375,-4.431461334228516,1.0,1.2636751023364923e-07,0.7173845171928406,8.0,0.7845133543014526,0.04938406124711037,-0.3320428729057312,0.0007653721258975564,0.0008936875965446234,1.1007225111825392e-05,4.09941864013672,9.999999747378752e-06,0.0015814347425475717,4473.1005859375,-346.6571655273437,4486.51318359375,-4.431461334228516
13.0,12597.65625,4509.345703125,417.71459960937506,-417.71459960937506,4528.6513671875,-5.292381763458252,1.0,1.2721187658826238e-07,0.7192279100418091,8.0,0.8362414240837097,0.04827255010604858,-39.48237228393555,9.999999747378752e-06,0.0009529372910037636,1.0659365216270087e-05,-34.18999099731445,9.999999747378752e-06,0.0017661536112427711,4509.345703125,-417.71459960937506,4528.6513671875,-5.292381763458252
14.0,9895.8330078125,4542.892578125,491.3332214355469,-491.3332214355469,4569.38525390625,-6.172789573669434,1.0,1.4034162632015068e-07,0.7272184491157532,8.0,0.8827905058860778,0.048237379640340805,-64.1402816772461,9.999999747378752e-06,0.006864559371024369,1.0556645975157151e-05,-57.96748733520508,9.999999747378752e-06,0.0025320674758404493,4542.892578125,-491.3332214355469,4569.38525390625,-6.172789573669434
15.0,7910.15625,4584.0927734375,578.4854125976562,-578.4854125976562,4620.44921875,-7.192370414733888,1.0,1.335632191512559e-07,0.7328881621360778,8.0,0.9135356545448304,0.047813668847084045,-48.369537353515625,9.999999747378752e-06,0.000999507843516767,1.034827255352866e-05,-41.17716979980469,9.999999747378752e-06,0.003050196683034301,4584.0927734375,-578.4854125976562,4620.44921875,-7.192370414733888
16.0,6307.87060546875,4627.11865234375,681.828369140625,-681.828369140625,4677.08447265625,-8.382487297058105,1.0,1.2233749657752926e-07,0.7361820340156555,8.0,0.9369263648986816,0.047968391329050064,27.516447067260746,0.0003541301703080535,0.0011303824139758945,1.0256046152790075e-05,35.89893341064453,9.999999747378752e-06,0.0020790603011846542,4627.11865234375,-681.828369140625,4677.08447265625,-8.382487297058105
17.0,4973.3232421875,4688.7470703125,819.000732421875,-819.000732421875,4759.73876953125,-9.908103942871092,1.0,1.3269448118080618e-07,0.741559624671936,8.0,0.9247996807098388,0.046981330960989,-67.19891357421875,9.999999747378752e-06,0.000338902318617329,9.870569556369446e-06,-57.290809631347656,9.999999747378752e-06,0.0005433338228613137,4688.7470703125,-819.000732421875,4759.73876953125,-9.908103942871092
18.0,3944.3598632812495,4750.30419921875,965.5551147460936,-965.5551147460936,4847.44140625,-11.489515304565428,1.0,1.38452421083457e-07,0.7488344311714172,8.0,0.9515545964241027,0.04987679794430733,43.719818115234375,0.0005167482886463404,0.0004791362152900546,1.0289304555044508e-05,55.209331512451165,9.999999747378752e-06,0.0005670584505423903,4750.30419921875,-965.5551147460936,4847.44140625,-11.489515304565428
19.0,3144.054931640625,4823.03759765625,1135.766357421875,-1135.766357421875,4954.962890625,-13.251032829284668,1.0,1.4183680718815594e-07,0.7558159232139587,8.0,0.9670938253402709,0.05035879462957382,86.35968780517578,0.0003822964790742844,0.007746309041976928,1.0163304068555588e-05,99.61072540283203,9.999999747378752e-06,0.0007604394340887666,4823.03759765625,-1135.766357421875,4954.962890625,-13.251032829284668
20.0,2488.426025390625,4911.2255859375,1347.212646484375,-1347.212646484375,5092.6533203125,-15.339645385742188,1.0,1.3105105267641193e-07,0.7616267204284669,8.0,0.9760559797286988,0.051398474723100655,148.95773315429688,0.0002872156619559973,0.008191786706447601,1.00926708910265e-05,164.29739379882812,9.999999747378752e-06,0.001012633554637432,4911.2255859375,-1347.212646484375,5092.6533203125,-15.339645385742188
21.0,1976.6566162109373,5013.85986328125,1590.7718505859375,-1590.7718505859375,5260.166015625,-17.60292625427246,1.0,1.3447473179439842e-07,0.7711501121520995,8.0,0.9807037115097044,0.05285213142633438,-135.67022705078125,9.999999747378752e-06,0.0010416152654215691,1.0047617251984777e-05,-118.06729125976562,9.999999747378752e-06,0.001058725407347083,5013.85986328125,-1590.7718505859375,5260.166015625,-17.60292625427246
22.0,1582.03125,5131.96630859375,1868.4359130859373,-1868.4359130859373,5461.513671875,-20.005451202392575,1.0,1.3328455850114554e-07,0.779849886894226,8.0,0.9850546717643736,0.05485744029283524,106.23795318603516,0.0006572780548594892,0.0012771987821906805,1.0044365808425935e-05,126.24341583251952,9.999999747378752e-06,0.0010538026690483091,5131.96630859375,-1868.4359130859373,5461.513671875,-20.005451202392575
23.0,1253.6336669921875,5277.61865234375,2208.541259765625,-2208.541259765625,5721.09375,-22.707996368408203,1.0,1.3359756678710258e-07,0.7898293733596802,8.0,0.9883503913879393,0.0574023462831974,136.95330810546875,9.999999747378752e-06,0.0015248450217768548,1.0033457328972872e-05,159.6613006591797,9.999999747378752e-06,0.0011014818446710704,5277.61865234375,-2208.541259765625,5721.09375,-22.707996368408203
24.0,996.09375,5446.5927734375,2620.67236328125,-2620.67236328125,6044.27783203125,-25.69491195678711,1.0,1.3043485580510605e-07,0.7907919883728027,8.0,0.9901974201202391,0.06055573746562004,-23.840330123901367,0.00047390960389748216,0.0018898461712524293,1.001868804451078e-05,1.854581832885742,9.999999747378752e-06,0.00121773942373693,5446.5927734375,-2620.67236328125,6044.27783203125,-25.69491195678711
25.0,790.028076171875,5660.14404296875,3088.43603515625,-3088.43603515625,6447.91943359375,-28.618921279907223,1.0,1.4916311386059533e-07,0.8017702102661133,8.0,0.9910655617713928,0.0645357221364975,-146.0661163330078,9.999999747378752e-06,0.003179847961291671,1.0008767276303843e-05,-117.44718170166016,9.999999747378752e-06,0.0012601149501278996,5660.14404296875,-3088.43603515625,6447.91943359375,-28.618921279907223
26.0,628.8109741210938,5905.68115234375,3657.4609375,-3657.4609375,6946.51611328125,-31.770441055297848,1.0,1.4673065606984892e-07,0.802495837211609,8.0,0.993590533733368,0.06964213401079178,66.77005767822266,0.0007993508479557931,0.004376528784632683,1.0025477422459517e-05,98.54049682617188,9.999999747378752e-06,0.0012783302227035165,5905.68115234375,-3657.4609375,6946.51611328125,-31.770441055297848
35.0,78.78150939941406,10821.20703125,13486.203125,-13486.203125,17290.927734375,-51.25675964355469,1.0,1.5741557035653386e-07,0.9090871810913086,8.0,0.9909373521804808,0.1730290651321411,-146.12489318847656,0.012395919300615788,0.06983085721731186,1.0006927368522156e-05,-94.86813354492189,9.999999747378752e-06,0.0019088261760771277,10821.20703125,-13486.203125,17290.927734375,-51.25675964355469
36.0,62.919464111328125,11829.810546875,15568.7265625,-15568.7265625,19553.251953125,-52.77081680297852,1.0,1.4225400946088484e-07,0.9114577770233153,8.0,0.9916548132896424,0.1956740915775299,-146.1159210205078,0.016733787953853607,0.08341840654611588,1.0007240234699564e-05,-93.34510803222656,9.999999747378752e-06,0.0016124100657179952,11829.810546875,-15568.7265625,19553.251953125,-52.77081680297852
37.0,49.86701965332031,13038.9599609375,18130.580078125,-18130.580078125,22332.318359375,-54.27746582031249,1.0,1.3511764507256885e-07,0.9087421894073486,8.0,0.9926220178604126,0.22354097664356232,-147.8158721923828,0.02203546278178692,0.09731289744377136,1.0009753168560565e-05,-93.53840637207033,9.999999747378752e-06,0.001974586397409439,13038.9599609375,-18130.580078125,22332.318359375,-54.27746582031249
38.0,39.72457504272461,14363.9892578125,20951.44140625,-20951.44140625,25402.501953125,-55.56605911254882,1.0,1.4228990607989545e-07,0.9077093005180359,8.0,0.9928752183914183,0.2540898025035858,-148.11146545410156,0.028742579743266106,0.1117694303393364,1.0002550880017225e-05,-92.54540252685545,9.999999747378752e-06,0.0020140036940574646,14363.9892578125,-20951.44140625,25402.501953125,-55.56605911254882
39.0,31.459732055664062,15871.662109375,24093.640625,-24093.640625,28851.572265625,-56.62514495849609,1.0,1.455132263572523e-07,0.9088424444198608,8.0,0.9937775135040284,0.2887778878211975,-148.35340881347656,0.037326253950595856,0.12769992649555206,1.0009087418438867e-05,-91.72825622558592,9.999999747378752e-06,0.0019487482495605943,15871.662109375,-24093.640625,28851.572265625,-56.62514495849609
40.0,24.93350982666016,17577.732421875,27406.66015625,-27406.66015625,32559.201171875,-57.325218200683594,1.0,1.5696620891958446e-07,0.9137286543846129,8.0,0.9941781163215635,0.3257233202457428,-148.45399475097656,0.04758905991911888,0.14435002207756042,1.0004031537391713e-05,-91.12877655029295,9.999999747378752e-06,0.0025996917393058534,17577.732421875,-27406.66015625,32559.201171875,-57.325218200683594
41.0,19.862287521362305,19521.9140625,31090.146484375,-31090.146484375,36711.06640625,-57.87474822998047,1.0,1.5039397283089786e-07,0.912662386894226,8.0,0.9950914382934569,0.3674479126930237,-148.47879028320312,0.059634894132614136,0.16034570336341855,1.000918655336136e-05,-90.60404968261719,9.999999747378752e-06,0.00198603211902082,19521.9140625,-31090.146484375,36711.06640625,-57.87474822998047
42.0,15.782828330993652,21909.931640625,35325.62109375,-35325.62109375,41568.5546875,-58.1916618347168,1.0,1.5237090167374845e-07,0.9043760895729066,8.0,0.9954519867897031,0.41583612561225886,-148.4088592529297,0.07344743609428404,0.17452245950698853,1.0003623174270613e-05,-90.21719360351561,9.999999747378752e-06,0.0019843790214508768,21909.931640625,-35325.62109375,41568.5546875,-58.1916618347168
43.0,12.466754913330078,24870.951171875,40084.87109375,-40084.87109375,47173.734375,-58.182167053222656,1.0,1.5539934850039574e-07,0.8911241292953491,8.0,0.9957786202430723,0.4718920886516571,-148.08584594726562,0.08954428881406784,0.18749684095382688,1.0003281204262748e-05,-89.90367126464844,9.999999747378752e-06,0.0017190643120557068,24870.951171875,-40084.87109375,47173.734375,-58.182167053222656
44.0,9.973403930664062,28279.21875,45021.1015625,-45021.1015625,53165.90625,-57.86573028564453,1.0,1.5887185611518362e-07,0.8700729012489319,8.0,0.9963279366493224,0.5319523811340332,-147.52536010742188,0.104964941740036,0.19497984647750852,1.0005516742239706e-05,-89.65963745117188,9.999999747378752e-06,0.0017491319449618459,28279.21875,-45021.1015625,53165.90625,-57.86573028564453
45.0,7.878151416778564,32626.71875,50486.046875,-50486.046875,60111.09375,-57.12734603881836,1.0,1.590296108133771e-07,0.8376569747924804,8.0,0.9969348907470704,0.6014771461486816,-146.58946228027344,0.11953821778297424,0.19638714194297793,1.0006091542891227e-05,-89.46211242675781,9.999999747378752e-06,0.0017674018163233995,32626.71875,-50486.046875,60111.09375,-57.12734603881836
46.0,6.275100231170654,37425.52734375,55869.46875,-55869.46875,67246.3203125,-56.182884216308594,1.0,1.5762009297759505e-07,0.7963956594467163,8.0,0.9973776936531066,0.6727618575096129,-145.48561096191406,0.13053178787231445,0.19172860682010648,1.000444171950221e-05,-89.30272674560547,9.999999747378752e-06,0.0014972347998991609,37425.52734375,-55869.46875,67246.3203125,-56.182884216308594
47.0,5.013369083404541,42450.2265625,61164.11328125,-61164.11328125,74451.8046875,-55.23787689208984,1.0,1.6519216217147914e-07,0.7494633197784423,8.0,0.9975354671478271,0.7446357607841492,-144.42237854003906,0.1384325623512268,0.18370243906974792,1.0001582268159837e-05,-89.18450164794922,9.999999747378752e-06,0.0012936122948303819,42450.2265625,-61164.11328125,74451.8046875,-55.23787689208984
48.0,3.939075708389282,47911.79296875,66790.2890625,-66790.2890625,82197.828125,-54.34635925292969,1.0,1.7629116655371038e-07,0.6977923512458801,8.0,0.9981584548950195,0.8224915862083435,-143.4096527099609,0.14594890177249908,0.1753411442041397,1.0006245247495826e-05,-89.06330108642578,9.999999747378752e-06,0.0012160156620666385,47911.79296875,-66790.2890625,82197.828125,-54.34635925292969
49.0,3.137550115585327,53546.3125,72620.7109375,-72620.7109375,90227.3515625,-53.59708404541016,1.0,1.7427834109184914e-07,0.631148636341095,8.0,0.9985799789428712,0.9026545286178589,-142.5935821533203,0.1494428515434265,0.1635826826095581,1.0004222531279083e-05,-88.99649810791014,9.999999747378752e-06,0.0010745866457000375,53546.3125,-72620.7109375,90227.3515625,-53.59708404541016
50.0,2.485418796539306,58541.765625,78951.984375,-78951.984375,98288.1171875,-53.44359588623047,1.0,1.7392328288678985e-07,0.5550321936607361,8.0,0.9690034985542296,0.9537697434425354,174.28839111328125,0.0891113355755806,0.09231690317392349,9.70381461229408e-06,-132.2680206298828,9.999999747378752e-06,0.00041189894545823336,58541.765625,-78951.984375,98288.1171875,-53.44359588623047
51.0,1.9955300092697144,63514.12109375,83026.890625,-83026.890625,104534.7265625,-52.58464431762695,1.0,1.7076163771889696e-07,0.4675368368625641,8.0,0.9865196347236632,1.0642433166503906,-175.548828125,0.10457818955183028,0.0970994755625725,1.0180764547840226e-05,-122.96418762207033,9.999999747378752e-06,0.00039273983566090465,63514.12109375,-83026.890625,104534.7265625,-52.58464431762695
52.0,1.5836148262023924,70241.7265625,89049.3203125,-89049.3203125,113418.171875,-51.73377227783203,1.0,1.7591126777460886e-07,0.3947716355323792,8.0,0.9941170811653136,1.1429163217544556,-167.1814422607422,0.12101247161626816,0.10463013499975204,1.0077013030240776e-05,-115.44766998291016,9.999999747378752e-06,0.00042682280763983727,70241.7265625,-89049.3203125,113418.171875,-51.73377227783203
53.0,1.258051514625549,77314.5,94216.984375,-94216.984375,121878.5078125,-50.62768173217773,1.0,1.7813748343087354e-07,0.3268108665943146,8.0,0.9973661303520202,1.2227684259414673,-160.32452392578125,0.14565193653106687,0.11770893633365632,1.003268243948696e-05,-109.69684600830078,9.999999747378752e-06,0.0004316389095038176,77314.5,-94216.984375,121878.5078125,-50.62768173217773
54.0,0.9977650046348573,84534.0234375,98214.4375,-98214.4375,129584.2421875,-49.28113555908203,1.0,1.7734996049512122e-07,0.2820222079753876,8.0,0.9986096620559692,1.2974580526351929,-154.49664306640625,0.17877690494060516,0.136159285902977,1.0012468010245357e-05,-105.2155075073242,9.999999747378752e-06,0.0005163781461305916,84534.0234375,-98214.4375,129584.2421875,-49.28113555908203
