# point,freq,zreal,reflected_zimag,zimag,zmod,zphz,zsig,Idc,Vdc,ie_range,gain,vmod,vphz,vsig,vthd,imod,iphz,isig,ithd,zreal_drift,zimag_drift,zmod_drift,zphz_drift
0.0,250019.53125,4445.76513671875,-412.7496643066406,412.7496643066406,4464.88427734375,5.3041977882385245,1.0,4.6683459231644525e-07,0.7906363010406494,8.0,0.03985227644443512,0.0167380478233099,-81.1351318359375,0.004362469073385,0.25556063652038574,3.748820063265157e-06,-86.43932342529295,9.999999747378752e-06,0.16241998970508575,4445.76513671875,412.7496643066406,4464.88427734375,5.3041977882385245
1.0,198691.40625,4439.26904296875,-256.6182556152344,256.6182556152344,4446.6796875,3.308382034301758,1.0,5.321056164575567e-07,0.8769415020942688,8.0,0.047679010778665536,0.01994364522397518,-112.15247344970705,0.0036332563031464815,0.17412735521793363,4.485064437176334e-06,-115.46085357666016,9.999999747378752e-06,0.14831914007663727,4439.26904296875,256.6182556152344,4446.6796875,3.308382034301758
2.0,157792.96875,4419.06689453125,-157.1942596435547,157.1942596435547,4421.86181640625,2.0372562408447266,1.0,4.969223255102407e-07,0.9032021760940552,8.0,0.05790141224861145,0.02408439852297306,-136.40631103515625,0.0038574449717998496,0.15020722150802612,5.446664545161184e-06,-138.4435577392578,9.999999747378752e-06,0.1420823037624359,4419.06689453125,157.1942596435547,4421.86181640625,2.0372562408447266
3.0,125332.03125,4417.005859375,-114.88970184326172,114.88970184326172,4418.49951171875,1.4899710416793823,1.0,4.664239838803042e-07,0.9453311562538147,8.0,0.0712578073143959,0.02961752377450466,26.947872161865234,0.004005059599876404,0.13190628588199615,6.703072358504869e-06,25.45790100097656,9.999999747378752e-06,0.12491630017757416,4417.005859375,114.88970184326172,4418.49951171875,1.4899710416793823
4.0,99550.78125,4395.6044921875,-40.19030761718751,40.19030761718751,4395.7880859375,0.523857593536377,1.0,3.0621282576248637e-07,0.9814624190330504,8.0,0.08614174276590347,0.0356198325753212,89.49565887451172,0.0016167566645890474,0.04686612635850906,8.103173058771063e-06,88.97179412841795,9.999999747378752e-06,0.045443225651979446,4395.6044921875,40.19030761718751,4395.7880859375,0.523857593536377
5.0,79160.15625,4407.38330078125,7.108192443847656,-7.108192443847656,4407.38916015625,-0.09240609407424927,1.0,2.788262918329565e-07,0.9843812584877014,8.0,0.10850219428539276,0.0449843443930149,-143.2926483154297,0.002846516435965896,0.05933793261647224,1.0206574188487139e-05,-143.2002410888672,9.999999747378752e-06,0.05903064087033272,4407.38330078125,-7.108192443847656,4407.38916015625,-0.09240609407424927
6.0,62871.09375,4419.13330078125,51.52775192260742,-51.52775192260742,4419.43408203125,-0.6680470705032349,1.0,2.665149736458261e-07,0.9976972341537476,8.0,0.1388128697872162,0.05654026567935944,-89.07817077636719,0.004001255612820386,0.07032686471939087,1.2793554560630582e-05,-88.41011810302734,9.276148489334447e-07,0.0704210177063942,4419.13330078125,-51.52775192260742,4419.43408203125,-0.6680470705032349
7.0,49980.46875,4435.6591796875,91.03321075439453,-91.03321075439453,4436.59326171875,-1.1757185459136963,1.0,2.0647830467623865e-07,1.00711989402771,8.0,0.21424642205238345,0.06847521662712097,-139.7112274169922,0.004717868287116289,0.06840665638446808,1.5434188753715716e-05,-138.53550720214844,1.1249921954004094e-06,0.0718919187784195,4435.6591796875,-91.03321075439453,4436.59326171875,-1.1757185459136963
8.0,39667.96875,4456.4072265625,130.7625732421875,-130.7625732421875,4458.3251953125,-1.680724859237671,1.0,1.6789196877198265e-07,0.9891467094421386,8.0,0.3640220761299133,0.07575056701898576,-10.763585090637209,0.003469134448096156,0.04544266685843468,1.699081258266233e-05,-9.082860946655272,9.999999747378752e-06,0.04697775468230248,4456.4072265625,-130.7625732421875,4458.3251953125,-1.680724859237671
9.0,31582.03125,4477.3583984375,174.72244262695312,-174.72244262695312,4480.76611328125,-2.234750986099243,1.0,1.1507252395404068e-07,0.966849148273468,8.0,0.537456214427948,0.06615575402975081,147.8092498779297,0.00044430911657400424,0.004530735779553652,1.4764385923626833e-05,150.04400634765625,9.999999747378752e-06,0.011747356504201887,4477.3583984375,-174.72244262695312,4480.76611328125,-2.234750986099243
10.0,25019.53125,4500.984375,217.43161010742188,-217.43161010742188,4506.23291015625,-2.765669822692871,1.0,8.281769225959577e-08,0.9644696712493896,8.0,0.6290954351425171,0.05274569988250733,-54.217670440673835,9.999999747378752e-06,0.005977993831038475,1.1705054021149408e-05,-51.45199966430664,9.999999747378752e-06,0.014435655437409876,4500.984375,-217.43161010742188,4506.23291015625,-2.765669822692871
11.0,19863.28125,4528.61376953125,258.1181335449219,-258.1181335449219,4535.9638671875,-3.26216721534729,1.0,8.790067340669337e-08,0.9646662473678589,8.0,0.7098328471183777,0.051181048154830926,36.961441040039055,0.0005362208466976881,0.0007292391965165734,1.1283389540039934e-05,40.223609924316406,9.999999747378752e-06,0.002918834565207362,4528.61376953125,-258.1181335449219,4535.9638671875,-3.26216721534729
12.0,15682.8701171875,4562.61083984375,304.4942932128906,-304.4942932128906,4572.759765625,-3.8180782794952393,1.0,8.424893849223734e-08,0.9615126252174376,8.0,0.7820983529090881,0.050382956862449646,-25.728805541992188,0.00046885170741006727,0.0010315217077732086,1.101806356018642e-05,-21.910724639892575,9.999999747378752e-06,0.002013744786381721,4562.61083984375,-304.4942932128906,4572.759765625,-3.8180782794952393
13.0,12597.65625,4582.8369140625,357.0125427246094,-357.0125427246094,4596.7216796875,-4.4544639587402335,1.0,1.0276835382683203e-07,0.9548845887184144,8.0,0.8390304446220398,0.04931336268782616,-73.88219451904298,4.367320434539578e-05,0.00122951774392277,1.0727940207289066e-05,-69.427734375,9.999999747378752e-06,0.001451836316846311,4582.8369140625,-357.0125427246094,4596.7216796875,-4.4544639587402335
14.0,9895.8330078125,4636.8662109375,423.7032470703125,-423.7032470703125,4656.18408203125,-5.22102165222168,1.0,1.1443417236023379e-07,0.9499525427818297,8.0,0.8847770094871522,0.049100540578365326,-80.57813262939453,0.0005097805988043547,0.004383585881441832,1.05452309071552e-05,-75.35710906982422,9.999999747378752e-06,0.0025167178828269243,4636.8662109375,-423.7032470703125,4656.18408203125,-5.22102165222168
15.0,7910.15625,4681.64892578125,473.4615783691406,-473.4615783691406,4705.52880859375,-5.77476692199707,1.0,1.3065144344182045e-07,0.9486141204833984,8.0,0.9175843596458435,0.04880009219050408,-38.09965133666992,9.999999747378752e-06,0.0013102788943797348,1.0370798008807467e-05,-32.324886322021484,9.999999747378752e-06,0.003151554148644209,4681.64892578125,-473.4615783691406,4705.52880859375,-5.77476692199707
16.0,6307.87060546875,4732.99658203125,551.7047119140625,-551.7047119140625,4765.04296875,-6.6487135887146,1.0,1.4608006893013226e-07,0.9506938457489011,8.0,0.9399507045745848,0.04881191998720169,27.246812820434567,0.0007659948314540088,0.0016187086002901196,1.0243752512906212e-05,33.89552307128906,9.999999747378752e-06,0.0018936602864414451,4732.99658203125,-551.7047119140625,4765.04296875,-6.6487135887146
17.0,4973.3232421875,4789.29052734375,639.5631103515625,-639.5631103515625,4831.8056640625,-7.606292724609374,1.0,1.4283767768574762e-07,0.9573480486869811,8.0,0.9298832416534426,0.04780053719878197,-60.30559158325195,0.00031906855292618275,0.0005640170420520008,9.892894013319165e-06,-52.69930267333984,9.999999747378752e-06,0.0005781347863376141,4789.29052734375,-639.5631103515625,4831.8056640625,-7.606292724609374
18.0,3944.3598632812495,4847.13671875,727.1328125,-727.1328125,4901.373046875,-8.531486511230467,1.0,1.3616362082302658e-07,0.9630139470100403,8.0,0.9599936008453368,0.05060083046555519,51.43963241577149,0.0004680883139371872,0.0006967204390093684,1.0323808055545667e-05,59.97111892700195,9.999999747378752e-06,0.0006096092984080315,4847.13671875,-727.1328125,4901.373046875,-8.531486511230467
19.0,3144.054931640625,4909.68017578125,816.1566772460938,-816.1566772460938,4977.0546875,-9.43821048736572,1.0,1.3911439111780058e-07,0.9771586656570433,8.0,0.9755697846412658,0.05057808384299278,98.91275024414062,0.0010537150083109736,0.006013947539031506,1.016225269268034e-05,108.35095977783205,9.999999747378752e-06,0.0007102597155608237,4909.68017578125,-816.1566772460938,4977.0546875,-9.43821048736572
20.0,2488.426025390625,4981.52490234375,932.6721801757811,-932.6721801757811,5068.08349609375,-10.60450267791748,1.0,1.1704752012065e-07,0.9847797155380248,8.0,0.9848058223724365,0.05116064473986626,158.1648406982422,9.999999747378752e-06,0.004554350394755602,1.0094673598359805e-05,168.7693328857422,9.999999747378752e-06,0.0010045376839116216,4981.52490234375,-932.6721801757811,5068.08349609375,-10.60450267791748
21.0,1976.6566162109373,5059.57958984375,1068.5001220703125,-1068.5001220703125,5171.173828125,-11.92471408843994,1.0,9.960081825965972e-08,0.9905416369438172,8.0,0.9900183081626893,0.05198544636368752,-126.59320068359376,0.00020600607967935505,0.0014955811202526093,1.0052928701043127e-05,-114.66849517822264,9.999999747378752e-06,0.0007948196143843234,5059.57958984375,-1068.5001220703125,5171.173828125,-11.92471408843994
22.0,1582.03125,5148.19482421875,1231.517333984375,-1231.517333984375,5293.443359375,-13.453112602233887,1.0,8.017489960820967e-08,0.9915186762809752,8.0,0.9947815537452696,0.053189121186733246,111.2380599975586,0.0004977116477675736,0.0017911649774760008,1.004811292659724e-05,124.69116973876952,9.999999747378752e-06,0.0010207915911450982,5148.19482421875,-1231.517333984375,5293.443359375,-13.453112602233887
23.0,1253.6336669921875,5247.47314453125,1416.9449462890625,-1416.9449462890625,5435.41259765625,-15.110870361328123,1.0,7.93663303966241e-08,0.9988323450088501,8.0,0.9961794018745422,0.0544304996728897,145.89308166503906,9.999999747378752e-06,0.0022989625576883554,1.0014051440521143e-05,161.0039520263672,9.999999747378752e-06,0.0012598070316016674,5247.47314453125,-1416.9449462890625,5435.41259765625,-15.110870361328123
24.0,996.09375,5366.283203125,1650.466796875,-1650.466796875,5614.35986328125,-17.095928192138672,1.0,9.293312075442371e-08,0.999401807785034,8.0,0.9993172883987426,0.05632045120000839,-15.846487998962402,0.0003578139003366232,0.0032636795658618207,1.0031499186879955e-05,1.2494399547576904,9.999999747378752e-06,0.0015281096566468475,5366.283203125,-1650.466796875,5614.35986328125,-17.095928192138672
25.0,790.028076171875,5510.0966796875,1951.3331298828125,-1951.3331298828125,5845.4140625,-19.5009765625,1.0,9.267856881933768e-08,0.9937308430671693,8.0,0.9998732209205629,0.05848666280508041,-136.22853088378906,9.999999747378752e-06,0.003962177317589521,1.0005563126469497e-05,-116.7275619506836,9.999999747378752e-06,0.0012106228386983275,5510.0966796875,-1951.3331298828125,5845.4140625,-19.5009765625
26.0,628.8109741210938,5661.158203125,2273.43994140625,-2273.43994140625,6100.59326171875,-21.87968635559082,1.0,1.1763421525756713e-07,0.9971926212310792,8.0,1.001255750656128,0.06109028309583664,77.96562194824217,0.000913751544430852,0.0051820618100464335,1.0013826795329804e-05,99.84531402587889,9.999999747378752e-06,0.0013783901231363416,5661.158203125,-2273.43994140625,6100.59326171875,-21.87968635559082
35.0,78.78150939941406,8486.8408203125,9018.9638671875,-9018.9638671875,12384.1904296875,-46.74108123779297,1.0,1.13992214778591e-07,1.0721123218536377,8.0,0.9938923716545106,0.123890720307827,-141.5068206787109,0.006359344348311424,0.04991980642080307,1.0003942406910936e-05,-94.76573944091795,9.999999747378752e-06,0.0005809279391542077,8486.8408203125,-9018.9638671875,12384.1904296875,-46.74108123779297
36.0,62.919464111328125,9177.07421875,10578.154296875,-10578.154296875,14004.1435546875,-49.056739807128906,1.0,1.0224815127912735e-07,1.0722767114639282,8.0,0.99458646774292,0.14013923704624176,-142.31295776367188,0.008746099658310413,0.06089260801672936,1.0006983757193664e-05,-93.2562255859375,9.999999747378752e-06,0.0009485005284659564,9177.07421875,-10578.154296875,14004.1435546875,-49.056739807128906
37.0,49.86701965332031,10060.6455078125,12549.2978515625,-12549.2978515625,16084.19921875,-51.28120040893555,1.0,9.907625297955745e-08,1.0695241689682007,8.0,0.9948917627334594,0.1608913689851761,-144.73922729492188,0.01206657476723194,0.0740150511264801,1.0003069291997235e-05,-93.45801544189453,9.999999747378752e-06,0.0009647387196309865,10060.6455078125,-12549.2978515625,16084.19921875,-51.28120040893555
38.0,39.72457504272461,11040.33984375,14758.9638671875,-14758.9638671875,18431.388671875,-53.20193099975586,1.0,1.1853897063929253e-07,1.0680996179580688,8.0,0.9951217174530029,0.18435652554035184,-145.6781768798828,0.016521058976650238,0.08849301934242249,1.0002311682910658e-05,-92.47624969482419,9.999999747378752e-06,0.0012131516123190522,11040.33984375,-14758.9638671875,18431.388671875,-53.20193099975586
39.0,31.459732055664062,12226.970703125,17305.78515625,-17305.78515625,21189.361328125,-54.75783920288086,1.0,1.1592558735173954e-07,1.0688912868499756,8.0,0.9954248666763305,0.21195816993713376,-146.4427032470703,0.02275157906115055,0.1060139313340187,1.000304655462969e-05,-91.68486022949217,9.999999747378752e-06,0.0013416926376521587,12226.970703125,-17305.78515625,21189.361328125,-54.75783920288086
40.0,24.93350982666016,13814.2607421875,20551.45703125,-20551.45703125,24762.798828125,-56.09183120727539,1.0,1.4831172734375286e-07,1.059671401977539,8.0,0.9955748915672302,0.24766530096530917,-147.14697265625,0.03194558992981911,0.12738013267517087,1.0001506780099588e-05,-91.05514526367188,9.999999747378752e-06,0.0016193328192457557,13814.2607421875,-20551.45703125,24762.798828125,-56.09183120727539
41.0,19.862287521362305,15617.427734375,24220.177734375,-24220.177734375,28818.763671875,-57.185646057128906,1.0,1.822130002437916e-07,1.0499292612075803,8.0,0.9961572289466858,0.288356214761734,-147.76625061035156,0.04377436265349388,0.1499597281217575,1.0005849617300557e-05,-90.58060455322264,9.999999747378752e-06,0.001750057912431657,15617.427734375,-24220.177734375,28818.763671875,-57.185646057128906
42.0,15.782828330993652,18140.365234375,28986.37890625,-28986.37890625,34194.78125,-57.960693359375,1.0,1.6682989212313262e-07,1.0274416208267212,8.0,0.9964796900749207,0.3420584499835968,-148.15309143066406,0.06108598038554192,0.17644661664962769,1.000323663902236e-05,-90.1924057006836,9.999999747378752e-06,0.0015662134392187,18140.365234375,-28986.37890625,34194.78125,-57.960693359375
43.0,12.466754913330078,21475.556640625,34906.92578125,-34906.92578125,40984.05859375,-58.39919662475586,1.0,1.3819789046465303e-07,0.995388388633728,8.0,0.9965841174125672,0.40988355875015253,-148.28964233398435,0.08426595479249954,0.20312748849391937,1.0001048394769896e-05,-89.8904342651367,9.999999747378752e-06,0.0019534656312316656,21475.556640625,-34906.92578125,40984.05859375,-58.39919662475586
44.0,9.973403930664062,25965.720703125,41828.95703125,-41828.95703125,49232.91796875,-58.16967010498047,1.0,9.762624841869184e-08,0.943694233894348,8.0,0.9968276023864746,0.4924494326114655,-147.8140106201172,0.11051682382822035,0.22173897922039032,1.0002442650147712e-05,-89.64433288574217,9.999999747378752e-06,0.0018833198118954897,25965.720703125,-41828.95703125,49232.91796875,-58.16967010498047
45.0,7.878151416778564,31499.853515625,49097.2578125,-49097.2578125,58333.3671875,-57.31655120849609,1.0,1.1874311667270376e-07,0.8818253278732301,8.0,0.9970855116844176,0.5834845900535583,-146.76681518554688,0.13234105706214905,0.22412170469760892,1.0002587259805296e-05,-89.45027160644531,9.999999747378752e-06,0.0017677971627563238,31499.853515625,-49097.2578125,58333.3671875,-57.31655120849609
46.0,6.275100231170654,37117.87109375,55310.50390625,-55310.50390625,66610.7265625,-56.13515853881836,1.0,1.4180407958974686e-07,0.8243940472602845,8.0,0.9973364472389219,0.666274905204773,-145.4294281005859,0.14533913135528564,0.21555472910404205,1.000251722871326e-05,-89.29425811767578,9.999999747378752e-06,0.0016341860173270106,37117.87109375,-55310.50390625,66610.7265625,-56.13515853881836
47.0,5.013369083404541,42634.09375,60830.3125,-60830.3125,74283.1953125,-54.974571228027344,1.0,1.3578443258666084e-07,0.7707924842834472,8.0,0.9980448484420776,0.7433595061302185,-144.1440887451172,0.15338297188282013,0.20389544963836667,1.0007102900999598e-05,-89.16951751708984,9.999999747378752e-06,0.0014165795873850584,42634.09375,-60830.3125,74283.1953125,-54.974571228027344
48.0,3.939075708389282,49051.10546875,67052.3515625,-67052.3515625,83078.453125,-53.8132438659668,1.0,1.2766615498094325e-07,0.6977859139442444,8.0,0.9981094002723693,0.830838143825531,-142.8751220703125,0.1580764800310135,0.18800397217273712,1.0000646398111712e-05,-89.06188201904298,9.999999747378752e-06,0.0012228565756231546,49051.10546875,-67052.3515625,83078.453125,-53.8132438659668
49.0,3.137550115585327,55054.9375,72953.0,-72953.0,91395.765625,-52.95949172973633,1.0,1.3766693029992894e-07,0.6281212568283081,8.0,0.9983842968940736,0.914209485054016,-141.96495056152344,0.16159625351428983,0.17465776205062866,1.000275460683042e-05,-89.00545501708984,9.999999747378752e-06,0.0008925668662413954,55054.9375,-72953.0,91395.765625,-52.95949172973633
50.0,2.485418796539306,60561.80859375,79225.03125,-79225.03125,99721.3046875,-52.60470199584961,1.0,1.1960341339545266e-07,0.5444727540016174,8.0,0.9688236117362976,0.9676870703697203,175.1324920654297,0.09722851216793059,0.09927863627672195,9.703914656711277e-06,-132.2628173828125,9.999999747378752e-06,0.0003318373637739569,60561.80859375,-79225.03125,99721.3046875,-52.60470199584961
51.0,1.9955300092697144,65756.4375,82986.96875,-82986.96875,105880.8125,-51.60772705078125,1.0,1.2330795584603038e-07,0.44972485303878784,8.0,0.9864556789398192,1.078077793121338,-174.57986450195312,0.11067699640989304,0.10145191103219985,1.0181994184677023e-05,-122.9721450805664,9.999999747378752e-06,0.00042462436249479646,65756.4375,-82986.96875,105880.8125,-51.60772705078125
52.0,1.5836148262023924,72336.734375,88443.328125,-88443.328125,114257.71875,-50.720680236816406,1.0,1.2459608456083518e-07,0.3827374577522278,8.0,0.9944246411323548,1.1518073081970215,-166.1571807861328,0.12626604735851288,0.10832954943180084,1.0080783795274328e-05,-115.43649291992188,9.999999747378752e-06,0.00043008296051993966,72336.734375,-88443.328125,114257.71875,-50.720680236816406
53.0,1.258051514625549,79236.109375,93169.2734375,-93169.2734375,122306.4765625,-49.620391845703125,1.0,1.3100063256388242e-07,0.31427499651908875,8.0,0.9974417686462401,1.2267755270004272,-159.32162475585935,0.14875049889087677,0.11982207745313644,1.0030340490629897e-05,-109.70122528076172,9.999999747378752e-06,0.0005068791215308011,79236.109375,-93169.2734375,122306.4765625,-49.620391845703125
54.0,0.9977650046348573,85928.9609375,96778.9140625,-96778.9140625,129421.578125,-48.39847183227539,1.0,1.2901136869913898e-07,0.2753654420375824,8.0,0.9986410737037658,1.295771837234497,-153.61300659179688,0.18099880218505857,0.13803263008594513,1.0012024176830892e-05,-105.2145309448242,9.999999747378752e-06,0.0006788785685785115,85928.9609375,-96778.9140625,129421.578125,-48.39847183227539
