# point,freq,zreal,reflected_zimag,zimag,zmod,zphz,zsig,Idc,Vdc,ie_range,gain,vmod,vphz,vsig,vthd,imod,iphz,isig,ithd,zreal_drift,zimag_drift,zmod_drift,zphz_drift
0.0,250019.53125,4401.86328125,-348.2393493652344,348.2393493652344,4415.61669921875,4.523351669311523,1.0,4.5753751010124693e-07,0.4127238094806671,8.0,0.04042685404419898,0.016792014241218567,176.8744964599609,0.003966113086789846,0.23160216212272644,3.8028695144021194e-06,172.35113525390625,9.999999747378752e-06,0.16862082481384277,4401.86328125,348.2393493652344,4415.61669921875,4.523351669311523
1.0,198691.40625,4378.29248046875,-298.54983520507807,298.54983520507807,4388.45947265625,3.900883197784424,1.0,4.4179529368193476e-07,0.4820787906646729,8.0,0.048316657543182366,0.01994575187563896,142.0032196044922,0.0036175099667161694,0.17481380701065063,4.54504652225296e-06,138.10232543945312,9.999999747378752e-06,0.14394736289978027,4378.29248046875,298.54983520507807,4388.45947265625,3.900883197784424
2.0,157792.96875,4368.39990234375,-186.8365631103516,186.8365631103516,4372.3935546875,2.449049234390259,1.0,4.80718426842941e-07,0.5278609991073608,8.0,0.058826152235269547,0.024195304140448567,131.50030517578125,0.003798642894253135,0.14924681186676023,5.533652711164905e-06,129.05126953125,9.999999747378752e-06,0.14201299846172333,4368.39990234375,186.8365631103516,4372.3935546875,2.449049234390259
3.0,125332.03125,4344.9423828125,-104.23857879638672,104.23857879638672,4346.1923828125,1.3743070363998413,1.0,4.751539393055282e-07,0.5866084098815918,8.0,0.07229011505842207,0.029554888606071472,-25.663806915283203,0.003999735694378614,0.13031259179115295,6.8001795625605155e-06,-27.03811454772949,8.976614367384174e-07,0.12642666697502136,4344.9423828125,104.23857879638672,4346.1923828125,1.3743070363998413
4.0,99550.78125,4331.65771484375,-34.370559692382805,34.370559692382805,4331.7939453125,0.45461735129356384,1.0,3.522829388202809e-07,0.6057347655296326,8.0,0.08726639300584793,0.035559553653001785,-173.4194793701172,0.0018860554555431008,0.04683603346347809,8.20896639197599e-06,-173.8740997314453,9.999999747378752e-06,0.04637059941887856,4331.65771484375,34.370559692382805,4331.7939453125,0.45461735129356384
5.0,79160.15625,4344.28271484375,12.722492218017578,-12.722492218017578,4344.30126953125,-0.16779364645481107,1.0,3.3007020761033345e-07,0.6461266875267029,8.0,0.10983002185821532,0.04488305747509003,-89.80445098876953,0.002761013573035598,0.05909568816423416,1.0331479643355124e-05,-89.63665771484375,9.999999747378752e-06,0.05903169512748718,4344.28271484375,-12.722492218017578,4344.30126953125,-0.16779364645481107
6.0,62871.09375,4354.25830078125,56.59527969360352,-56.59527969360352,4354.62646484375,-0.7446706295013428,1.0,3.0034794917810364e-07,0.6265727281570435,8.0,0.142246812582016,0.05639912560582161,12.871259689331055,0.004093300085514784,0.07025953382253647,1.2951542885275556e-05,13.615931510925291,9.349395782010106e-07,0.07032372057437897,4354.25830078125,-56.59527969360352,4354.62646484375,-0.7446706295013428
7.0,49980.46875,4372.892578125,101.17881774902344,-101.17881774902344,4374.06298828125,-1.3254579305648804,1.0,2.556602396452945e-07,0.6589410901069641,8.0,0.2210134118795395,0.0679612085223198,-66.5923843383789,0.004796775989234448,0.07005929201841353,1.5537318176939152e-05,-65.26692199707031,1.111199253500672e-06,0.07054875046014786,4372.892578125,-101.17881774902344,4374.06298828125,-1.3254579305648804
8.0,39667.96875,4386.67431640625,142.81678771972656,-142.81678771972656,4388.99853515625,-1.8647178411483765,1.0,2.105892491499617e-07,0.6461950540542603,8.0,0.37557414174079895,0.07458344101905823,23.21178436279297,0.0032095718197524548,0.04242842271924018,1.6993273675325327e-05,25.07650184631348,9.999999747378752e-06,0.04406766593456268,4386.67431640625,-142.81678771972656,4388.99853515625,-1.8647178411483765
9.0,31582.03125,4407.2548828125,193.09385681152344,-193.09385681152344,4411.48291015625,-2.5086801052093506,1.0,1.739303314707286e-07,0.6466950178146361,8.0,0.5433996915817261,0.06382757425308228,169.41017150878906,0.0006160863558761775,0.0039140814915299416,1.4468506378761958e-05,171.91885375976562,9.999999747378752e-06,0.011224396526813509,4407.2548828125,-193.09385681152344,4411.48291015625,-2.5086801052093506
10.0,25019.53125,4435.25146484375,241.60771179199216,-241.60771179199216,4441.8271484375,-3.118072032928467,1.0,1.6557100934733174e-07,0.6424211859703064,8.0,0.6323720812797545,0.05169100686907768,-7.881780624389648,0.00024608601233921945,0.007796917576342821,1.1637328498181885e-05,-4.763708591461182,9.999999747378752e-06,0.013478110544383524,4435.25146484375,-241.60771179199216,4441.8271484375,-3.118072032928467
11.0,19863.28125,4455.0673828125,288.8202514648437,-288.8202514648437,4464.419921875,-3.709272146224976,1.0,1.7357530168737867e-07,0.6473454833030701,8.0,0.7118708491325377,0.05025665462017059,27.189542770385746,0.00022107873519416896,0.0011578559642657635,1.1257152436883189e-05,30.89881706237793,9.999999747378752e-06,0.0030679032206535335,4455.0673828125,-288.8202514648437,4464.419921875,-3.709272146224976
12.0,15682.8701171875,4484.505859375,349.3204040527344,-349.3204040527344,4498.09033203125,-4.454058647155762,1.0,1.9014819940821326e-07,0.656542956829071,8.0,0.7826132774353027,0.04945090040564537,19.12416076660156,0.0006437169504351914,0.0011391990119591355,1.0993753676302733e-05,23.57821655273437,9.999999747378752e-06,0.0027553709223866463,4484.505859375,-349.3204040527344,4498.09033203125,-4.454058647155762
13.0,12597.65625,4504.5283203125,427.6457214355469,-427.6457214355469,4524.7822265625,-5.423226833343506,1.0,1.510490221789951e-07,0.6610672473907471,8.0,0.8383468985557555,0.04847013577818871,-46.79634475708008,0.0002588351198937744,0.0013402542099356651,1.071214774128748e-05,-41.37311553955078,9.999999747378752e-06,0.0020104304421693087,4504.5283203125,-427.6457214355469,4524.7822265625,-5.423226833343506
14.0,9895.8330078125,4547.77978515625,497.3119201660156,-497.3119201660156,4574.89013671875,-6.240650653839111,1.0,1.5064141223319893e-07,0.6590701937675476,8.0,0.883455753326416,0.048210509121418,-61.561744689941406,0.00048534272355027497,0.006966954097151756,1.053806863637874e-05,-55.321094512939446,9.999999747378752e-06,0.002319304971024394,4547.77978515625,-497.3119201660156,4574.89013671875,-6.240650653839111
15.0,7910.15625,4586.92626953125,594.4662475585938,-594.4662475585938,4625.287109375,-7.384381294250488,1.0,1.3758335626334886e-07,0.6630033254623413,8.0,0.9143786430358887,0.04787182807922363,-50.80719757080078,0.0003428416093811393,0.0015814267098903656,1.035002242133487e-05,-43.42281723022461,9.999999747378752e-06,0.0029103781562298536,4586.92626953125,-594.4662475585938,4625.287109375,-7.384381294250488
16.0,6307.87060546875,4638.5283203125,694.8853149414064,-694.8853149414064,4690.2890625,-8.519966125488281,1.0,1.42597798458155e-07,0.676619291305542,8.0,0.9349262118339537,0.04795687273144721,36.53960800170898,0.0004091085866093636,0.0013847167138010263,1.0224715879303403e-05,45.0595703125,9.999999747378752e-06,0.001724518951959908,4638.5283203125,-694.8853149414064,4690.2890625,-8.519966125488281
17.0,4973.3232421875,4697.86865234375,835.6004638671875,-835.6004638671875,4771.603515625,-10.08560848236084,1.0,1.4576559692613958e-07,0.6824197769165039,8.0,0.9240938425064088,0.04716317355632781,-67.53699493408203,0.00045149517245590687,0.00080407498171553,9.884136488835793e-06,-57.45138549804688,9.999999747378752e-06,0.0005523976869881153,4697.86865234375,-835.6004638671875,4771.603515625,-10.08560848236084
18.0,3944.3598632812495,4761.29541015625,985.2396850585936,-985.2396850585936,4862.1630859375,-11.691031455993652,1.0,1.5441884215761092e-07,0.69309002161026,8.0,0.9518586993217468,0.0500824935734272,45.52413940429688,0.0004789140657521784,0.0010602590627968311,1.0300454960088244e-05,57.21517181396484,9.999999747378752e-06,0.0006190562853589654,4761.29541015625,-985.2396850585936,4862.1630859375,-11.691031455993652
19.0,3144.054931640625,4832.80419921875,1161.073486328125,-1161.073486328125,4970.32080078125,-13.50918960571289,1.0,1.315924578193517e-07,0.7012224197387695,8.0,0.966746985912323,0.050480622798204415,87.88914489746092,0.0003835417446680367,0.005836952477693558,1.0156412827200256e-05,101.39833068847656,9.999999747378752e-06,0.0007363457116298378,4832.80419921875,-1161.073486328125,4970.32080078125,-13.50918960571289
20.0,2488.426025390625,4922.3662109375,1376.6387939453125,-1376.6387939453125,5111.24462890625,-15.62471866607666,1.0,1.2529972082120366e-07,0.7095657587051392,8.0,0.9749938249588013,0.051548466086387634,150.15147399902344,9.999999747378752e-06,0.005021650344133377,1.008530489343684e-05,165.7761993408203,9.999999747378752e-06,0.0009161827038042248,4922.3662109375,-1376.6387939453125,5111.24462890625,-15.62471866607666
21.0,1976.6566162109373,5024.1494140625,1631.6241455078125,-1631.6241455078125,5282.44970703125,-17.991531372070312,1.0,1.2933297455219872e-07,0.7179243564605713,8.0,0.9809464812278749,0.05314701050519943,-136.4215087890625,9.999999747378752e-06,0.0009577550226822495,1.0061053217214067e-05,-118.42997741699217,9.999999747378752e-06,0.0010329496581107378,5024.1494140625,-1631.6241455078125,5282.44970703125,-17.991531372070312
22.0,1582.03125,5142.9013671875,1927.1864013671875,-1927.1864013671875,5492.12890625,-20.542354583740234,1.0,1.295577760629385e-07,0.7213172912597656,8.0,0.9845288395881652,0.05512185767292976,107.36563110351562,9.999999747378752e-06,0.0011857920326292515,1.003651959763374e-05,127.9079818725586,9.999999747378752e-06,0.0011460346868261695,5142.9013671875,-1927.1864013671875,5492.12890625,-20.542354583740234
23.0,1253.6336669921875,5289.2890625,2288.8935546875,-2288.8935546875,5763.298828125,-23.40012550354004,1.0,1.2873292121184934e-07,0.7304226160049438,8.0,0.9869688153266906,0.0577758215367794,136.07846069335935,9.999999747378752e-06,0.0014898471999913454,1.0024783478002064e-05,159.47857666015625,9.999999747378752e-06,0.0011717778397724032,5289.2890625,-2288.8935546875,5763.298828125,-23.40012550354004
24.0,996.09375,5464.21484375,2720.6845703125,-2720.6845703125,6104.078125,-26.469150543212887,1.0,1.2232936796863214e-07,0.7317622303962708,8.0,0.9892647862434387,0.061182774603366845,-24.829782485961918,0.0002105845633195713,0.0014755314914509654,1.00232628028607e-05,1.6393688917160034,9.999999747378752e-06,0.001471895957365632,5464.21484375,-2720.6845703125,6104.078125,-26.469150543212887
25.0,790.028076171875,5671.74755859375,3220.77490234375,-3220.77490234375,6522.431640625,-29.590633392333984,1.0,1.2843295849052086e-07,0.7436371445655823,8.0,0.9915336370468141,0.06537390500307083,-147.06520080566406,0.0004402661870699376,0.0025682861451059576,1.002293447527336e-05,-117.47457122802734,9.999999747378752e-06,0.001452925498597324,5671.74755859375,-3220.77490234375,6522.431640625,-29.590633392333984
26.0,628.8109741210938,5920.52490234375,3825.5981445312495,-3825.5981445312495,7048.95849609375,-32.868873596191406,1.0,1.215927056819055e-07,0.7436742186546325,8.0,0.9931999444961549,0.07060804218053818,65.69898223876953,0.0005656480789184569,0.0034323954023420806,1.0016805390478112e-05,98.56785583496092,9.999999747378752e-06,0.001089682220481336,5920.52490234375,-3825.5981445312495,7048.95849609375,-32.868873596191406
35.0,78.78150939941406,11743.15625,15489.1455078125,-15489.1455078125,19437.47265625,-52.83227157592773,1.0,1.0258071370117249e-07,0.8109380602836608,8.0,0.9894977211952208,0.19449375569820404,-147.7415008544922,0.011535990983247755,0.0577826239168644,1.0006123375205789e-05,-94.90922546386719,9.999999747378752e-06,0.0014520458644255996,11743.15625,-15489.1455078125,19437.47265625,-52.83227157592773
36.0,62.919464111328125,12962.6953125,17815.6015625,-17815.6015625,22032.41015625,-53.96023178100586,1.0,9.973696535325872e-08,0.8103225827217102,8.0,0.9905328154563904,0.22055457532405853,-147.33462524414062,0.01584736630320549,0.07010354846715927,1.0010460755438544e-05,-93.37439727783203,9.999999747378752e-06,0.0017195090185850859,12962.6953125,-17815.6015625,22032.41015625,-53.96023178100586
37.0,49.86701965332031,14457.1669921875,20608.236328125,-20608.236328125,25173.578125,-54.94942855834961,1.0,9.065437467370428e-08,0.8062365651130675,8.0,0.9917115569114685,0.25203537940979004,-148.51388549804688,0.021240638568997383,0.08324679732322691,1.001190048555145e-05,-93.56446075439453,9.999999747378752e-06,0.0017525760922580955,14457.1669921875,-20608.236328125,25173.578125,-54.94942855834961
38.0,39.72457504272461,16064.375,23701.8828125,-23701.8828125,28632.908203125,-55.87184143066406,1.0,9.569020420485683e-08,0.8013401031494141,8.0,0.9922911524772643,0.28649643063545227,-148.440185546875,0.027862008661031723,0.09609175473451614,1.0005844160332344e-05,-92.56835174560547,9.999999747378752e-06,0.001969866920262575,16064.375,-23701.8828125,28632.908203125,-55.87184143066406
39.0,31.459732055664062,17895.494140625,27156.0625,-27156.0625,32522.306640625,-56.61563491821289,1.0,9.548634949396728e-08,0.7982603311538696,8.0,0.992979347705841,0.325448602437973,-148.38465881347656,0.03612762317061424,0.1096656620502472,1.0006935553974472e-05,-91.7690200805664,9.999999747378752e-06,0.0019652775954455137,17895.494140625,-27156.0625,32522.306640625,-56.61563491821289
40.0,24.93350982666016,19877.70703125,30729.748046875,-30729.748046875,36598.37109375,-57.102970123291016,1.0,1.0259198290896165e-07,0.8020099401473998,8.0,0.9938159584999084,0.3662920594215393,-148.2458953857422,0.04658658429980279,0.12566351890563965,1.0008425306295976e-05,-91.1429214477539,9.999999747378752e-06,0.0019194097258150575,19877.70703125,-30729.748046875,36598.37109375,-57.102970123291016
41.0,19.862287521362305,21968.853515625,34443.24609375,-34443.24609375,40853.0,-57.46914291381836,1.0,1.1076535599841009e-07,0.8057268261909485,8.0,0.9946175813674927,0.4088595509529114,-148.11634826660156,0.058013107627630234,0.14020322263240814,1.0008066055888776e-05,-90.64720153808592,9.999999747378752e-06,0.0019823580514639616,21968.853515625,-34443.24609375,40853.0,-57.46914291381836
42.0,15.782828330993652,24444.50390625,38584.50390625,-38584.50390625,45676.0078125,-57.64444732666016,1.0,1.0316866649873191e-07,0.8023612499237059,8.0,0.9951702952384948,0.4570139348506928,-147.89466857910156,0.07085336744785309,0.15318991243839264,1.0005556760006584e-05,-90.2502212524414,9.999999747378752e-06,0.001923920353874564,24444.50390625,-38584.50390625,45676.0078125,-57.64444732666016
43.0,12.466754913330078,27160.259765625,42864.28125,-42864.28125,50744.71484375,-57.64026641845703,1.0,1.1259326981871709e-07,0.8032345175743102,8.0,0.9958549737930298,0.5077962875366211,-147.56434631347656,0.08577395230531693,0.16690516471862793,1.0006880074797664e-05,-89.92407226562499,9.999999747378752e-06,0.0016444615321233869,27160.259765625,-42864.28125,50744.71484375,-57.64026641845703
44.0,9.973403930664062,30328.759765625,47369.97265625,-47369.97265625,56247.203125,-57.37048339843751,1.0,1.1894444895688139e-07,0.7925666570663453,8.0,0.9961233735084531,0.5626236796379088,-147.0407257080078,0.10000686347484589,0.17564411461353302,1.0002695489674807e-05,-89.67023468017578,9.999999747378752e-06,0.001864967867732048,30328.759765625,-47369.97265625,56247.203125,-57.37048339843751
45.0,7.878151416778564,34392.86328125,52445.01953125,-52445.01953125,62716.41796875,-56.74358367919922,1.0,1.1236179631168854e-07,0.7698147892951965,8.0,0.9967978000640867,0.6275887489318848,-146.2087860107422,0.11420181393623352,0.17981953918933868,1.0006770025938748e-05,-89.46520233154298,9.999999747378752e-06,0.00162414344958961,34392.86328125,-52445.01953125,62716.41796875,-56.74358367919922
46.0,6.275100231170654,38825.48046875,57581.2734375,-57581.2734375,69447.9765625,-56.00928497314453,1.0,1.2048836595113246e-07,0.7398223876953125,8.0,0.9968954920768736,0.6945477724075316,-145.31295776367188,0.12598870694637299,0.17924949526786804,1.0000980182667261e-05,-89.30367279052734,9.999999747378752e-06,0.0015073661925271151,38825.48046875,-57581.2734375,69447.9765625,-56.00928497314453
47.0,5.013369083404541,43573.1640625,62732.35546875,-62732.35546875,76380.421875,-55.21660614013672,1.0,1.1499044916263301e-07,0.7015718817710876,8.0,0.9976829886436462,0.7644076347351073,-144.39585876464844,0.13538923859596252,0.17502194643020627,1.0007899618358351e-05,-89.17925262451172,9.999999747378752e-06,0.001294697867706418,43573.1640625,-62732.35546875,76380.421875,-55.21660614013672
48.0,3.939075708389282,48834.5078125,68353.984375,-68353.984375,84006.40625,-54.456645965576165,1.0,1.2871397814251398e-07,0.6571516990661621,8.0,0.9980624318122864,0.8403834700584412,-143.51974487304688,0.1439371556043625,0.16924315690994263,1.0003803254221566e-05,-89.06310272216797,9.999999747378752e-06,0.00116418965626508,48834.5078125,-68353.984375,84006.40625,-54.456645965576165
49.0,3.137550115585327,54018.41796875,73921.7109375,-73921.7109375,91555.4921875,-53.84246826171875,1.0,1.372249158748673e-07,0.6037533879280089,8.0,0.9985641241073608,0.9160151481628418,-142.8625946044922,0.14908823370933533,0.160814568400383,1.000502652459545e-05,-89.02013397216797,9.999999747378752e-06,0.0010275973472744226,54018.41796875,-73921.7109375,91555.4921875,-53.84246826171875
50.0,2.485418796539306,58566.04296875,79976.0390625,-79976.0390625,99126.9296875,-53.78487396240234,1.0,1.4750511923011802e-07,0.5416852235794067,8.0,0.9689670205116273,0.9618884325027466,173.95089721679688,0.08957166224718092,0.09201303124427795,9.70360360952327e-06,-132.2642364501953,9.999999747378752e-06,0.0004015400481875986,58566.04296875,-79976.0390625,99126.9296875,-53.78487396240234
51.0,1.9955300092697144,63320.90625,83856.859375,-83856.859375,105078.59375,-52.94329071044922,1.0,1.4039432016943465e-07,0.46196591854095453,8.0,0.9865413904190063,1.0698442459106443,-175.9014129638672,0.10599599778652193,0.09790314733982086,1.018137209030101e-05,-122.9581298828125,9.999999747378752e-06,0.0004911207361146808,63320.90625,-83856.859375,105078.59375,-52.94329071044922
52.0,1.5836148262023924,70058.9140625,89947.4453125,-89947.4453125,114012.2578125,-52.08543014526367,1.0,1.1828926460566437e-07,0.3879239559173584,8.0,0.9941648840904237,1.1489328145980835,-167.53372192382812,0.12210645526647568,0.1050220876932144,1.0077274964714888e-05,-115.44828796386717,9.999999747378752e-06,0.0004636633966583759,70058.9140625,-89947.4453125,114012.2578125,-52.08543014526367
53.0,1.258051514625549,77169.1328125,95282.1328125,-95282.1328125,122612.234375,-50.9959373474121,1.0,1.1764410601244891e-07,0.31591325998306274,8.0,0.9974304437637328,1.230149745941162,-160.69378662109375,0.14621102809906003,0.11745265126228333,1.0032847058027983e-05,-109.6978530883789,9.999999747378752e-06,0.0005930430488660932,77169.1328125,-95282.1328125,122612.234375,-50.9959373474121
54.0,0.9977650046348573,84393.453125,99367.4453125,-99367.4453125,130369.2578125,-49.65852737426758,1.0,1.201445201104434e-07,0.27010393142700195,8.0,0.999053955078125,1.3058146238327026,-154.87391662597656,0.18005302548408508,0.1362565904855728,1.001627697405638e-05,-105.21537780761717,9.999999747378752e-06,0.000779594702180475,84393.453125,-99367.4453125,130369.2578125,-49.65852737426758
