# point,freq,zreal,reflected_zimag,zimag,zmod,zphz,zsig,Idc,Vdc,ie_range,gain,vmod,vphz,vsig,vthd,imod,iphz,isig,ithd,zreal_drift,zimag_drift,zmod_drift,zphz_drift
0.0,250019.53125,4425.98388671875,-351.67266845703125,351.67266845703125,4439.93310546875,4.542971134185791,1.0,5.30923614405765e-07,0.4413236677646637,8.0,0.040125612169504166,0.016758671030402184,-25.64295959472656,0.0026589760091155767,0.15280744433403015,3.774532160605304e-06,-30.185932159423828,9.999999747378752e-06,0.16627182066440582,4425.98388671875,351.67266845703125,4439.93310546875,4.542971134185791
1.0,198691.40625,4427.35498046875,-268.3550720214844,268.3550720214844,4435.48046875,3.468622922897339,1.0,5.152882636139111e-07,0.5100193023681641,8.0,0.04785684496164322,0.019967613741755486,128.68222045898435,0.0036501432769000526,0.17267799377441406,4.501793227973393e-06,125.21358489990234,9.999999747378752e-06,0.15188626945018768,4427.35498046875,268.3550720214844,4435.48046875,3.468622922897339
2.0,157792.96875,4413.2109375,-194.56864929199216,194.56864929199216,4417.49755859375,2.52440881729126,1.0,5.110797474117136e-07,0.5708091855049133,8.0,0.05833115801215172,0.024239206686615944,98.64379119873047,0.003760423511266708,0.14921613037586212,5.487089765665587e-06,96.11938476562499,9.999999747378752e-06,0.13898645341396332,4413.2109375,194.56864929199216,4417.49755859375,2.52440881729126
3.0,125332.03125,4392.2626953125,-119.63765716552734,119.63765716552734,4393.89208984375,1.56025230884552,1.0,4.905285209133581e-07,0.6311013698577881,8.0,0.071586973965168,0.02958862669765949,41.02375411987305,0.004085108172148465,0.13284167647361755,6.734036560374079e-06,39.46350097656249,9.999999747378752e-06,0.12679721415042877,4392.2626953125,119.63765716552734,4393.89208984375,1.56025230884552
4.0,99550.78125,4367.263671875,-41.01268005371094,41.01268005371094,4367.4560546875,0.5380449891090393,1.0,3.3000353028000973e-07,0.6382429003715515,8.0,0.0865912139415741,0.035574909299612045,22.33683586120605,0.0021358607336878777,0.04573100432753562,8.14545364846708e-06,21.798791885375977,9.999999747378752e-06,0.046210888773202896,4367.263671875,41.01268005371094,4367.4560546875,0.5380449891090393
5.0,79160.15625,4381.7421875,9.765039443969727,-9.765039443969727,4381.7529296875,-0.1276877075433731,1.0,2.9158911729609827e-07,0.698218047618866,8.0,0.10904917865991592,0.04494814574718475,135.99630737304688,0.002847646828740835,0.06040090322494506,1.025802794174524e-05,136.12399291992188,9.999999747378752e-06,0.05912930890917777,4381.7421875,-9.765039443969727,4381.7529296875,-0.1276877075433731
6.0,62871.09375,4393.61669921875,57.91738510131836,-57.91738510131836,4393.99853515625,-0.7552387118339537,1.0,2.930552227553563e-07,0.73720782995224,8.0,0.14021204411983487,0.05649666488170624,-36.23625564575195,0.004085633438080548,0.0700480118393898,1.2857688489020802e-05,-35.48101806640625,9.289140052715086e-07,0.07048255205154419,4393.61669921875,-57.91738510131836,4393.99853515625,-0.7552387118339537
7.0,49980.46875,4408.65478515625,99.33528900146483,-99.33528900146483,4409.77392578125,-1.2907633781433103,1.0,2.107875332058029e-07,0.7541529536247252,8.0,0.21712273359298703,0.06828673183917999,-147.7941131591797,0.005001821089535952,0.07276773452758789,1.5485313269891776e-05,-146.5033416748047,1.1155707397847436e-06,0.07110439240932465,4408.65478515625,-99.33528900146483,4409.77392578125,-1.2907633781433103
8.0,39667.96875,4425.28271484375,144.38121032714844,-144.38121032714844,4427.6376953125,-1.8686943054199217,1.0,1.5434542888215222e-07,0.7423179745674133,8.0,0.3690183758735657,0.07525141537189484,-8.714025497436523,0.0033722883090376854,0.044127710163593285,1.6995842088363133e-05,-6.845330715179443,9.999999747378752e-06,0.04535023495554924,4425.28271484375,-144.38121032714844,4427.6376953125,-1.8686943054199217
9.0,31582.03125,4447.6943359375,184.2979888916016,-184.2979888916016,4451.5107421875,-2.372793436050415,1.0,1.2479658551001194e-07,0.7278450727462769,8.0,0.5393766164779663,0.06506562232971191,117.14437103271484,9.999999747378752e-06,0.003886792808771133,1.4616523912991395e-05,119.51716613769533,9.999999747378752e-06,0.010088552720844744,4447.6943359375,-184.2979888916016,4451.5107421875,-2.372793436050415
10.0,25019.53125,4466.390625,234.7388610839844,-234.7388610839844,4472.55517578125,-3.0085105895996094,1.0,1.331262922121823e-07,0.7266288995742797,8.0,0.6303653120994568,0.05227040871977806,-37.296329498291016,0.0006045624031685293,0.008493538014590738,1.1686924153764267e-05,-34.287818908691406,9.999999747378752e-06,0.011407619342207909,4466.390625,-234.7388610839844,4472.55517578125,-3.0085105895996094
11.0,19863.28125,4492.46630859375,287.6861572265625,-287.6861572265625,4501.66845703125,-3.664073467254639,1.0,1.221091849856748e-07,0.7325562834739685,8.0,0.710345447063446,0.05072836577892304,24.366394042968754,9.999999747378752e-06,0.0010001866612583399,1.1268790331087075e-05,28.030469894409176,9.999999747378752e-06,0.0024323519319295883,4492.46630859375,-287.6861572265625,4501.66845703125,-3.664073467254639
12.0,15682.8701171875,4516.30126953125,345.5328369140625,-345.5328369140625,4529.5,-4.375058174133301,1.0,1.1066844507467977e-07,0.7374727129936217,8.0,0.7824247479438781,0.04989111423492432,-16.987056732177734,0.00015594452270306647,0.0011005974374711511,1.1014707524736876e-05,-12.611998558044432,9.999999747378752e-06,0.001648935955017805,4516.30126953125,-345.5328369140625,4529.5,-4.375058174133301
13.0,12597.65625,4554.12255859375,402.7905883789063,-402.7905883789063,4571.900390625,-5.0543885231018075,1.0,1.0761660718117129e-07,0.737523853778839,8.0,0.8343173265457153,0.04875121638178825,-77.03549194335938,0.0006035756669007242,0.0012270233128219843,1.0663227840268519e-05,-71.9811019897461,9.999999747378752e-06,0.0018610793631523848,4554.12255859375,-402.7905883789063,4571.900390625,-5.0543885231018075
14.0,9895.8330078125,4586.8359375,497.5107421875,-497.5107421875,4613.73828125,-6.190381526947021,1.0,1.099152768802014e-07,0.7395392656326294,8.0,0.8810471892356871,0.04872151836752892,-73.06678009033203,9.999999747378752e-06,0.00624009408056736,1.056009659805568e-05,-66.87639617919922,9.999999747378752e-06,0.002174266381189227,4586.8359375,-497.5107421875,4613.73828125,-6.190381526947021
15.0,7910.15625,4623.47802734375,575.699462890625,-575.699462890625,4659.18212890625,-7.097740650177002,1.0,1.2239627267263134e-07,0.7461923956871032,8.0,0.9132735729217528,0.04829603061079978,-51.794944763183594,0.0005172094679437578,0.001150014461018145,1.0365773960074876e-05,-44.69720077514648,9.999999747378752e-06,0.002068823901936412,4623.47802734375,-575.699462890625,4659.18212890625,-7.097740650177002
16.0,6307.87060546875,4672.64404296875,684.0949096679688,-684.0949096679688,4722.45556640625,-8.329171180725098,1.0,1.2413070749062174e-07,0.7516299486160278,8.0,0.935982644557953,0.04839882627129554,45.79400634765625,9.999999747378752e-06,0.0012943095061928032,1.024865559884347e-05,54.12317657470703,9.999999747378752e-06,0.0026998985558748245,4672.64404296875,-684.0949096679688,4722.45556640625,-8.329171180725098
17.0,4973.3232421875,4736.078125,822.9607543945312,-822.9607543945312,4807.046875,-9.85752773284912,1.0,1.4044128704426842e-07,0.7590647935867308,8.0,0.9233691096305848,0.04742266237735748,-59.71335220336913,9.999999747378752e-06,0.001344588934443891,9.865237188932952e-06,-49.85582733154297,9.999999747378752e-06,0.0006503237527795136,4736.078125,-822.9607543945312,4807.046875,-9.85752773284912
18.0,3944.3598632812495,4799.6474609375,965.5547485351561,-965.5547485351561,4895.8056640625,-11.374486923217772,1.0,1.1798327648193663e-07,0.7674345970153807,8.0,0.9515959620475768,0.050454676151275635,50.897136688232415,0.0006386972381733358,0.0005251137772575021,1.030569455906516e-05,62.27162170410156,9.999999747378752e-06,0.0006296102073974907,4799.6474609375,-965.5547485351561,4895.8056640625,-11.374486923217772
19.0,3144.054931640625,4872.60888671875,1134.6624755859375,-1134.6624755859375,5002.9765625,-13.108598709106444,1.0,1.1012880918315204e-07,0.775063157081604,8.0,0.9671316742897031,0.05084655061364174,88.83690643310547,0.0006289168377406895,0.005109820049256086,1.0163259503315201e-05,101.94549560546876,9.999999747378752e-06,0.0007591386092826723,4872.60888671875,-1134.6624755859375,5002.9765625,-13.108598709106444
20.0,2488.426025390625,4962.30712890625,1342.0523681640625,-1342.0523681640625,5140.5830078125,-15.133564949035645,1.0,1.1623237838875867e-07,0.7804028987884521,8.0,0.9762075543403624,0.05188823863863945,147.46096801757812,0.0005838994402438401,0.005607114639133215,1.0093843229697084e-05,162.59454345703125,9.999999747378752e-06,0.0008581847650930284,4962.30712890625,-1342.0523681640625,5140.5830078125,-15.133564949035645
21.0,1976.6566162109373,5067.5830078125,1586.834716796875,-1586.834716796875,5310.220703125,-17.387134552001953,1.0,1.23927009099134e-07,0.7852582931518554,8.0,0.9809075593948364,0.05335786938667297,-134.9328460693359,0.000318694714223966,0.0010011127451434731,1.0048145668406503e-05,-117.54572296142578,9.999999747378752e-06,0.0009934218833222983,5067.5830078125,-1586.834716796875,5310.220703125,-17.387134552001953
22.0,1582.03125,5190.42138671875,1859.6936035156248,-1859.6936035156248,5513.52294921875,-19.71226692199707,1.0,1.2839716134749324e-07,0.7923271059989929,8.0,0.9851997494697571,0.055376484990119934,106.9876708984375,0.0006298638763837516,0.0014603070449084044,1.004375735647045e-05,126.6999282836914,9.999999747378752e-06,0.0010567109566181898,5190.42138671875,-1859.6936035156248,5513.52294921875,-19.71226692199707
23.0,1253.6336669921875,5337.7685546875,2187.398681640625,-2187.398681640625,5768.57763671875,-22.283643722534176,1.0,1.2541376293029316e-07,0.803949236869812,8.0,0.9886814951896669,0.057889636605978005,136.73452758789062,0.0008038124069571494,0.001688348944298923,1.0035339983005542e-05,159.01817321777344,9.999999747378752e-06,0.0011687575606629252,5337.7685546875,-2187.398681640625,5768.57763671875,-22.283643722534176
24.0,996.09375,5516.2841796875,2589.628173828125,-2589.628173828125,6093.89599609375,-25.147781372070312,1.0,1.1470651628542329e-07,0.803319811820984,8.0,0.9899698495864867,0.06101836636662483,-23.479055404663082,9.999999747378752e-06,0.00240281387232244,1.0013030987465754e-05,1.6687246561050415,9.999999747378752e-06,0.0014672710094600916,5516.2841796875,-2589.628173828125,6093.89599609375,-25.147781372070312
25.0,790.028076171875,5724.46337890625,3043.748779296875,-3043.748779296875,6483.3544921875,-27.999980926513672,1.0,1.1871028959831165e-07,0.8125032782554625,8.0,0.9934989809989928,0.06506467610597609,-145.21392822265625,0.0003216732293367386,0.003384597133845091,1.0035649211204143e-05,-117.21394348144533,9.999999747378752e-06,0.0014217670541256666,5724.46337890625,-3043.748779296875,6483.3544921875,-27.999980926513672
26.0,628.8109741210938,5973.7763671875,3590.9375,-3590.9375,6969.99560546875,-31.01078414916992,1.0,1.2754611589116394e-07,0.814033269882202,8.0,0.9943300485610962,0.06975826621055603,68.94278717041016,9.999999747378752e-06,0.004873967263847589,1.000836527964566e-05,99.9535675048828,9.999999747378752e-06,0.0014544512378051877,5973.7763671875,-3590.9375,6969.99560546875,-31.01078414916992
35.0,78.78150939941406,10852.8203125,13441.5107421875,-13441.5107421875,17275.935546875,-51.08222198486328,1.0,1.306739392248346e-07,0.897529363632202,8.0,0.9911631941795347,0.17288629710674283,-145.9650726318359,0.01249660551548004,0.07051719725131989,1.0007348464569075e-05,-94.88285064697264,9.999999747378752e-06,0.0016628620214760303,10852.8203125,-13441.5107421875,17275.935546875,-51.08222198486328
36.0,62.919464111328125,11902.099609375,15607.7158203125,-15607.7158203125,19628.060546875,-52.67165756225586,1.0,1.2488969503010594e-07,0.8969928622245789,8.0,0.9915605187416077,0.1963592916727066,-146.03736877441406,0.01686321198940277,0.08374305814504622,1.0004008800024167e-05,-93.36571502685545,9.999999747378752e-06,0.0015676131006330252,11902.099609375,-15607.7158203125,19628.060546875,-52.67165756225586
37.0,49.86701965332031,13179.5908203125,18230.669921875,-18230.669921875,22495.75390625,-54.13551330566406,1.0,1.243429892383574e-07,0.8923125863075256,8.0,0.9924039840698241,0.22514890134334564,-147.6667938232422,0.022208355367183685,0.09737496823072432,1.0008506251324432e-05,-93.53128814697264,9.999999747378752e-06,0.0019566086120903488,13179.5908203125,-18230.669921875,22495.75390625,-54.13551330566406
38.0,39.72457504272461,14629.095703125,21217.91015625,-21217.91015625,25772.275390625,-55.41493225097656,1.0,1.1323663784423844e-07,0.8852647542953491,8.0,0.9931792020797728,0.2579240798950196,-147.95147705078125,0.02896139957010746,0.11090746521949768,1.000781139737228e-05,-92.53653717041016,9.999999747378752e-06,0.001991976285353303,14629.095703125,-21217.91015625,25772.275390625,-55.41493225097656
39.0,31.459732055664062,16059.0654296875,24131.3359375,-24131.3359375,28986.4609375,-56.356792449951165,1.0,9.566925740500665e-08,0.8951930999755859,8.0,0.9936609864234924,0.2900052070617676,-148.09547424316406,0.03733164444565773,0.12718982994556427,1.0004850992118008e-05,-91.73868560791016,9.999999747378752e-06,0.002177045913413167,16059.0654296875,-24131.3359375,28986.4609375,-56.356792449951165
40.0,24.93350982666016,17916.173828125,27491.478515625,-27491.478515625,32814.18359375,-56.907745361328125,1.0,1.2047563302530762e-07,0.8978464603424072,8.0,0.9942029118537904,0.32832083106040955,-148.03419494628906,0.04779817909002304,0.1438215970993042,1.0005453987105284e-05,-91.12645721435545,9.999999747378752e-06,0.002157660434022546,17916.173828125,-27491.478515625,32814.18359375,-56.907745361328125
41.0,19.862287521362305,20132.794921875,31495.71484375,-31495.71484375,37380.6015625,-57.41233825683594,1.0,1.3819979471918487e-07,0.8872917890548706,8.0,0.9947457909584044,0.37401014566421514,-148.04139709472656,0.059707626700401306,0.1577400416135788,1.0005460353568196e-05,-90.62905883789062,9.999999747378752e-06,0.0019321315921843048,20132.794921875,-31495.71484375,37380.6015625,-57.41233825683594
42.0,15.782828330993652,22158.455078125,35071.1171875,-35071.1171875,41484.69921875,-57.714691162109375,1.0,1.412189618577031e-07,0.8982270359992981,8.0,0.9957011342048643,0.4152454137802124,-147.9452972412109,0.07338941097259521,0.17464832961559296,1.0009604011429472e-05,-90.23061370849608,9.999999747378752e-06,0.001950715319253504,22158.455078125,-35071.1171875,41484.69921875,-57.714691162109375
43.0,12.466754913330078,25231.802734375,39803.83984375,-39803.83984375,47127.375,-57.6292381286621,1.0,8.006488627643193e-08,0.8860033750534058,8.0,0.9960964322090149,0.4714608788490296,-147.53712463378906,0.08990585058927536,0.18842194974422452,1.000396969175199e-05,-89.90789031982422,9.999999747378752e-06,0.0018982472829520705,25231.802734375,-39803.83984375,47127.375,-57.6292381286621
44.0,9.973403930664062,28802.490234375,44899.87890625,-44899.87890625,53344.00390625,-57.320533752441406,1.0,1.5855225399263873e-07,0.8618428111076355,8.0,0.9964514970779419,0.5336301922798157,-146.98912048339844,0.10538485646247864,0.19514353573322296,1.00035649666097e-05,-89.6685791015625,9.999999747378752e-06,0.0018694086465984585,28802.490234375,-44899.87890625,53344.00390625,-57.320533752441406
45.0,7.878151416778564,32992.73046875,50104.51171875,-50104.51171875,59991.5234375,-56.63596725463867,1.0,9.989767590923293e-08,0.8391897678375245,8.0,0.9970663189888,0.6002852916717529,-146.0924530029297,0.1210515797138214,0.19926792383193967,1.000616975943558e-05,-89.45648193359375,9.999999747378752e-06,0.0016861559124663472,32992.73046875,-50104.51171875,59991.5234375,-56.63596725463867
46.0,6.275100231170654,37866.31640625,55485.08984375,-55485.08984375,67174.796875,-55.68805694580078,1.0,1.211978570836436e-07,0.7978709936141967,8.0,0.9976419210433961,0.6721357703208923,-144.99595642089844,0.1320870965719223,0.19419237971305847,1.0005773219745606e-05,-89.30789947509764,9.999999747378752e-06,0.0014291174011304975,37866.31640625,-55485.08984375,67174.796875,-55.68805694580078
47.0,5.013369083404541,43286.72265625,60986.49609375,-60986.49609375,74786.984375,-54.6338005065918,1.0,1.5715734491550393e-07,0.740332841873169,8.0,0.997710347175598,0.7479211688041686,-143.8144073486328,0.13841283321380615,0.18287046253681183,1.0000685506383888e-05,-89.18060302734375,9.999999747378752e-06,0.0013918366748839617,43286.72265625,-60986.49609375,74786.984375,-54.6338005065918
48.0,3.939075708389282,48872.9609375,66599.03125,-66599.03125,82607.4921875,-53.72732925415039,1.0,1.724416875958923e-07,0.6864453554153441,8.0,0.9981980323791506,0.8264786601066588,-142.8012237548828,0.1454225480556488,0.17386643588542938,1.000488828140078e-05,-89.07389831542967,9.999999747378752e-06,0.0011693255510181189,48872.9609375,-66599.03125,82607.4921875,-53.72732925415039
49.0,3.137550115585327,54356.23828125,72240.1484375,-72240.1484375,90405.96875,-53.04080581665039,1.0,1.3033951518082176e-07,0.6261578798294067,8.0,0.9983333349227904,0.9041823148727418,-141.9992523193359,0.1497611254453659,0.1636596918106079,1.0001355803979097e-05,-88.95845031738281,9.999999747378752e-06,0.0009291738970205187,54356.23828125,-72240.1484375,90405.96875,-53.04080581665039
50.0,2.485418796539306,59511.20703125,78446.15625,-78446.15625,98465.140625,-52.81514358520508,1.0,1.1253301579472465e-07,0.5460879802703857,8.0,0.9690107703208924,0.9557306766510008,174.9174346923828,0.08876825124025343,0.09177492558956146,9.706284799904095e-06,-132.26742553710935,9.999999747378752e-06,0.00036373571492731566,59511.20703125,-78446.15625,98465.140625,-52.81514358520508
51.0,1.9955300092697144,64334.32421875,82322.0234375,-82322.0234375,104478.8046875,-51.9925193786621,1.0,1.4256562508307982e-07,0.4646638631820679,8.0,0.9862954616546631,1.0634244680404663,-174.9568328857422,0.10475780814886092,0.09734541177749632,1.0178374395763967e-05,-122.9643096923828,9.999999747378752e-06,0.00043706849100999534,64334.32421875,-82322.0234375,104478.8046875,-51.9925193786621
52.0,1.5836148262023924,70984.328125,88065.5859375,-88065.5859375,113111.9921875,-51.12982177734375,1.0,1.2245044445080566e-07,0.3955096304416656,8.0,0.994243025779724,1.1402347087860107,-166.57156372070312,0.12095407396554946,0.10482410341501236,1.0080580068461131e-05,-115.44174194335936,9.999999747378752e-06,0.0004246435419190675,70984.328125,-88065.5859375,113111.9921875,-51.12982177734375
53.0,1.258051514625549,77905.375,93046.8046875,-93046.8046875,121354.6640625,-50.06154251098633,1.0,1.3433677281682321e-07,0.33286672830581665,8.0,0.9974567294120787,1.2174690961837769,-159.75840759277344,0.14590279757976532,0.11842523515224455,1.003232318907976e-05,-109.69686126708984,9.999999747378752e-06,0.0004826122312806546,77905.375,-93046.8046875,121354.6640625,-50.06154251098633
54.0,0.9977650046348573,84960.265625,96824.9375,-96824.9375,128815.0390625,-48.734256744384766,1.0,1.1723537340913027e-07,0.29045605659484863,8.0,0.9988872408866881,1.2899976968765259,-153.94544982910156,0.1782083958387375,0.13651257753372192,1.0014341569331007e-05,-105.21118927001952,9.999999747378752e-06,0.0002866405120585114,84960.265625,-96824.9375,128815.0390625,-48.734256744384766
