# point,freq,zreal,reflected_zimag,zimag,zmod,zphz,zsig,Idc,Vdc,ie_range,gain,vmod,vphz,vsig,vthd,imod,iphz,isig,ithd,zreal_drift,zimag_drift,zmod_drift,zphz_drift
0.0,250019.53125,4413.85400390625,-331.1725769042969,331.1725769042969,4426.2607421875,4.290876865386962,1.0,5.242321208243085e-07,0.3971595168113709,8.0,0.04032079130411148,0.016788329929113388,-160.7108612060547,0.0035177140962332487,0.19731131196022036,3.7928923575236686e-06,-165.00173950195312,9.999999747378752e-06,0.16631996631622314,4413.85400390625,331.1725769042969,4426.2607421875,4.290876865386962
1.0,198691.40625,4363.05322265625,-268.7782897949219,268.7782897949219,4371.32421875,3.52515172958374,1.0,5.161201102055202e-07,0.5155109763145447,8.0,0.048397790640592575,0.019901232793927193,-141.28053283691406,0.003715295810252428,0.17381660640239716,4.552678547042888e-06,-144.80569458007812,9.999999747378752e-06,0.14912104606628415,4363.05322265625,268.7782897949219,4371.32421875,3.52515172958374
2.0,157792.96875,4355.5419921875,-165.0466766357422,165.0466766357422,4358.66796875,2.1700985431671143,1.0,4.827992370337597e-07,0.5875149965286255,8.0,0.05883796140551567,0.02412419766187668,159.75823974609375,0.003829164896160364,0.15230414271354675,5.53476365894312e-06,157.588134765625,9.999999747378752e-06,0.14003609120845795,4355.5419921875,165.0466766357422,4358.66796875,2.1700985431671143
3.0,125332.03125,4346.62744140625,-111.16378784179688,111.16378784179688,4348.048828125,1.465004324913025,1.0,4.4949192101739765e-07,0.6345453858375549,8.0,0.0721403732895851,0.029506266117095947,-51.97201919555664,0.004036605358123779,0.1317468285560608,6.786093763366807e-06,-53.4370231628418,9.210840516971076e-07,0.12758120894432068,4346.62744140625,111.16378784179688,4348.048828125,1.465004324913025
4.0,99550.78125,4340.5830078125,-23.27890014648437,23.27890014648437,4340.6455078125,0.30727899074554443,1.0,3.054433364013676e-07,0.6334330439567566,8.0,0.08702122420072556,0.03553210571408272,170.12039184570312,0.0020680311135947704,0.04688933864235877,8.185904334823134e-06,169.81312561035156,9.999999747378752e-06,0.04634464532136917,4340.5830078125,23.27890014648437,4340.6455078125,0.30727899074554443
5.0,79160.15625,4343.0546875,35.58241271972656,-35.58241271972656,4343.2001953125,-0.4694107472896576,1.0,2.906251665990567e-07,0.692564845085144,8.0,0.10969258099794388,0.0448155365884304,-72.05765533447266,0.002760970266535878,0.0591723546385765,1.031855117616942e-05,-71.58824157714844,9.999999747378752e-06,0.05952069908380509,4343.0546875,-35.58241271972656,4343.2001953125,-0.4694107472896576
6.0,62871.09375,4356.40869140625,80.18605041503906,-80.18605041503906,4357.146484375,-1.0544933080673216,1.0,2.674487120657432e-07,0.677156627178192,8.0,0.14185667037963867,0.05634751170873641,34.50969696044922,0.0041703335009515285,0.07098743319511414,1.2932203389937058e-05,35.564186096191406,9.400435487805224e-07,0.07048738747835159,4356.40869140625,-80.18605041503906,4357.146484375,-1.0544933080673216
7.0,49980.46875,4375.8544921875,126.83723449707033,-126.83723449707033,4377.6923828125,-1.6602938175201416,1.0,2.0712394643851442e-07,0.7150461077690125,8.0,0.22008816897869113,0.06791913509368896,-39.721561431884766,0.005097221117466688,0.07423917204141615,1.5514826372964308e-05,-38.0612678527832,1.1143457641082932e-06,0.07084903866052628,4375.8544921875,-126.83723449707033,4377.6923828125,-1.6602938175201416
8.0,39667.96875,4396.615234375,176.74813842773435,-176.74813842773435,4400.16650390625,-2.30210542678833,1.0,1.5942883635489125e-07,0.7018898129463196,8.0,0.37315812706947327,0.07460454851388931,115.80296325683592,0.003276763716712594,0.042931586503982544,1.6954938473645594e-05,118.10506439208984,9.999999747378752e-06,0.044764671474695206,4396.615234375,-176.74813842773435,4400.16650390625,-2.30210542678833
9.0,31582.03125,4419.6767578125,226.62779235839844,-226.62779235839844,4425.4833984375,-2.9353852272033687,1.0,1.2805439553176257e-07,0.7031972408294678,8.0,0.5404620766639708,0.06409630924463272,-166.22149658203125,0.00037632515886798496,0.004367470741271973,1.4483459381153809e-05,-163.2861175537109,9.999999747378752e-06,0.01143530197441578,4419.6767578125,-226.62779235839844,4425.4833984375,-2.9353852272033687
10.0,25019.53125,4446.94287109375,280.5140075683594,-280.5140075683594,4455.78125,-3.6094462871551514,1.0,1.2576433050526248e-07,0.6984392404556273,8.0,0.6289530992507936,0.05185335874557495,-32.26634979248047,0.0007741991430521011,0.009619431570172306,1.1637321222224273e-05,-28.65690231323242,9.999999747378752e-06,0.014225236140191557,4446.94287109375,-280.5140075683594,4455.78125,-3.6094462871551514
11.0,19863.28125,4477.36376953125,339.4542541503906,-339.4542541503906,4490.21337890625,-4.335622787475586,1.0,1.2422530915046082e-07,0.6917194724082947,8.0,0.7074032425880432,0.05050283670425415,62.157817840576165,0.0003092019469477236,0.0009824032895267008,1.1247313523199408e-05,66.49343872070312,9.999999747378752e-06,0.0024692602455616,4477.36376953125,-339.4542541503906,4490.21337890625,-4.335622787475586
12.0,15682.8701171875,4510.169921875,407.4635009765625,-407.4635009765625,4528.5380859375,-5.16227388381958,1.0,1.1220397766464885e-07,0.6905374526977539,8.0,0.7789503931999207,0.04986556991934776,-28.550249099731445,0.00036929044290445745,0.0011498042149469256,1.101140514947474e-05,-23.38797378540039,9.999999747378752e-06,0.0020170621573925014,4510.169921875,-407.4635009765625,4528.5380859375,-5.16227388381958
13.0,12597.65625,4543.04833984375,475.6207275390625,-475.6207275390625,4567.87744140625,-5.97663688659668,1.0,1.1107919561936797e-07,0.6903865933418274,8.0,0.83265620470047,0.048828158527612686,-74.15843200683594,0.00032645536703057587,0.0008684574859216809,1.0689464033930562e-05,-68.18180084228516,9.999999747378752e-06,0.0019078454934060571,4543.04833984375,-475.6207275390625,4567.87744140625,-5.97663688659668
14.0,9895.8330078125,4593.31982421875,568.221923828125,-568.221923828125,4628.33251953125,-7.052013397216797,1.0,1.0902508762455909e-07,0.6941467523574829,8.0,0.8763221502304077,0.048710506409406655,-72.95072937011719,0.00040056923171505327,0.005977887660264969,1.0524417120905127e-05,-65.89871978759766,9.999999747378752e-06,0.0030091882217675447,4593.31982421875,-568.221923828125,4628.33251953125,-7.052013397216797
15.0,7910.15625,4642.08349609375,671.6808471679688,-671.6808471679688,4690.42578125,-8.233205795288086,1.0,1.1195278659670294e-07,0.6941522359848022,8.0,0.9084442257881165,0.04862356185913086,-53.85258102416992,0.00035513861803337926,0.001063686446286738,1.03665561255184e-05,-45.61937713623047,9.999999747378752e-06,0.003217767458409071,4642.08349609375,-671.6808471679688,4690.42578125,-8.233205795288086
16.0,6307.87060546875,4697.4453125,785.8668823242188,-785.8668823242188,4762.72802734375,-9.497438430786131,1.0,1.066384598402692e-07,0.6943941116333008,8.0,0.931802213191986,0.04885187372565269,38.12721252441406,0.0005843076505698264,0.001453747390769422,1.025712026603287e-05,47.62464904785156,9.999999747378752e-06,0.0021926523186266422,4697.4453125,-785.8668823242188,4762.72802734375,-9.497438430786131
17.0,4973.3232421875,4772.1337890625,938.9278564453123,-938.9278564453123,4863.625,-11.13089370727539,1.0,1.1798319121680834e-07,0.6934103965759277,8.0,0.9202153682708739,0.048031467944383614,-69.73130798339844,0.0002269326214445755,0.000370922964066267,9.875651812762952e-06,-58.60041427612305,9.999999747378752e-06,0.0006167734973132609,4772.1337890625,-938.9278564453123,4863.625,-11.13089370727539
18.0,3944.3598632812495,4848.18017578125,1108.6689453125,-1108.6689453125,4973.32861328125,-12.88076877593994,1.0,9.428945446643411e-08,0.6891673803329468,8.0,0.9476461410522462,0.051215790212154395,49.77233123779297,0.0005299595068208873,0.0007033228175714612,1.0298090273863636e-05,62.653099060058594,9.999999747378752e-06,0.0005791179719381033,4848.18017578125,-1108.6689453125,4973.32861328125,-12.88076877593994
19.0,3144.054931640625,4935.12548828125,1307.470458984375,-1307.470458984375,5105.3837890625,-14.83856201171875,1.0,1.2474212951474328e-07,0.680933952331543,8.0,0.9624540209770202,0.051851604133844376,85.72669219970702,0.0003966815711464733,0.00553609523922205,1.0156260032090358e-05,100.56525421142578,9.999999747378752e-06,0.0006902476307004689,4935.12548828125,-1307.470458984375,5105.3837890625,-14.83856201171875
20.0,2488.426025390625,5041.50244140625,1549.8587646484375,-1549.8587646484375,5274.35400390625,-17.088476181030273,1.0,1.2926113868161337e-07,0.6816592216491699,8.0,0.970935881137848,0.05320835113525391,145.40370178222656,0.0002036782534560189,0.005073941312730312,1.0088127055496445e-05,162.4921875,9.999999747378752e-06,0.0010765121551230548,5041.50244140625,-1549.8587646484375,5274.35400390625,-17.088476181030273
21.0,1976.6566162109373,5164.43017578125,1839.6457519531248,-1839.6457519531248,5482.30224609375,-19.606645584106445,1.0,1.2867749887846003e-07,0.6763190031051636,8.0,0.9773789048194883,0.05518682301044464,-136.42660522460935,0.0001733226526994258,0.0010878038592636583,1.0066359209304208e-05,-116.81996154785156,9.999999747378752e-06,0.0009616899769753216,5164.43017578125,-1839.6457519531248,5482.30224609375,-19.606645584106445
22.0,1582.03125,5305.9462890625,2178.880126953125,-2178.880126953125,5735.90283203125,-22.325443267822266,1.0,1.330433576640644e-07,0.6676076650619507,8.0,0.9815540909767152,0.05760405957698823,103.89493560791016,0.0005368873826228081,0.001481153187341988,1.0042717804026324e-05,126.22038269042967,9.999999747378752e-06,0.0011497898958623407,5305.9462890625,-2178.880126953125,5735.90283203125,-22.325443267822266
23.0,1253.6336669921875,5480.146484375,2577.84375,-2577.84375,6056.17724609375,-25.192148208618164,1.0,1.3030459911078654e-07,0.6740554571151732,8.0,0.9848335981369017,0.0607641227543354,134.41925048828125,9.999999747378752e-06,0.001573823974467814,1.0033411854237784e-05,159.6114044189453,9.999999747378752e-06,0.0012336272047832608,5480.146484375,-2577.84375,6056.17724609375,-25.192148208618164
24.0,996.09375,5681.0087890625,3067.1416015625,-3067.1416015625,6456.09912109375,-28.364336013793945,1.0,1.2000805327261332e-07,0.6678606271743774,8.0,0.9867504239082336,0.06468664854764937,-25.81232643127441,9.999999747378752e-06,0.002196905668824911,1.0019462933996692e-05,2.552009344100952,9.999999747378752e-06,0.0013294070959091187,5681.0087890625,-3067.1416015625,6456.09912109375,-28.364336013793945
25.0,790.028076171875,5928.92822265625,3618.751220703125,-3618.751220703125,6946.04541015625,-31.398014068603516,1.0,1.0261020122470654e-07,0.6789408922195435,8.0,0.9882511496543884,0.06956610083580017,-148.438720703125,9.999999747378752e-06,0.0031690290197730064,1.00152092272765e-05,-117.0407028198242,9.999999747378752e-06,0.001426051021553576,5928.92822265625,-3618.751220703125,6946.04541015625,-31.398014068603516
26.0,628.8109741210938,6214.8310546875,4251.4228515625,-4251.4228515625,7529.85546875,-34.3751335144043,1.0,8.134531981340842e-08,0.6881983876228333,8.0,0.9896665811538696,0.07540639489889146,64.29024505615233,0.0004504378011915833,0.004404723644256592,1.0014322469942272e-05,98.66537475585936,9.999999747378752e-06,0.0013425075449049473,6214.8310546875,-4251.4228515625,7529.85546875,-34.3751335144043
35.0,78.78150939941406,12507.90625,16669.705078125,-16669.705078125,20840.5078125,-53.117725372314446,1.0,1.2400128923673037e-07,0.7491064071655273,8.0,0.988697350025177,0.20856674015522003,-148.0709686279297,0.01419292204082012,0.06638312339782715,1.0007757737184875e-05,-94.95323944091795,9.999999747378752e-06,0.002072929171845317,12507.90625,-16669.705078125,20840.5078125,-53.117725372314446
36.0,62.919464111328125,13707.7109375,18899.67578125,-18899.67578125,23347.357421875,-54.047069549560554,1.0,1.146703993981646e-07,0.7591292858123779,8.0,0.9900640845298768,0.2337963432073593,-147.46351623535156,0.0192430280148983,0.08030638843774796,1.00138240668457e-05,-93.4164352416992,9.999999747378752e-06,0.0019371658563613887,13707.7109375,-18899.67578125,23347.357421875,-54.047069549560554
37.0,49.86701965332031,15107.8955078125,21565.572265625,-21565.572265625,26331.015625,-54.98659896850586,1.0,1.0513224424357759e-07,0.7683457732200623,8.0,0.9909826517105103,0.2635544538497925,-148.56173706054688,0.025442736223340034,0.09536477178335187,1.0009277502831536e-05,-93.57514190673827,9.999999747378752e-06,0.002253586892038584,15107.8955078125,-21565.572265625,26331.015625,-54.98659896850586
38.0,39.72457504272461,16781.990234375,24726.138671875,-24726.138671875,29883.392578125,-55.83469009399414,1.0,7.491596676345581e-08,0.7665961980819702,8.0,0.9918187260627745,0.2990860342979431,-148.4209747314453,0.03296837583184242,0.10889359563589096,1.00084371297271e-05,-92.58627319335936,9.999999747378752e-06,0.0023417582269757986,16781.990234375,-24726.138671875,29883.392578125,-55.83469009399414
39.0,31.459732055664062,18835.908203125,28552.16015625,-28552.16015625,34205.515625,-56.58709716796875,1.0,6.341292646538932e-08,0.7560300230979918,8.0,0.9926415681838989,0.3423389196395874,-148.37017822265625,0.042203497141599655,0.12179751694202424,1.0008296158048324e-05,-91.7830810546875,9.999999747378752e-06,0.002311941003426909,18835.908203125,-28552.16015625,34205.515625,-56.58709716796875
40.0,24.93350982666016,21245.205078125,32594.19140625,-32594.19140625,38906.8125,-56.9033088684082,1.0,8.014303176651083e-08,0.7468303442001343,8.0,0.9934836030006408,0.38939818739891047,-148.07557678222656,0.053315892815589905,0.13527199625968933,1.0008482604462188e-05,-91.17227172851561,9.999999747378752e-06,0.0021592495031654835,21245.205078125,-32594.19140625,38906.8125,-56.9033088684082
41.0,19.862287521362305,23887.373046875,36963.328125,-36963.328125,44010.16015625,-57.12763214111328,1.0,1.2208234068111778e-07,0.733101785182953,8.0,0.9938556551933287,0.44026646018028254,-147.78375244140625,0.06510145217180252,0.1460980325937271,1.0003745046560653e-05,-90.6561279296875,9.999999747378752e-06,0.0025543239898979664,23887.373046875,-36963.328125,44010.16015625,-57.12763214111328
42.0,15.782828330993652,26724.80078125,41318.23046875,-41318.23046875,49207.8359375,-57.10504531860352,1.0,1.3629910711188134e-07,0.7268795371055603,8.0,0.9946942925453186,0.4924935698509216,-147.35902404785156,0.07835391163825987,0.15720713138580322,1.00084380392218e-05,-90.25397491455078,9.999999747378752e-06,0.0021348425652831793,26724.80078125,-41318.23046875,49207.8359375,-57.10504531860352
43.0,12.466754913330078,30232.8671875,46118.13671875,-46118.13671875,55144.4375,-56.75305175781249,1.0,9.518086585558194e-08,0.7143341302871704,8.0,0.995048701763153,0.5516408681869507,-146.70228576660156,0.09229210019111632,0.16531279683113098,1.0003563147620296e-05,-89.94924163818358,9.999999747378752e-06,0.0019440485630184408,30232.8671875,-46118.13671875,55144.4375,-56.75305175781249
44.0,9.973403930664062,34557.5390625,51374.3828125,-51374.3828125,61915.67578125,-56.07282257080078,1.0,1.2603639731878502e-07,0.6751704216003418,8.0,0.9958452582359314,0.6196523904800415,-145.7703094482422,0.10256985574960709,0.1635618656873703,1.0008005119743755e-05,-89.69749450683594,9.999999747378752e-06,0.0019426365615800023,34557.5390625,-51374.3828125,61915.67578125,-56.07282257080078
45.0,7.878151416778564,39396.78515625,56757.328125,-56757.328125,69090.5234375,-55.23444747924805,1.0,1.5223730542857086e-07,0.6367751955986023,8.0,0.9964966177940368,0.6913571357727051,-144.7268524169922,0.1123042181134224,0.16051436960697174,1.0006540833273903e-05,-89.49240112304686,9.999999747378752e-06,0.0015945930499583483,39396.78515625,-56757.328125,69090.5234375,-55.23444747924805
46.0,6.275100231170654,44288.08203125,62052.19921875,-62052.19921875,76235.8828125,-54.48367691040039,1.0,1.2179339137219358e-07,0.5930646657943726,8.0,0.9971656203269958,0.7628706693649293,-143.80604553222656,0.1193847879767418,0.1546419858932495,1.000671363726724e-05,-89.32236480712889,9.999999747378752e-06,0.0014025256969034672,44288.08203125,-62052.19921875,76235.8828125,-54.48367691040039
47.0,5.013369083404541,49334.64453125,67442.34375,-67442.34375,83560.6171875,-53.814212799072266,1.0,8.359468495200417e-08,0.5420324206352234,8.0,0.9975920319557189,0.8359634280204773,-143.00857543945312,0.1244831308722496,0.1471424698829651,1.0004276191466488e-05,-89.19435882568358,9.999999747378752e-06,0.0012191280256956816,49334.64453125,-67442.34375,83560.6171875,-53.814212799072266
48.0,3.939075708389282,54516.46875,73404.9375,-73404.9375,91434.84375,-53.39942169189453,1.0,1.0771579894708339e-07,0.4860977828502655,8.0,0.997975707054138,0.9147000908851624,-142.47792053222656,0.12965022027492523,0.1400558352470398,1.0003846000472548e-05,-89.07849884033203,9.999999747378752e-06,0.0010929766576737163,54516.46875,-73404.9375,91434.84375,-53.39942169189453
49.0,3.137550115585327,58948.6875,78944.7578125,-78944.7578125,98525.2421875,-53.251007080078125,1.0,1.2522508541223942e-07,0.44027939438819885,8.0,0.998315989971161,0.9855882525444031,-142.2448577880859,0.13400825858116147,0.13434748351573944,1.0003409443015698e-05,-88.99384307861328,9.999999747378752e-06,0.0009287414723075926,58948.6875,-78944.7578125,98525.2421875,-53.251007080078125
50.0,2.485418796539306,62599.76953125,84919.2734375,-84919.2734375,105498.8828125,-53.60354995727539,1.0,1.0651356774360465e-07,0.3800229430198669,8.0,0.9688808917999268,1.023882746696472,174.12245178222656,0.07174897938966751,0.06924141943454742,9.705152479000388e-06,-132.27398681640625,9.999999747378752e-06,0.000356388627551496,62599.76953125,-84919.2734375,105498.8828125,-53.60354995727539
51.0,1.9955300092697144,66248.7578125,88416.265625,-88416.265625,110482.28125,-53.15642166137695,1.0,1.2492972700783866e-07,0.3187384605407715,8.0,0.9862772226333617,1.1246600151062012,-176.12628173828125,0.08919261395931245,0.07836764305830003,1.017955128190806e-05,-122.96985626220705,9.999999747378752e-06,0.0003737019433174282,66248.7578125,-88416.265625,110482.28125,-53.15642166137695
52.0,1.5836148262023924,72676.390625,94466.9140625,-94466.9140625,119188.3203125,-52.42777633666992,1.0,1.1856886317218597e-07,0.2530273199081421,8.0,0.9939871430397031,1.2012003660202026,-167.8693389892578,0.1101243793964386,0.09059315919876097,1.0078171726490837e-05,-115.44156646728516,9.999999747378752e-06,0.00042080940329469746,72676.390625,-94466.9140625,119188.3203125,-52.42777633666992
53.0,1.258051514625549,79287.15625,99337.8671875,-99337.8671875,127100.2109375,-51.40465927124024,1.0,1.1885352080298617e-07,0.21159477531909943,8.0,0.9974831938743592,1.2754726409912107,-161.09657287597656,0.1460204720497131,0.1131315678358078,1.0035171726485714e-05,-109.6919174194336,9.999999747378752e-06,0.0004815499996766448,79287.15625,-99337.8671875,127100.2109375,-51.40465927124024
54.0,0.9977650046348573,86396.8203125,102663.1484375,-102663.1484375,134179.46875,-49.91749954223633,1.0,1.2750477651479741e-07,0.1835913211107254,8.0,0.9992806911468506,1.3442126512527464,-155.12562561035156,0.18695177137851715,0.1374361515045166,1.001802047539968e-05,-105.20812225341795,9.999999747378752e-06,0.000661732628941536,86396.8203125,-102663.1484375,134179.46875,-49.91749954223633
