# point,freq,zreal,reflected_zimag,zimag,zmod,zphz,zsig,Idc,Vdc,ie_range,gain,vmod,vphz,vsig,vthd,imod,iphz,isig,ithd,zreal_drift,zimag_drift,zmod_drift,zphz_drift
0.0,100019.53125,25022.794921875,3055.7880859375,-3055.7880859375,25208.69140625,-6.962495803833008,1.0,2.7807121227851894e-07,0.5929814577102661,8.0,0.017676055431365967,0.04191573709249496,-9.162046432495117,0.002525693504139781,0.0589694008231163,1.6627494687782018e-06,-2.1995511054992676,9.999999747378752e-06,0.0707092210650444,25022.794921875,-3055.7880859375,25208.69140625,-6.962495803833008
1.0,79511.71875,25381.99609375,2665.1044921875,-2665.1044921875,25521.529296875,-5.994081497192383,1.0,2.312617368716019e-07,0.6234427094459534,8.0,0.02209838293492794,0.05305284261703491,-106.74557495117188,0.003638137597590685,0.060701604932546616,2.0787485937034944e-06,-100.75150299072264,9.999999747378752e-06,0.062287170439958565,25381.99609375,-2665.1044921875,25521.529296875,-5.994081497192383
2.0,63105.46875,25586.15625,2567.093994140625,-2567.093994140625,25714.61328125,-5.7293901443481445,1.0,1.9473175427719977e-07,0.6091107726097107,8.0,0.02762215584516525,0.06681578606367111,-118.00471496582033,0.0049605146050453195,0.07038119435310364,2.5983583782362984e-06,-112.27532958984376,9.999999747378752e-06,0.08098794519901276,25586.15625,-2567.093994140625,25714.61328125,-5.7293901443481445
3.0,50214.84375,25876.162109375,2421.627197265625,-2421.627197265625,25989.228515625,-5.346467971801758,1.0,1.9223428182613134e-07,0.6556032299995422,8.0,0.03428134322166443,0.08380939811468124,148.6378631591797,0.006594816222786903,0.07733506709337233,3.2247742183244554e-06,153.9843292236328,9.999999747378752e-06,0.08119406551122665,25876.162109375,-2421.627197265625,25989.228515625,-5.346467971801758
4.0,39902.34375,26183.6171875,2062.704345703125,-2062.704345703125,26264.740234375,-4.504368782043457,1.0,1.808318188523117e-07,0.6629638671875,8.0,0.0426301434636116,0.10532497614622116,-38.50555038452149,0.009054043330252169,0.08363238722085951,4.010128122899913e-06,-34.001182556152344,9.999999747378752e-06,0.08436236530542372,26183.6171875,-2062.704345703125,26264.740234375,-4.504368782043457
5.0,31699.21875,26323.548828125,2349.837158203125,-2349.837158203125,26428.22265625,-5.101129531860352,1.0,1.8772828980218042e-07,0.6584251523017883,8.0,0.05326773598790169,0.13242611289024353,-71.04012298583984,0.010872571729123592,0.081072635948658,5.010784207115648e-06,-65.9389877319336,9.999999747378752e-06,0.09274537116289137,26323.548828125,-2349.837158203125,26428.22265625,-5.101129531860352
6.0,25136.71875,26642.744140625,2302.992431640625,-2302.992431640625,26742.09375,-4.940353393554688,1.0,1.9059919509345488e-07,0.6311588287353516,8.0,0.06637018173933029,0.16695901751518247,121.78067779541016,0.01376407127827406,0.08134583383798598,6.243303687369917e-06,126.72103118896484,9.999999747378752e-06,0.08416958153247833,26642.744140625,-2302.992431640625,26742.09375,-4.940353393554688
7.0,19980.46875,26837.421875,2328.793701171875,-2328.793701171875,26938.2734375,-4.9593682289123535,1.0,2.3798662596163922e-07,0.6379748582839966,8.0,0.08281435072422028,0.20985378324985504,138.4026641845703,0.0162817370146513,0.07660695165395735,7.790172276145313e-06,143.3620452880859,9.999999747378752e-06,0.09064500778913498,26837.421875,-2328.793701171875,26938.2734375,-4.9593682289123535
8.0,15878.90625,27108.91796875,2390.462158203125,-2390.462158203125,27214.109375,-5.039302825927734,1.0,1.8551952507550598e-07,0.6436353921890259,8.0,0.10307577252388,0.26387131214141846,-28.635852813720703,0.021515630185604092,0.08045458048582077,9.696122106106486e-06,-23.5965518951416,9.999999747378752e-06,0.08431240916252136,27108.91796875,-2390.462158203125,27214.109375,-5.039302825927734
9.0,12597.65625,27261.201171875,2211.06201171875,-2211.06201171875,27350.720703125,-4.636913299560546,1.0,1.9328368239257546e-07,0.6734849214553833,8.0,0.1291442513465881,0.3322655260562897,-113.79595184326172,0.026926724240183834,0.08002997189760208,1.2148329005867708e-05,-109.15904235839844,1.0466550293131147e-06,0.08365489542484283,27261.201171875,-2211.06201171875,27350.720703125,-4.636913299560546
10.0,10019.53125,27617.353515625,2493.20556640625,-2493.20556640625,27729.6640625,-5.15849494934082,1.0,1.9028630049433562e-07,0.7114789485931396,8.0,0.19053667783737183,0.409117579460144,87.15927124023438,0.03103996254503727,0.07496973872184753,1.475378667237237e-05,92.3177719116211,1.2183497801743215e-06,0.08144273608922958,27617.353515625,-2493.20556640625,27729.6640625,-5.15849494934082
11.0,7928.24072265625,27929.580078125,2656.833984375,-2656.833984375,28055.662109375,-5.433977127075195,1.0,1.774923248376581e-07,0.6868129372596741,8.0,0.317231684923172,0.46710932254791254,46.491397857666016,0.02511441335082054,0.05309794843196869,1.664937735768035e-05,51.92537307739258,9.511709890830388e-07,0.0562267117202282,27929.580078125,-2656.833984375,28055.662109375,-5.433977127075195
12.0,6307.87060546875,28248.51953125,2891.623779296875,-2891.623779296875,28396.1328125,-5.84465217590332,1.0,1.3041673696534417e-07,0.6598624587059021,8.0,0.49431169033050537,0.44246965646743774,-4.595456600189209,0.004785617813467979,0.010351194068789482,1.558203985041473e-05,1.2491954565048216,9.999999747378752e-06,0.011320837773382664,28248.51953125,-2891.623779296875,28396.1328125,-5.84465217590332
13.0,5034.72216796875,28609.619140625,3183.5830078125,-3183.5830078125,28786.205078125,-6.34956169128418,1.0,1.0865184663089167e-07,0.6550534963607788,8.0,0.5683233737945557,0.3309626579284668,16.853933334350582,0.0011160057038068771,0.00035518407821655273,1.1497267223603556e-05,23.203495025634766,9.999999747378752e-06,0.0013808523071929812,28609.619140625,-3183.5830078125,28786.205078125,-6.34956169128418
14.0,3993.0556640625,28964.544921875,3438.2841796875,-3438.2841796875,29167.904296875,-6.769711017608643,1.0,1.0747797318799714e-07,0.6582165360450745,8.0,0.6542564034461975,0.33578220009803766,35.13947677612305,0.0010028802789747715,0.00043122310307808226,1.1512044693517964e-05,41.90918731689453,9.999999747378752e-06,0.001827951171435416,28964.544921875,-3438.2841796875,29167.904296875,-6.769711017608643
15.0,3144.054931640625,29355.443359375,3743.7548828125,-3743.7548828125,29593.205078125,-7.267806529998779,1.0,1.0516964010776064e-07,0.6648666858673096,8.0,0.7304110527038574,0.33037817478179926,72.11785888671875,0.0009854030795395374,0.003001702716574073,1.1163988347107077e-05,79.38566589355469,9.999999747378752e-06,0.0020492803305387497,29355.443359375,-3743.7548828125,29593.205078125,-7.267806529998779
16.0,2519.53125,29755.484375,4085.332763671875,-4085.332763671875,30034.626953125,-7.8176493644714355,1.0,9.632074693399773e-08,0.6687917113304137,8.0,0.7890626192092894,0.3244639039039612,8.453691482543945,0.0013250899501144886,0.0042266552336514,1.0802993529068772e-05,16.27134132385254,9.999999747378752e-06,0.002416350180283189,29755.484375,-4085.332763671875,30034.626953125,-7.8176493644714355
17.0,2000.76220703125,30214.126953125,4499.29541015625,-4499.29541015625,30547.29296875,-8.469881057739258,1.0,9.253208332893337e-08,0.6692972183227539,8.0,0.8390062451362611,0.3248078227043152,35.83005905151367,0.0011515960795804858,0.0017990831984207034,1.0632948942657094e-05,44.29994583129882,9.999999747378752e-06,0.0026649211067706342,30214.126953125,-4499.29541015625,30547.29296875,-8.469881057739258
18.0,1580.6685791015625,30757.658203125,5039.70263671875,-5039.70263671875,31167.806640625,-9.305338859558104,1.0,8.054664135670464e-08,0.6620381474494934,8.0,0.8777902722358703,0.3260857164859772,94.42790222167967,0.001030710176564753,0.0028121152427047487,1.0462261343491264e-05,103.73323822021484,9.999999747378752e-06,0.0026687728241086006,30757.658203125,-5039.70263671875,31167.806640625,-9.305338859558104
19.0,1253.6336669921875,31328.546875,5607.373046875,-5607.373046875,31826.412109375,-10.147692680358887,1.0,6.956869214036487e-08,0.6635579466819763,8.0,0.9070865511894226,0.32888621091842646,134.08998107910156,0.0013727673795074224,0.003889855928719044,1.033375065162545e-05,144.23768615722656,9.999999747378752e-06,0.002973007969558239,31328.546875,-5607.373046875,31826.412109375,-10.147692680358887
20.0,1000.7022705078124,31970.94921875,6259.65478515625,-6259.65478515625,32577.98046875,-11.077916145324709,1.0,7.315514238825926e-08,0.6584604382514954,8.0,0.927223026752472,0.3330117762088776,18.7213191986084,0.0017958612879738212,0.005175149999558926,1.0221990123682188e-05,29.79923820495605,9.999999747378752e-06,0.0043295277282595634,31970.94921875,-6259.65478515625,32577.98046875,-11.077916145324709
21.0,790.028076171875,32680.8671875,7007.4248046875,-7007.4248046875,33423.69140625,-12.102101325988768,1.0,6.994698509288355e-08,0.6599535942077637,8.0,0.9450172781944275,0.3406512439250946,-140.03204345703125,0.002416511299088597,0.006628223694860935,1.0191909495915752e-05,-127.92994689941406,9.999999747378752e-06,0.0030785514973104,32680.8671875,-7007.4248046875,33423.69140625,-12.102101325988768
22.0,628.8109741210938,33461.56640625,7840.826171875,-7840.826171875,34367.93359375,-13.18780517578125,1.0,6.73515572202632e-08,0.6586201786994934,8.0,0.956151843070984,0.3477286994457245,77.1277389526367,0.003037150017917156,0.008077525533735752,1.0117823876498733e-05,90.31554412841795,9.999999747378752e-06,0.0032411990687251087,33461.56640625,-7840.826171875,34367.93359375,-13.18780517578125
23.0,502.2321472167969,33171.34765625,10022.669921875,-10022.669921875,34652.44921875,-16.81210708618164,1.0,6.763492876871169e-08,0.6643016338348389,8.0,0.9374723434448241,0.33975473046302795,152.57684326171875,0.002479932736605406,0.006435680668801068,9.804638466448525e-06,169.38894653320312,9.999999747378752e-06,0.0019340522121638055,33171.34765625,-10022.669921875,34652.44921875,-16.81210708618164
24.0,400.1524353027344,34399.73828125,10878.765625,-10878.765625,36078.93359375,-17.54932975769043,1.0,6.923281148374372e-08,0.6644310355186462,8.0,0.9627004861831664,0.37049850821495056,110.35003662109376,0.0037318074610084295,0.009658871218562126,1.026910831569694e-05,127.89937591552734,9.999999747378752e-06,0.002409878186881542,34399.73828125,-10878.765625,36078.93359375,-17.54932975769043
25.0,315.5048217773437,35785.69921875,12050.3564453125,-12050.3564453125,37760.12890625,-18.610265731811523,1.0,6.715904987686372e-08,0.6512606143951416,8.0,0.9759521484375,0.3827989995479584,-159.2408905029297,0.004900741390883923,0.012692687101662157,1.0137650860997383e-05,-140.630615234375,9.999999747378752e-06,0.0026075744535773993,35785.69921875,-12050.3564453125,37760.12890625,-18.610265731811523
26.0,252.01612854003903,37068.23828125,13173.498046875,-13173.498046875,39339.48828125,-19.564453125,1.0,6.895236737136656e-08,0.6525310277938843,8.0,0.9816499352455139,0.3956916332244873,86.7020263671875,0.006339629180729389,0.01579449325799942,1.005838203127496e-05,106.2664794921875,9.999999747378752e-06,0.0027495387475937605,37068.23828125,-13173.498046875,39339.48828125,-19.564453125
27.0,200.3205108642578,38611.65234375,14787.9482421875,-14787.9482421875,41346.62109375,-20.956432342529297,1.0,8.166158238509523e-08,0.6312018036842345,8.0,0.9856804609298706,0.41516387462615967,63.896987915039055,0.007930479943752289,0.01883387751877308,1.004105888569029e-05,84.8534164428711,9.999999747378752e-06,0.0028809700161218643,38611.65234375,-14787.9482421875,41346.62109375,-20.956432342529297
28.0,158.005615234375,40342.203125,16714.080078125,-16714.080078125,43667.5390625,-22.50459671020508,1.0,8.385913474739937e-08,0.6125704646110535,8.0,0.9846076369285583,0.4362000823020935,108.9204330444336,0.009840005077421663,0.022219996899366375,9.989115824282637e-06,131.4250335693359,9.999999747378752e-06,0.002826212206855416,40342.203125,-16714.080078125,43667.5390625,-22.50459671020508
29.0,125.5580368041992,41849.625,18242.599609375,-18242.599609375,45652.859375,-23.55278778076172,1.0,9.1318931083606e-08,0.6291409730911255,8.0,0.9777553081512451,0.45335134863853455,-126.64508056640624,0.01253120880573988,0.027311963960528374,9.930405212799087e-06,-103.09228515625,9.999999747378752e-06,0.0028971382416784763,41849.625,-18242.599609375,45652.859375,-23.55278778076172
30.0,99.73403930664062,44016.55859375,21006.638671875,-21006.638671875,48772.29296875,-25.512531280517575,1.0,1.041197776885383e-07,0.5945339798927307,8.0,0.9598898291587827,0.47881126403808594,49.00094604492188,0.015386980958282948,0.031720831990242004,9.817280442803169e-06,74.5134811401367,9.999999747378752e-06,0.002824963303282857,44016.55859375,-21006.638671875,48772.29296875,-25.512531280517575
31.0,79.44915008544922,45270.69921875,21475.3125,-21475.3125,50106.140625,-25.378519058227536,1.0,1.2016721484542359e-07,0.6668494939804077,8.0,0.9852687716484068,0.5143091678619385,-121.67896270751952,0.02280591987073421,0.043269440531730645,1.026439440465765e-05,-96.30044555664062,9.999999747378752e-06,0.0029977224767208095,45270.69921875,-21475.3125,50106.140625,-25.378519058227536
32.0,62.919464111328125,47500.6015625,23955.8671875,-23955.8671875,53199.5390625,-26.763072967529297,1.0,1.2659029380301945e-07,0.666337251663208,8.0,0.9869773983955384,0.5329179763793945,-121.20478057861328,0.0277860090136528,0.05088803172111511,1.0017341992352156e-05,-94.44171142578125,9.999999747378752e-06,0.002921938430517912,47500.6015625,-23955.8671875,53199.5390625,-26.763072967529297
33.0,49.86701965332031,49831.12109375,26835.697265625,-26835.697265625,56597.66015625,-28.303924560546875,1.0,1.3531847287140408e-07,0.6614701151847839,8.0,0.9889542460441587,0.567110240459442,-122.74907684326172,0.034819867461919785,0.06064661592245102,1.0020029549195897e-05,-94.44515228271484,9.999999747378752e-06,0.0031162137165665622,49831.12109375,-26835.697265625,56597.66015625,-28.303924560546875
34.0,39.72457504272461,52504.9921875,30200.021484375,-30200.021484375,60570.74609375,-29.906816482543945,1.0,1.2699490525847068e-07,0.6494101285934448,8.0,0.9901672601699827,0.6064503788948059,-123.1959762573242,0.043856296688318246,0.07144727557897568,1.001226519292686e-05,-93.28915405273438,9.999999747378752e-06,0.003038661321625113,52504.9921875,-30200.021484375,60570.74609375,-29.906816482543945
35.0,31.672296524047848,55620.453125,34248.55078125,-34248.55078125,65319.19921875,-31.62287712097168,1.0,1.1562543278387238e-07,0.6273878216743469,8.0,0.9910300374031066,0.6537611484527588,-123.99819183349608,0.054991621524095535,0.083098866045475,1.0008713616116438e-05,-92.37531280517578,9.999999747378752e-06,0.0029975834768265486,55620.453125,-34248.55078125,65319.19921875,-31.62287712097168
36.0,25.201612472534176,59187.49609375,38602.09375,-38602.09375,70663.15625,-33.112396240234375,1.0,9.120276445173657e-08,0.6047299504280089,8.0,0.9920584559440612,0.7073647379875183,-124.77821350097656,0.06760503351688385,0.09441520273685455,1.001037708192598e-05,-91.66581726074217,9.999999747378752e-06,0.0028892001137137413,59187.49609375,-38602.09375,70663.15625,-33.112396240234375
37.0,20.03205108642578,63154.1328125,43468.09375,-43468.09375,76667.59375,-34.539085388183594,1.0,7.85338372111255e-08,0.5713669061660768,8.0,0.9929656386375427,0.7673769593238831,-125.6100387573242,0.07907693088054657,0.10181116312742232,1.0009144716605078e-05,-91.07095336914062,9.999999747378752e-06,0.0026485067792236805,63154.1328125,-43468.09375,76667.59375,-34.539085388183594
38.0,15.782828330993652,67608.1640625,48509.80078125,-48509.80078125,83210.96875,-35.65996551513672,1.0,6.951845676894663e-08,0.5312245488166809,8.0,0.9938711524009703,0.832868456840515,-126.2521286010742,0.08718183636665344,0.10342641174793243,1.0009119250753429e-05,-90.5921630859375,9.999999747378752e-06,0.0024503993336111307,67608.1640625,-48509.80078125,83210.96875,-35.65996551513672
39.0,12.600806236267088,71932.265625,52967.87109375,-52967.87109375,89329.984375,-36.36635589599609,1.0,7.336159058013437e-08,0.4940305054187775,8.0,0.9947661161422728,0.8941041827201843,-126.58071136474608,0.09170417487621309,0.10134371370077132,1.0009004654421004e-05,-90.21434783935545,9.999999747378752e-06,0.002197090536355972,71932.265625,-52967.87109375,89329.984375,-36.36635589599609
40.0,9.973403930664062,76425.8203125,57215.359375,-57215.359375,95469.90625,-36.81996154785156,1.0,8.516208538367209e-08,0.4585425853729248,8.0,0.9956363439559937,0.9555341601371763,-126.72630310058592,0.09491203725337982,0.09815117716789244,1.0008748176915104e-05,-89.90634918212889,9.999999747378752e-06,0.001911225961521268,76425.8203125,-57215.359375,95469.90625,-36.81996154785156
41.0,7.971938610076904,80630.875,61031.1171875,-61031.1171875,101124.3515625,-37.122806549072266,1.0,9.036062209588637e-08,0.43158996105194086,8.0,0.996168851852417,1.0117844343185425,-126.7812728881836,0.09860865026712416,0.09630576521158217,1.0005348485719878e-05,-89.6584701538086,9.999999747378752e-06,0.0017069039167836308,80630.875,-61031.1171875,101124.3515625,-37.122806549072266
42.0,6.275100231170654,85177.9296875,65092.69140625,-65092.69140625,107202.3203125,-37.38694381713867,1.0,7.966423964944624e-08,0.3922554850578308,8.0,0.9969208836555482,1.072832465171814,-126.8390426635742,0.10249646008014678,0.09440671652555464,1.0007549462898169e-05,-89.45210266113281,9.999999747378752e-06,0.00150711287278682,85177.9296875,-65092.69140625,107202.3203125,-37.38694381713867
43.0,5.013369083404541,88992.96875,69040.703125,-69040.703125,112633.7734375,-37.80429458618164,1.0,1.4307325102436153e-07,0.3660382628440857,8.0,0.9974991679191587,1.1269911527633667,-127.09970092773436,0.10868884623050688,0.09529799222946168,1.000580050458666e-05,-89.29540252685545,9.999999747378752e-06,0.0014499060343950987,88992.96875,-69040.703125,112633.7734375,-37.80429458618164
44.0,3.985969305038452,92724.1953125,73209.34375,-73209.34375,118141.375,-38.292457580566406,1.0,8.990306099576627e-08,0.3390233814716339,8.0,0.9982616901397704,1.182316780090332,-127.44979858398436,0.11638177186250687,0.0972609966993332,1.0007644050347151e-05,-89.15733337402342,9.999999747378752e-06,0.0011094736400991678,92724.1953125,-73209.34375,118141.375,-38.292457580566406
45.0,3.1758129596710205,96214.671875,77540.5234375,-77540.5234375,123571.015625,-38.865745544433594,1.0,1.0331609701097477e-07,0.3189156651496887,8.0,0.998612344264984,1.2361443042755127,-127.92224884033205,0.12608689069747925,0.10078243166208269,1.00035131254117e-05,-89.05650329589844,9.999999747378752e-06,0.0010058183688670397,96214.671875,-77540.5234375,123571.015625,-38.865745544433594
46.0,2.516103029251098,98945.8828125,82684.34375,-82684.34375,128945.6796875,-39.883892059326165,1.0,1.0310255760259679e-07,0.29470810294151306,8.0,0.967663049697876,1.2494935989379883,-172.78990173339844,0.057627130299806595,0.04557727649807929,9.6900766948238e-06,-132.90602111816406,9.999999747378752e-06,0.00034408242208883166,98945.8828125,-82684.34375,128945.6796875,-39.883892059326165
47.0,1.9955300092697144,101829.296875,85388.078125,-85388.078125,132892.171875,-39.98122787475586,1.0,9.4829530894458e-08,0.26106730103492737,8.0,0.9866291880607605,1.3549684286117551,-162.98971557617188,0.08775196969509123,0.06399698555469513,1.0195999493589625e-05,-123.00848388671876,9.999999747378752e-06,0.00041121890535578126,101829.296875,-85388.078125,132892.171875,-39.98122787475586
48.0,1.5879064798355103,106921.390625,91148.4765625,-91148.4765625,140499.921875,-40.446971893310554,1.0,8.204962398394856e-08,0.22229221463203433,8.0,0.9942545294761655,1.4158581495285034,-155.9921112060547,0.12468860298395155,0.08702934533357619,1.0077286788146012e-05,-115.54515075683592,9.999999747378752e-06,0.0005087070167064667,106921.390625,-91148.4765625,140499.921875,-40.446971893310554
