# point,freq,zreal,reflected_zimag,zimag,zmod,zphz,zsig,Idc,Vdc,ie_range,gain,vmod,vphz,vsig,vthd,imod,iphz,isig,ithd,zreal_drift,zimag_drift,zmod_drift,zphz_drift
0.0,100019.53125,27545.572265625,7446.62841796875,-7446.62841796875,28534.37890625,-15.127650260925291,1.0,3.0065055511840915e-07,0.6448174118995667,8.0,0.015692126005887985,0.042120322585105896,153.8937835693359,0.003076869295910001,0.07177245616912842,1.4761254760742304e-06,169.0214385986328,9.999999747378752e-06,0.09884880483150482,27545.572265625,-7446.62841796875,28534.37890625,-15.127650260925291
1.0,79511.71875,28430.017578125,6570.09912109375,-6570.09912109375,29179.310546875,-13.012459754943848,1.0,2.8939285812157323e-07,0.6668695807456969,8.0,0.01940513961017132,0.053263936191797256,-104.75824737548828,0.003918681293725968,0.05790483206510544,1.8254007727591672e-06,-91.74578857421875,9.999999747378752e-06,0.07013781368732452,28430.017578125,-6570.09912109375,29179.310546875,-13.012459754943848
2.0,63105.46875,29205.11328125,5998.56640625,-5998.56640625,29814.78515625,-11.606810569763184,1.0,2.835566306202964e-07,0.6963177919387816,8.0,0.023925913497805595,0.06710296124219894,-155.3493194580078,0.004763658624142408,0.0696682408452034,2.250660600111587e-06,-143.7425079345703,9.999999747378752e-06,0.09766606241464615,29205.11328125,-5998.56640625,29814.78515625,-11.606810569763184
3.0,50214.84375,29860.01171875,5492.43310546875,-5492.43310546875,30360.947265625,-10.422451019287108,1.0,2.5707018380671803e-07,0.7248151898384094,8.0,0.029482023790478703,0.08420038223266602,154.95806884765625,0.006585102062672377,0.07733063399791716,2.7733121896744706e-06,165.3805389404297,9.999999747378752e-06,0.08626206219196318,29860.01171875,-5492.43310546875,30360.947265625,-10.422451019287108
4.0,39902.34375,30465.88671875,5177.8701171875,-5177.8701171875,30902.759765625,-9.645612716674803,1.0,2.260581482005364e-07,0.7488424181938171,8.0,0.03639222681522369,0.10579065978527068,-24.69715690612793,0.008971787989139555,0.07967724651098251,3.4233403312100563e-06,-15.051544189453123,9.999999747378752e-06,0.0908154547214508,30465.88671875,-5177.8701171875,30902.759765625,-9.645612716674803
5.0,31699.21875,30953.34375,4680.22802734375,-4680.22802734375,31305.17578125,-8.598145484924316,1.0,1.9472784629215314e-07,0.7385718822479248,8.0,0.0451769046485424,0.13303750753402707,-139.164794921875,0.010939374566078186,0.08102607727050781,4.2496967580518685e-06,-130.5666351318359,9.999999747378752e-06,0.09011950343847273,30953.34375,-4680.22802734375,31305.17578125,-8.598145484924316
6.0,25136.71875,31262.525390625,4392.06396484375,-4392.06396484375,31569.537109375,-7.997128963470459,1.0,1.7763140647275577e-07,0.7010837197303772,8.0,0.05646321177482605,0.16767767071723935,119.14755249023436,0.013773391954600813,0.08104459941387177,5.311375844030408e-06,127.14468383789062,9.999999747378752e-06,0.08859648555517197,31262.525390625,-4392.06396484375,31569.537109375,-7.997128963470459
7.0,19980.46875,31591.90625,4167.27978515625,-4167.27978515625,31865.572265625,-7.5144872665405265,1.0,1.8422402092710402e-07,0.6869430541992188,8.0,0.07033506780862808,0.21083132922649384,151.90492248535156,0.01569788157939911,0.07349061965942384,6.616272457904415e-06,159.4194183349609,9.999999747378752e-06,0.0919334441423416,31591.90625,-4167.27978515625,31865.572265625,-7.5144872665405265
8.0,15878.90625,31984.162109375,4052.406982421875,-4052.406982421875,32239.861328125,-7.220924854278564,1.0,1.9891768943125498e-07,0.7084581851959229,8.0,0.08741623163223265,0.2651103734970093,-3.527653694152832,0.02160153165459633,0.08028969913721085,8.223061740864067e-06,3.693270683288574,9.999999747378752e-06,0.08611942827701569,31984.162109375,-4052.406982421875,32239.861328125,-7.220924854278564
9.0,12597.65625,32359.796875,4097.29296875,-4097.29296875,32618.16015625,-7.216206550598144,1.0,2.0823824797844281e-07,0.7177942991256714,8.0,0.10885606706142424,0.3340054452419281,-139.7524871826172,0.027051305398344997,0.07995535433292389,1.0239861694572028e-05,-132.53628540039062,9.107218943427143e-07,0.08564535528421403,32359.796875,-4097.29296875,32618.16015625,-7.216206550598144
10.0,10019.53125,32820.76953125,3926.581787109375,-3926.581787109375,33054.81640625,-6.822275161743164,1.0,2.476134568496491e-07,0.7683289051055907,8.0,0.13816674053668976,0.4195518791675568,92.53917694091795,0.03446982800960541,0.08117415010929108,1.2692608834186103e-05,99.3614501953125,1.1181780337210512e-06,0.08691896498203276,32820.76953125,-3926.581787109375,33054.81640625,-6.822275161743164
11.0,7928.24072265625,33263.1875,4007.768798828125,-4007.768798828125,33503.7578125,-6.8702569007873535,1.0,2.305092152710131e-07,0.7618669271469117,8.0,0.21106937527656555,0.5118176341056824,60.81824493408203,0.03723960369825363,0.07189712673425673,1.5276424164767377e-05,67.6884994506836,1.2111477190046571e-06,0.0782841145992279,33263.1875,-4007.768798828125,33503.7578125,-6.8702569007873535
12.0,6307.87060546875,33673.82421875,4190.1943359375,-4190.1943359375,33933.52734375,-7.0931267738342285,1.0,1.9142082408052374e-07,0.7382346987724304,8.0,0.3524888753890991,0.5666947364807129,-10.277960777282715,0.025632668286561962,0.044675394892692566,1.6700143532943912e-05,-3.1848330497741695,9.999999747378752e-06,0.047820605337619775,33673.82421875,-4190.1943359375,33933.52734375,-7.0931267738342285
13.0,5034.72216796875,34175.6015625,4560.23193359375,-4560.23193359375,34478.5078125,-7.60038423538208,1.0,1.2881764632766138e-07,0.7060402035713196,8.0,0.49689447879791254,0.486034631729126,-4.018094539642334,0.0011970250634476542,0.0017247750656679273,1.4096741324465256e-05,3.582289457321167,9.999999747378752e-06,0.0029033441096544266,34175.6015625,-4560.23193359375,34478.5078125,-7.60038423538208
14.0,3993.0556640625,34700.1640625,4870.501953125,-4870.501953125,35040.30859375,-7.989818096160888,1.0,1.1230682162022276e-07,0.7008918523788452,8.0,0.5865604281425476,0.4136342704296112,20.643053054809567,0.0007574607734568417,0.0005443392437882721,1.1804527275671717e-05,28.632869720458984,9.999999747378752e-06,0.002830624114722013,34700.1640625,-4870.501953125,35040.30859375,-7.989818096160888
15.0,3144.054931640625,35278.015625,5231.6728515625,-5231.6728515625,35663.828125,-8.435392379760742,1.0,9.475239437506387e-08,0.6978761553764343,8.0,0.6660513877868652,0.404970109462738,58.04182052612305,0.0008296651649288833,0.0020296087022870775,1.1355205060681328e-05,66.47721099853516,9.999999747378752e-06,0.0037373711820691824,35278.015625,-5231.6728515625,35663.828125,-8.435392379760742
16.0,2519.53125,35868.4609375,5671.89501953125,-5671.89501953125,36314.140625,-8.985801696777342,1.0,9.027262137806247e-08,0.6906037926673889,8.0,0.7301873564720154,0.39810931682586664,2.7566442489624023,0.001443080720491707,0.003205864923074841,1.096292817237554e-05,11.742445945739746,9.999999747378752e-06,0.004238189198076725,35868.4609375,-5671.89501953125,36314.140625,-8.985801696777342
17.0,2000.76220703125,36522.6640625,6179.5322265625,-6179.5322265625,37041.75390625,-9.603334426879881,1.0,9.966915825998512e-08,0.6863842606544496,8.0,0.7884948253631591,0.3999963998794556,33.17948532104492,0.0014528905740007758,0.003117718733847141,1.0798527000588363e-05,42.78282165527344,9.999999747378752e-06,0.004883678629994392,36522.6640625,-6179.5322265625,37041.75390625,-9.603334426879881
18.0,1580.6685791015625,37220.77734375,6739.57861328125,-6739.57861328125,37826.0234375,-10.2633638381958,1.0,1.152020132622056e-07,0.69326251745224,8.0,0.8355043530464172,0.40081191062927246,95.35367584228516,0.0018904746975749729,0.004669488407671452,1.0596193533274343e-05,105.6170425415039,9.999999747378752e-06,0.005247897934168577,37220.77734375,-6739.57861328125,37826.0234375,-10.2633638381958
19.0,1253.6336669921875,38028.171875,7465.166015625,-7465.166015625,38753.9765625,-11.106289863586424,1.0,1.3656459429967074e-07,0.6821873188018799,8.0,0.8721606731414795,0.4045423865318298,130.4261474609375,0.002730084117501974,0.0064774565398693085,1.0438732715556398e-05,141.5324554443359,9.999999747378752e-06,0.005539197009056807,38028.171875,-7465.166015625,38753.9765625,-11.106289863586424
20.0,1000.7022705078124,38916.18359375,8306.4892578125,-8306.4892578125,39792.80078125,-12.048728942871092,1.0,9.217009022677303e-08,0.6698334217071533,8.0,0.899189054965973,0.4102598428726196,14.366442680358887,0.003503120271489024,0.008284953422844412,1.030990188155556e-05,26.415170669555664,9.999999747378752e-06,0.006395467557013035,38916.18359375,-8306.4892578125,39792.80078125,-12.048728942871092
21.0,790.028076171875,39827.58984375,9134.9501953125,-9134.9501953125,40861.76953125,-12.918061256408691,1.0,8.510154714258533e-08,0.6779468655586243,8.0,0.9227539300918579,0.4193262457847595,-141.29653930664062,0.004493940621614456,0.010481012985110281,1.0262067917210516e-05,-128.37847900390625,9.999999747378752e-06,0.0058303773403167725,39827.58984375,-9134.9501953125,40861.76953125,-12.918061256408691
22.0,628.8109741210938,40889.07421875,10170.98046875,-10170.98046875,42135.08203125,-13.968584060668944,1.0,7.662411150022309e-08,0.669439435005188,8.0,0.939854621887207,0.42915940284729,74.90480041503906,0.005678772926330566,0.01277593057602644,1.018532202579081e-05,88.87338256835938,9.999999747378752e-06,0.005596967414021492,40889.07421875,-10170.98046875,42135.08203125,-13.968584060668944
23.0,502.2321472167969,40541.43359375,12762.6689453125,-12762.6689453125,42502.8671875,-17.474292755126953,1.0,9.122778976689006e-08,0.6776016354560852,8.0,0.922132730484009,0.41701430082321167,150.31698608398435,0.004115194547921419,0.009694335982203485,9.811440577323081e-06,167.79127502441406,9.999999747378752e-06,0.0037849298678338528,40541.43359375,-12762.6689453125,42502.8671875,-17.474292755126953
24.0,400.1524353027344,42172.59765625,13849.974609375,-13849.974609375,44388.62109375,-18.1807861328125,1.0,7.25778406263089e-08,0.667330265045166,8.0,0.9516507387161255,0.4580952227115631,108.43939208984376,0.006594595033675432,0.014070915058255196,1.0320105502614751e-05,126.62017822265624,9.999999747378752e-06,0.004356257151812314,42172.59765625,-13849.974609375,44388.62109375,-18.1807861328125
25.0,315.5048217773437,43836.03125,15061.80078125,-15061.80078125,46351.43359375,-18.96241950988769,1.0,7.830331583136285e-08,0.6695531010627747,8.0,0.9669214487075805,0.4709521532058716,-159.96078491210935,0.008633584715425968,0.018077809363603592,1.0160465535591356e-05,-140.99838256835935,9.999999747378752e-06,0.004619135055691004,43836.03125,-15061.80078125,46351.43359375,-18.96241950988769
26.0,252.01612854003903,45450.36328125,16348.6962890625,-16348.6962890625,48301.30078125,-19.78388214111328,1.0,8.219645053486602e-08,0.6702078580856323,8.0,0.9745649099349976,0.48683118820190424,85.60592651367188,0.01078027207404375,0.02183207869529724,1.0079049388878047e-05,105.38980865478516,9.999999747378752e-06,0.004608543589711188,45450.36328125,-16348.6962890625,48301.30078125,-19.78388214111328
27.0,200.3205108642578,47634.87890625,18539.787109375,-18539.787109375,51115.609375,-21.266292572021484,1.0,8.72695125053724e-08,0.6263594031333923,8.0,0.9771987199783325,0.5125374794006348,63.13690185546875,0.01276030484586954,0.024595817551016808,1.0027025382441934e-05,84.40320587158203,9.999999747378752e-06,0.004544385708868504,47634.87890625,-18539.787109375,51115.609375,-21.266292572021484
28.0,158.005615234375,49563.8828125,20396.15625,-20396.15625,53596.46875,-22.367776870727536,1.0,9.696601210862353e-08,0.6262401938438416,8.0,0.9782705903053284,0.5365526080131531,108.86507415771484,0.015599459409713743,0.02870323695242405,1.0010969162976833e-05,131.23284912109375,9.999999747378752e-06,0.004466615617275238,49563.8828125,-20396.15625,53596.46875,-22.367776870727536
29.0,125.5580368041992,51706.37890625,22591.072265625,-22591.072265625,56426.11328125,-23.60103416442871,1.0,9.645745535635796e-08,0.61869877576828,8.0,0.9715536236763,0.5603868961334229,-126.89488983154295,0.018769428133964535,0.0330943688750267,9.931338354363106e-06,-103.29386138916016,9.999999747378752e-06,0.004148311913013457,51706.37890625,-22591.072265625,56426.11328125,-23.60103416442871
30.0,99.73403930664062,53754.4765625,24768.927734375,-24768.927734375,59186.515625,-24.7392520904541,1.0,1.0701495511966641e-07,0.6285952925682068,8.0,0.9541097283363342,0.5812383890151978,49.86392593383789,0.022675914689898487,0.038510363548994064,9.820453669817651e-06,74.60317993164062,9.999999747378752e-06,0.004053681623190641,53754.4765625,-24768.927734375,59186.515625,-24.7392520904541
31.0,79.44915008544922,55493.859375,25749.072265625,-25749.072265625,61176.65625,-24.891233444213867,1.0,1.2357824630271352e-07,0.6739737391471863,8.0,0.9821654558181762,0.6297555565834044,-121.5822982788086,0.03202063962817192,0.04961781948804855,1.0294051207893062e-05,-96.69106292724608,9.999999747378752e-06,0.004073034040629864,55493.859375,-25749.072265625,61176.65625,-24.891233444213867
32.0,62.919464111328125,58457.67578125,29184.55859375,-29184.55859375,65337.87890625,-26.53032112121582,1.0,1.2624498424429478e-07,0.6512928009033203,8.0,0.9842665791511536,0.6547765731811523,-121.30673217773436,0.03802718594670296,0.056680653244256966,1.0021392881753854e-05,-94.77640533447264,9.999999747378752e-06,0.004000579006969929,58457.67578125,-29184.55859375,65337.87890625,-26.53032112121582
33.0,49.86701965332031,61491.4453125,32993.79296875,-32993.79296875,69783.8671875,-28.2161865234375,1.0,1.3592686798347134e-07,0.6298761367797852,8.0,0.9859426021575928,0.6990269422531128,-122.94269561767578,0.04661925137042999,0.06587585806846619,1.0017028216680046e-05,-94.72650909423827,9.999999747378752e-06,0.004278747830539942,61491.4453125,-32993.79296875,69783.8671875,-28.2161865234375
34.0,39.72457504272461,64856.17578125,37329.4609375,-37329.4609375,74831.890625,-29.923568725585938,1.0,1.5375074724488513e-07,0.6016544103622437,8.0,0.9875855445861816,0.7495657801628112,-123.45752716064452,0.05740262567996978,0.07565353810787201,1.0016663509304635e-05,-93.5339584350586,9.999999747378752e-06,0.003867898369207978,64856.17578125,-37329.4609375,74831.890625,-29.923568725585938
35.0,31.672296524047848,68595.6015625,42344.515625,-42344.515625,80612.7421875,-31.687307357788082,1.0,1.529724045212788e-07,0.5646793842315674,8.0,0.9888827800750732,0.8071863055229187,-124.25970458984376,0.06879772245883942,0.0842045322060585,1.0013135579356458e-05,-92.57239532470705,9.999999747378752e-06,0.0038377416785806417,68595.6015625,-42344.515625,80612.7421875,-31.687307357788082
36.0,25.201612472534176,72610.875,47147.30859375,-47147.30859375,86574.8671875,-32.99625778198242,1.0,1.6272457514787675e-07,0.5364429354667664,8.0,0.9898310303688048,0.8665788769721984,-124.82012176513672,0.08027206361293791,0.0915205180644989,1.0009588550019544e-05,-91.82386779785155,9.999999747378752e-06,0.0034923464991152287,72610.875,-47147.30859375,86574.8671875,-32.99625778198242
37.0,20.03205108642578,76901.65625,52010.95703125,-52010.95703125,92838.59375,-34.07169723510742,1.0,1.6176736039597017e-07,0.49687027931213373,8.0,0.9915433526039124,0.929991900920868,-125.28265380859376,0.08774425089359283,0.09321805834770201,1.0017299246101175e-05,-91.21094512939453,9.999999747378752e-06,0.0032508531585335727,76901.65625,-52010.95703125,92838.59375,-34.07169723510742
38.0,15.782828330993652,81660.7578125,56560.7109375,-56560.7109375,99335.765625,-34.707645416259766,1.0,1.6085297716017521e-07,0.4528143107891082,8.0,0.9927608370780944,0.9945772886276243,-125.41000366210936,0.09201236814260481,0.09141358733177184,1.0012278835347388e-05,-90.70236206054688,9.999999747378752e-06,0.002809126628562808,81660.7578125,-56560.7109375,99335.765625,-34.707645416259766
39.0,12.600806236267088,85980.2890625,60478.62109375,-60478.62109375,105120.28125,-35.12259292602539,1.0,1.4315635610273603e-07,0.4183439910411834,8.0,0.9938324093818665,1.052337408065796,-125.4313735961914,0.0955469533801079,0.0897185280919075,1.0010793630499393e-05,-90.30877685546876,9.999999747378752e-06,0.0025889792013913397,85980.2890625,-60478.62109375,105120.28125,-35.12259292602539
40.0,9.973403930664062,90236.3671875,64374.32421875,-64374.32421875,110845.1875,-35.503936767578125,1.0,1.1965099133703916e-07,0.3875273466110229,8.0,0.9951754212379456,1.1099497079849243,-125.47926330566406,0.09984242916107176,0.08888736367225648,1.0013513929152396e-05,-89.97533416748048,9.999999747378752e-06,0.002214758889749646,90236.3671875,-64374.32421875,110845.1875,-35.503936767578125
41.0,7.971938610076904,94305.0703125,68513.359375,-68513.359375,116565.546875,-35.99869155883789,1.0,9.79209531237757e-08,0.34133878350257874,8.0,0.9958619475364685,1.166459560394287,-125.7211456298828,0.1024920418858528,0.08682435005903245,1.00068982646917e-05,-89.72245788574217,9.999999747378752e-06,0.001958020962774753,94305.0703125,-68513.359375,116565.546875,-35.99869155883789
42.0,6.275100231170654,98143.203125,73024.203125,-73024.203125,122329.9765625,-36.65137481689453,1.0,1.0743219291953209e-07,0.30518314242362976,8.0,0.9967046380043028,1.2243348360061643,-126.14840698242188,0.10795066505670547,0.08712407946586607,1.0008461686084045e-05,-89.49703216552734,9.999999747378752e-06,0.0017071004258468747,98143.203125,-73024.203125,122329.9765625,-36.65137481689453
43.0,5.013369083404541,101302.84375,77520.5078125,-77520.5078125,127560.5546875,-37.42449188232422,1.0,1.29408007865095e-07,0.28241166472435,8.0,0.9972245693206787,1.276271104812622,-126.74910736083984,0.11407887190580368,0.0883205011487007,1.000521660898812e-05,-89.32462310791014,9.999999747378752e-06,0.0015362557023763657,101302.84375,-77520.5078125,127560.5546875,-37.42449188232422
44.0,3.985969305038452,104298.5078125,82231.8359375,-82231.8359375,132816.609375,-38.25322723388672,1.0,1.336099586524142e-07,0.263189435005188,8.0,0.9978893995285033,1.3290517330169676,-127.43999481201172,0.12088748812675476,0.08986049145460127,1.0006667253037447e-05,-89.18677520751953,9.999999747378752e-06,0.0012859927956014872,104298.5078125,-82231.8359375,132816.609375,-38.25322723388672
45.0,3.1758129596710205,107657.859375,87109.4921875,-87109.4921875,138485.65625,-38.97745513916016,1.0,1.1107445629932045e-07,0.2279065102338791,8.0,0.9983298182487488,1.385467767715454,-128.04966735839844,0.12826518714427948,0.09145223349332808,1.0004413525166456e-05,-89.07221221923827,9.999999747378752e-06,0.0011567897163331509,107657.859375,-87109.4921875,138485.65625,-38.97745513916016
46.0,2.516103029251098,110328.453125,92938.21875,-92938.21875,144256.296875,-40.11003875732422,1.0,1.1975976121902934e-07,0.19991187751293185,8.0,0.9673529863357545,1.3978021144866943,-173.03700256347656,0.05470745265483856,0.038676057010889046,9.68971289694309e-06,-132.9269561767578,9.999999747378752e-06,0.00035082481917925174,110328.453125,-92938.21875,144256.296875,-40.11003875732422
47.0,1.9955300092697144,113105.8046875,95972.2890625,-95972.2890625,148336.109375,-40.3151969909668,1.0,1.1159129087445763e-07,0.1640859842300415,8.0,0.9863181114196776,1.5124425888061523,-163.32667541503906,0.09247007966041566,0.06041601300239562,1.0196052244282328e-05,-123.011474609375,9.999999747378752e-06,0.0006317995139397681,113105.8046875,-95972.2890625,148336.109375,-40.3151969909668
48.0,1.5879064798355103,118268.7890625,101665.9375,-101665.9375,155959.828125,-40.68293762207031,1.0,1.0728369659318561e-07,0.14568439126014707,8.0,0.9939369559288026,1.5716453790664673,-156.23931884765625,0.1357796341180801,0.08537572622299193,1.0077244951389728e-05,-115.55638122558592,9.999999747378752e-06,0.0005616073030978441,118268.7890625,-101665.9375,155959.828125,-40.68293762207031
