# point,freq,zreal,reflected_zimag,zimag,zmod,zphz,zsig,Idc,Vdc,ie_range,gain,vmod,vphz,vsig,vthd,imod,iphz,isig,ithd,zreal_drift,zimag_drift,zmod_drift,zphz_drift
0.0,100019.53125,23056.26171875,5016.7568359375,-5016.7568359375,23595.7421875,-12.275513648986816,1.0,2.480712169017352e-07,0.5736097693443297,8.0,0.01883232779800892,0.04180027544498444,-81.3731689453125,0.002979516051709652,0.06936152279376984,1.771517645465792e-06,-69.09764862060547,9.999999747378752e-06,0.07938019186258317,23056.26171875,-5016.7568359375,23595.7421875,-12.275513648986816
1.0,79511.71875,23706.75,4517.99951171875,-4517.99951171875,24133.42578125,-10.789960861206055,1.0,2.322947523225594e-07,0.6260836124420166,8.0,0.02331208810210228,0.05292265489697456,-54.392627716064446,0.0036543537862598896,0.06103045120835304,2.1929192826064536e-06,-43.6026725769043,9.999999747378752e-06,0.06863190233707428,23706.75,-4517.99951171875,24133.42578125,-10.789960861206055
2.0,63105.46875,24151.818359375,4081.873291015625,-4081.873291015625,24494.326171875,-9.59284782409668,1.0,2.197055266606185e-07,0.5811656713485718,8.0,0.02893946878612041,0.06668029725551605,-64.14485931396484,0.004821687936782837,0.07014475017786026,2.7222752123634564e-06,-54.5520133972168,9.999999747378752e-06,0.08515100181102753,24151.818359375,-4081.873291015625,24494.326171875,-9.59284782409668
3.0,50214.84375,24561.23046875,3731.501220703125,-3731.501220703125,24843.0703125,-8.63868522644043,1.0,2.0859900473624293e-07,0.6286188364028931,8.0,0.035794928669929504,0.08365043252706526,-151.90896606445312,0.006555164232850075,0.07699022442102432,3.367153794897604e-06,-143.27027893066406,9.999999747378752e-06,0.08435848355293275,24561.23046875,-3731.501220703125,24843.0703125,-8.63868522644043
4.0,39902.34375,25019.544921875,3544.780029296875,-3544.780029296875,25269.408203125,-8.064019203186035,1.0,1.9336633272359904e-07,0.6371365189552307,8.0,0.04422922432422638,0.10513465851545332,-17.60152816772461,0.008778395131230354,0.0806589424610138,4.1605503611208405e-06,-9.537508010864256,9.999999747378752e-06,0.0877852290868759,25019.544921875,-3544.780029296875,25269.408203125,-8.064019203186035
5.0,31699.21875,25430.818359375,3434.298583984375,-3434.298583984375,25661.6640625,-7.690966606140136,1.0,2.032780486160846e-07,0.623864471912384,8.0,0.054768733680248254,0.13220837712287903,-44.403667449951165,0.01086543221026659,0.08112856000661851,5.151980076334439e-06,-36.71269989013672,9.999999747378752e-06,0.08901310712099075,25430.818359375,-3434.298583984375,25661.6640625,-7.690966606140136
6.0,25136.71875,25804.31640625,3243.085693359375,-3243.085693359375,26007.3125,-7.1633734703063965,1.0,2.19941071577523e-07,0.6400212645530701,8.0,0.06811895221471785,0.16664984822273254,-175.62655639648435,0.013667641207575798,0.08094093948602675,6.4078067225636914e-06,-168.4631805419922,9.999999747378752e-06,0.08745753765106201,25804.31640625,-3243.085693359375,26007.3125,-7.1633734703063965
7.0,19980.46875,26094.916015625,3204.826416015625,-3204.826416015625,26290.978515625,-7.001673698425293,1.0,1.7040404998169834e-07,0.5847057104110718,8.0,0.08475475758314131,0.20961014926433563,166.6154022216797,0.016977459192276,0.08003059774637222,7.972702405822929e-06,173.6170654296875,9.999999747378752e-06,0.08945435285568237,26094.916015625,-3204.826416015625,26290.978515625,-7.001673698425293
8.0,15878.90625,26449.16015625,3168.092041015625,-3168.092041015625,26638.22265625,-6.830371856689453,1.0,1.9299027087527065e-07,0.6146050095558168,8.0,0.10517259687185287,0.2635416686534881,-34.30301284790039,0.021401163190603256,0.08018425107002257,9.893366041069385e-06,-27.472640991210938,9.999999747378752e-06,0.08569145202636719,26449.16015625,-3168.092041015625,26638.22265625,-6.830371856689453
9.0,12597.65625,26732.962890625,3088.265625,-3088.265625,26910.755859375,-6.589755535125732,1.0,1.9287065811113282e-07,0.6306229829788208,8.0,0.13109324872493744,0.3318544924259186,-122.43695068359376,0.02675453200936317,0.0796433687210083,1.23316676763352e-05,-115.84718322753906,1.0786940265461451e-06,0.08510248363018036,26732.962890625,-3088.265625,26910.755859375,-6.589755535125732
10.0,10019.53125,27126.814453125,3181.302490234375,-3181.302490234375,27312.72265625,-6.688820362091064,1.0,2.017390272612829e-07,0.6568903923034668,8.0,0.1954185664653778,0.4071462452411652,94.43204498291016,0.031085580587387085,0.07544013857841492,1.490683644078672e-05,101.12086486816406,1.2096961654606275e-06,0.08006707578897475,27126.814453125,-3181.302490234375,27312.72265625,-6.688820362091064
11.0,7928.24072265625,27502.134765625,3331.902587890625,-3331.902587890625,27703.23046875,-6.9077582359313965,1.0,1.908600211208977e-07,0.6321754455566406,8.0,0.3257039785385132,0.4617295563220978,52.802295684814446,0.023579066619277,0.05044269934296608,1.666699245106429e-05,59.710052490234375,9.739775350681157e-07,0.057668622583150864,27502.134765625,-3331.902587890625,27703.23046875,-6.9077582359313965
12.0,6307.87060546875,27875.8828125,3608.3642578125,-3608.3642578125,28108.453125,-7.375579833984374,1.0,1.4822887806076326e-07,0.5886398553848267,8.0,0.4972650706768036,0.4291428327560425,-8.075509071350098,0.003563143778592348,0.007972508668899536,1.5267392882378772e-05,-0.6999285221099854,9.999999747378752e-06,0.00877643655985594,27875.8828125,-3608.3642578125,28108.453125,-7.375579833984374
13.0,5034.72216796875,28345.87109375,3878.052001953125,-3878.052001953125,28609.921875,-7.7903780937194815,1.0,1.3900341855332954e-07,0.5897631049156189,8.0,0.5652836561203003,0.32523342967033386,12.054976463317873,0.0007351937238126993,0.00020452274475246668,1.1367853403498884e-05,19.845355987548828,9.999999747378752e-06,0.0017647978384047747,28345.87109375,-3878.052001953125,28609.921875,-7.7903780937194815
14.0,3993.0556640625,28805.0,4170.05517578125,-4170.05517578125,29105.28125,-8.237393379211426,1.0,1.426683411409613e-07,0.580864667892456,8.0,0.6484962105751038,0.3338972330093384,28.44159507751465,0.0008054004865698515,0.00049033627146855,1.14720496640075e-05,36.67898941040039,9.999999747378752e-06,0.002611299976706505,28805.0,-4170.05517578125,29105.28125,-8.237393379211426
15.0,3144.054931640625,29300.837890625,4545.12060546875,-4545.12060546875,29651.259765625,-8.817399024963379,1.0,1.4827293171038036e-07,0.5736263990402222,8.0,0.7224887609481812,0.3303443193435669,61.808013916015625,0.0008810990839265288,0.002196722896769643,1.114098722609924e-05,70.62541198730469,9.999999747378752e-06,0.002580582397058606,29300.837890625,-4545.12060546875,29651.259765625,-8.817399024963379
16.0,2519.53125,29802.111328125,4954.80029296875,-4954.80029296875,30211.1875,-9.439465522766112,1.0,1.5750340764952853e-07,0.5683068633079529,8.0,0.7801204323768615,0.3262107968330384,5.276842117309569,0.0012057957937940955,0.0038753692060709,1.0797682080010416e-05,14.716306686401367,9.999999747378752e-06,0.003389881458133459,29802.111328125,-4954.80029296875,30211.1875,-9.439465522766112
17.0,2000.76220703125,30365.3203125,5422.876953125,-5422.876953125,30845.75,-10.125582695007324,1.0,1.5587306734232698e-07,0.568794012069702,8.0,0.8285797238349913,0.32761818170547485,33.424312591552734,0.0012180054327473044,0.0028588674031198025,1.0621177352732047e-05,43.549896240234375,9.999999747378752e-06,0.003570695873349905,30365.3203125,-5422.876953125,30845.75,-10.125582695007324
18.0,1580.6685791015625,30977.880859375,5998.73876953125,-5998.73876953125,31553.3515625,-10.959446907043455,1.0,1.5445161238858418e-07,0.5739158987998961,8.0,0.8675795793533325,0.33038514852523804,94.61961364746092,0.0014014740008860826,0.004130364395678043,1.047068326442968e-05,105.57906341552734,9.999999747378752e-06,0.003956649452447891,30977.880859375,-5998.73876953125,31553.3515625,-10.959446907043455
19.0,1253.6336669921875,31654.384765625,6661.82177734375,-6661.82177734375,32347.796875,-11.884742736816406,1.0,1.5319288593218516e-07,0.574188768863678,8.0,0.8967809081077575,0.3343657255172729,133.9922637939453,0.0018236320465803144,0.005506657995283604,1.0336583727621472e-05,145.87701416015625,9.999999747378752e-06,0.004009857308119536,31654.384765625,-6661.82177734375,32347.796875,-11.884742736816406
20.0,1000.7022705078124,32425.443359375,7401.61376953125,-7401.61376953125,33259.484375,-12.858348846435547,1.0,1.5456237179023447e-07,0.5696802139282227,8.0,0.9195587038993837,0.34104257822036743,16.139860153198242,0.0025728761684149504,0.007150555029511452,1.025399524223758e-05,28.99821090698242,9.999999747378752e-06,0.005167786031961441,32425.443359375,-7401.61376953125,33259.484375,-12.858348846435547
21.0,790.028076171875,33255.13671875,8298.953125,-8298.953125,34275.015625,-14.012191772460936,1.0,1.4884349752719572e-07,0.5678312182426453,8.0,0.9360108375549315,0.3488824069499969,-141.67330932617188,0.0030829261522740126,0.008590408600866793,1.0178912816627417e-05,-127.66111755371092,9.999999747378752e-06,0.003935924731194973,33255.13671875,-8298.953125,34275.015625,-14.012191772460936
22.0,628.8109741210938,34213.1015625,9330.0029296875,-9330.0029296875,35462.44921875,-15.25380516052246,1.0,1.553189150627077e-07,0.5578399300575256,8.0,0.9484176039695741,0.35932502150535583,76.35424041748048,0.0037670815363526336,0.010113759897649288,1.0132549505215138e-05,91.60804748535155,9.999999747378752e-06,0.0037544539663940664,34213.1015625,-9330.0029296875,35462.44921875,-15.25380516052246
23.0,502.2321472167969,33985.58984375,11738.15234375,-11738.15234375,35955.58984375,-19.054204940795895,1.0,1.5271986342213495e-07,0.5598621368408203,8.0,0.930067777633667,0.3525993227958679,150.6514434814453,0.0028120519127696753,0.007590929511934519,9.806522029975895e-06,169.7056427001953,9.999999747378752e-06,0.0020102402195334435,33985.58984375,-11738.15234375,35955.58984375,-19.054204940795895
24.0,400.1524353027344,35405.3203125,12879.6162109375,-12879.6162109375,37675.20703125,-19.99018859863281,1.0,1.571476815342976e-07,0.5541996955871582,8.0,0.9577125906944275,0.38795039057731623,107.70689392089844,0.004353807773441076,0.010943220928311348,1.0297234439349268e-05,127.69708251953124,9.999999747378752e-06,0.0030175545252859592,35405.3203125,-12879.6162109375,37675.20703125,-19.99018859863281
25.0,315.5048217773437,37037.27734375,14374.1484375,-14374.1484375,39728.78125,-21.211206436157223,1.0,1.4548180615747697e-07,0.5371577143669128,8.0,0.9702414870262146,0.402485191822052,-161.7905731201172,0.005592701956629753,0.013707797043025492,1.0130820555787068e-05,-140.57936096191406,9.999999747378752e-06,0.0030988079961389303,37037.27734375,-14374.1484375,39728.78125,-21.211206436157223
26.0,252.01612854003903,38522.46484375,15790.203125,-15790.203125,41633.05078125,-22.288526535034176,1.0,1.435058294418923e-07,0.5420882701873779,8.0,0.9758509397506714,0.41873750090599055,83.78699493408203,0.007003913633525372,0.01651078835129738,1.0057815416075753e-05,106.07552337646484,9.999999747378752e-06,0.0028833099640905857,38522.46484375,-15790.203125,41633.05078125,-22.288526535034176
27.0,200.3205108642578,40096.33203125,17381.998046875,-17381.998046875,43701.828125,-23.437019348144528,1.0,1.3892824313188612e-07,0.5512177348136902,8.0,0.9808598160743712,0.4392614364624024,61.79402160644531,0.008798270486295223,0.019788008183240887,1.0051327990368009e-05,85.23103332519531,9.999999747378752e-06,0.0031846612691879272,40096.33203125,-17381.998046875,43701.828125,-23.437019348144528
28.0,158.005615234375,41809.125,19161.595703125,-19161.595703125,45990.97265625,-24.622522354125977,1.0,1.2940141402850713e-07,0.5665899515151978,8.0,0.9799361824989319,0.45947667956352234,107.1688995361328,0.011016405187547205,0.023626180365681648,9.990583748731297e-06,131.7914276123047,9.999999747378752e-06,0.002902496373280883,41809.125,-19161.595703125,45990.97265625,-24.622522354125977
29.0,125.5580368041992,43845.3515625,21551.525390625,-21551.525390625,48855.73828125,-26.175731658935543,1.0,1.2849443464801882e-07,0.5571417212486267,8.0,0.9743582010269165,0.48577639460563654,-128.97828674316406,0.013979685492813587,0.028428396210074425,9.943078111973593e-06,-102.80255126953124,9.999999747378752e-06,0.0032601067796349525,43845.3515625,-21551.525390625,48855.73828125,-26.175731658935543
30.0,99.73403930664062,46518.140625,25361.767578125,-25361.767578125,52982.60546875,-28.59929084777832,1.0,1.2115908987198054e-07,0.5005124807357788,8.0,0.95273756980896,0.5180695056915283,46.60388946533203,0.017414255067706108,0.03319054841995239,9.778103958524298e-06,75.20317840576173,9.999999747378752e-06,0.0031386129558086395,46518.140625,-25361.767578125,52982.60546875,-28.59929084777832
31.0,79.44915008544922,48109.70703125,25859.41796875,-25859.41796875,54619.16796875,-28.258445739746094,1.0,1.1207448835648393e-07,0.5806081295013428,8.0,0.9824159741401672,0.563205897808075,-124.65741729736328,0.02674879878759384,0.046330545097589486,1.0311506230209488e-05,-96.39897155761719,9.999999747378752e-06,0.00336090219207108,48109.70703125,-25859.41796875,54619.16796875,-28.258445739746094
32.0,62.919464111328125,50949.4609375,29613.78515625,-29613.78515625,58930.66796875,-30.16680145263672,1.0,1.0518294857320143e-07,0.5608066320419312,8.0,0.9839006066322327,0.5901972055435181,-124.7067184448242,0.03349493816494942,0.055366382002830505,1.001511191134341e-05,-94.5399169921875,9.999999747378752e-06,0.003722716355696321,50949.4609375,-29613.78515625,58930.66796875,-30.16680145263672
33.0,49.86701965332031,54284.9375,34226.86328125,-34226.86328125,64174.234375,-32.231590270996094,1.0,9.180813975717683e-08,0.5282682180404663,8.0,0.9856316447257997,0.6428713798522949,-126.75716400146484,0.044278845191001885,0.06802640110254288,1.0017593922384547e-05,-94.52558135986328,9.999999747378752e-06,0.0036909645423293114,54284.9375,-34226.86328125,64174.234375,-32.231590270996094
34.0,39.72457504272461,58072.4453125,39791.49609375,-39791.49609375,70397.2421875,-34.41911315917969,1.0,8.579574739542296e-08,0.482355147600174,8.0,0.9867830872535704,0.7047948837280273,-127.81755065917967,0.05778524279594421,0.08098471164703369,1.0011682206823023e-05,-93.39842987060547,9.999999747378752e-06,0.0038833988364785914,58072.4453125,-39791.49609375,70397.2421875,-34.41911315917969
35.0,31.672296524047848,62392.16015625,46246.5390625,-46246.5390625,77662.8828125,-36.54671478271484,1.0,7.887821595886634e-08,0.4249491095542908,8.0,0.9877908229827882,0.7774219512939453,-129.02125549316406,0.07200128585100174,0.09149691462516785,1.001021246338496e-05,-92.47454071044922,9.999999747378752e-06,0.004069291055202484,62392.16015625,-46246.5390625,77662.8828125,-36.54671478271484
36.0,25.201612472534176,67124.1171875,52164.73828125,-52164.73828125,85010.6328125,-37.85215759277344,1.0,7.788857914192704e-08,0.37798216938972473,8.0,0.9890901446342467,0.8512245416641235,-129.62030029296875,0.08369509130716324,0.0971360206604004,1.0013153769250492e-05,-91.76813507080078,9.999999747378752e-06,0.00375925749540329,67124.1171875,-52164.73828125,85010.6328125,-37.85215759277344
37.0,20.03205108642578,72071.8671875,57418.65234375,-57418.65234375,92148.0078125,-38.543842315673835,1.0,7.968161952476292e-08,0.3279452323913574,8.0,0.9905970096588135,0.9228839278221129,-129.70216369628906,0.08910322189331055,0.09539669752120973,1.0015234693128148e-05,-91.15831756591795,9.999999747378752e-06,0.0033060526475310326,72071.8671875,-57418.65234375,92148.0078125,-38.543842315673835
38.0,15.782828330993652,77257.7578125,61616.2421875,-61616.2421875,98819.6484375,-38.57380294799805,1.0,8.693286446259663e-08,0.28532177209854126,8.0,0.9921070337295533,0.989702820777893,-129.24497985839844,0.09137484431266785,0.09122876822948457,1.0015243788075168e-05,-90.67118072509763,9.999999747378752e-06,0.002930552465841174,77257.7578125,-61616.2421875,98819.6484375,-38.57380294799805
39.0,12.600806236267088,81842.75,65119.29296875,-65119.29296875,104588.515625,-38.50798797607422,1.0,9.488562824344626e-08,0.2503448724746704,8.0,0.9933887720108032,1.0472363233566284,-128.78762817382812,0.09340000152587889,0.08813060820102692,1.0012919119617436e-05,-90.27964782714845,9.999999747378752e-06,0.002594722667708993,81842.75,-65119.29296875,104588.515625,-38.50798797607422
40.0,9.973403930664062,86200.5546875,68592.7578125,-68592.7578125,110161.25,-38.51047897338867,1.0,9.696515945734065e-08,0.22278134524822235,8.0,0.9946663379669187,1.1030293703079224,-128.4650115966797,0.09769348055124281,0.08751669526100159,1.0012860911956523e-05,-89.95453643798828,9.999999747378752e-06,0.0023346256930381055,86200.5546875,-68592.7578125,110161.25,-38.51047897338867
41.0,7.971938610076904,90036.5546875,72113.6015625,-72113.6015625,115355.765625,-38.69252777099609,1.0,1.1653736464722897e-07,0.1981954723596573,8.0,0.9955973029136655,1.154637336730957,-128.3928680419922,0.10329145193099976,0.08839684724807739,1.0009359357354697e-05,-89.7003402709961,9.999999747378752e-06,0.0020209522917866703,90036.5546875,-72113.6015625,115355.765625,-38.69252777099609
42.0,6.275100231170654,93815.0546875,76111.578125,-76111.578125,120806.609375,-39.052207946777344,1.0,1.2272387550638086e-07,0.1782919019460678,8.0,0.996461033821106,1.2091141939163208,-128.53421020507812,0.11143039911985396,0.09106537699699402,1.0008675417338964e-05,-89.48200225830078,9.999999747378752e-06,0.0018911182414740324,93815.0546875,-76111.578125,120806.609375,-39.052207946777344
43.0,5.013369083404541,96956.328125,80214.0234375,-80214.0234375,125836.4765625,-39.60167694091797,1.0,1.2010875138912525e-07,0.16024036705493927,8.0,0.9970670938491821,1.2591301202774048,-128.91908264160156,0.11918392032384872,0.09353258460760115,1.0006082447944207e-05,-89.31741333007811,9.999999747378752e-06,0.0016469869296997783,96956.328125,-80214.0234375,125836.4765625,-39.60167694091797
44.0,3.985969305038452,99909.7578125,84701.953125,-84701.953125,130982.3671875,-40.29076385498047,1.0,1.045026962742668e-07,0.13892635703086853,8.0,0.9977321624755859,1.310697317123413,-129.4694671630859,0.12797251343727112,0.09646496921777725,1.0006669981521554e-05,-89.17870330810547,9.999999747378752e-06,0.001403392176143825,99909.7578125,-84701.953125,130982.3671875,-40.29076385498047
45.0,3.1758129596710205,102794.28125,89452.78125,-89452.78125,136266.15625,-41.030170440673835,1.0,9.42183504548666e-08,0.11218249797821044,8.0,0.9982537031173706,1.3633737564086914,-130.09359741210935,0.14017868041992188,0.10157271474599838,1.0005227522924542e-05,-89.06343078613281,9.999999747378752e-06,0.0013108884450048208,102794.28125,-89452.78125,136266.15625,-41.030170440673835
46.0,2.516103029251098,104850.2890625,94967.1015625,-94967.1015625,141464.953125,-42.16839599609375,1.0,1.0044150400290165e-07,0.09438562393188477,8.0,0.9672837257385253,1.370761156082153,-175.0883636474609,0.0614018440246582,0.04426751285791397,9.689758371678181e-06,-132.9199676513672,9.999999747378752e-06,0.00038872513687238097,104850.2890625,-94967.1015625,141464.953125,-42.16839599609375
47.0,1.9955300092697144,107183.484375,96786.21875,-96786.21875,144415.625,-42.081897735595696,1.0,1.0824439300449741e-07,0.0833951085805893,8.0,0.9864435791969299,1.472761869430542,-165.0830535888672,0.10142263025045394,0.06805696338415146,1.0198078598477876e-05,-123.00115966796876,9.999999747378752e-06,0.0006711258902214468,107183.484375,-96786.21875,144415.625,-42.081897735595696
48.0,1.5879064798355103,112320.6953125,101426.7734375,-101426.7734375,151338.453125,-42.08237075805664,1.0,9.364721620386263e-08,0.07086464762687683,8.0,0.9939557313919068,1.524909734725952,-157.64414978027344,0.14491425454616547,0.09391304105520248,1.0076154467242304e-05,-115.5617904663086,9.999999747378752e-06,0.0005605000187642872,112320.6953125,-101426.7734375,151338.453125,-42.08237075805664
