# point,freq,zreal,reflected_zimag,zimag,zmod,zphz,zsig,Idc,Vdc,ie_range,gain,vmod,vphz,vsig,vthd,imod,iphz,isig,ithd,zreal_drift,zimag_drift,zmod_drift,zphz_drift
0.0,100019.53125,8677.3076171875,214.94441223144528,-214.94441223144528,8679.96875,-1.418975830078125,1.0,6.952941333793206e-08,-0.15993835031986237,8.0,0.11537687480449677,0.010014676488935947,27.41231918334961,0.000594082463067025,0.056516002863645554,1.1537687214513424e-06,28.83129501342773,9.999999747378752e-06,0.1748816817998886,8677.3076171875,-214.94441223144528,8679.96875,-1.418975830078125
1.0,79511.71875,8773.4384765625,299.3863220214844,-299.3863220214844,8778.544921875,-1.9544128179550169,1.0,2.3257244663454915e-07,-0.06107978895306587,8.0,0.06512392312288284,0.049550075083971024,-106.3499755859375,0.0034685598220676184,0.05990477278828621,5.644451903208392e-06,-104.39556121826172,9.999999747378752e-06,0.06001022085547447,8773.4384765625,-299.3863220214844,8778.544921875,-1.9544128179550169
2.0,63105.46875,8846.6650390625,362.0390319824218,-362.0390319824218,8854.0693359375,-2.3434526920318604,1.0,2.121607280969329e-07,-0.045018058270215995,8.0,0.07489519566297531,0.06237899512052536,-41.46453857421875,0.004581999033689498,0.06999968737363815,7.045234269753564e-06,-39.1210823059082,9.999999747378752e-06,0.07752034813165665,8846.6650390625,-362.0390319824218,8854.0693359375,-2.3434526920318604
3.0,50214.84375,8940.5517578125,434.3534240722656,-434.3534240722656,8951.0966796875,-2.781379461288452,1.0,1.8466099049874174e-07,0.008700372651219368,8.0,0.09298744052648544,0.07829643785953522,-132.27456665039062,0.006095180287957192,0.0767746865749359,8.74713350640377e-06,-129.49319458007812,9.999999747378752e-06,0.07960604131221771,8940.5517578125,-434.3534240722656,8951.0966796875,-2.781379461288452
4.0,39902.34375,9026.2138671875,474.3611145019531,-474.3611145019531,9038.669921875,-3.008338928222656,1.0,1.7883908753901778e-07,0.03489474952220917,8.0,0.11570654809474944,0.09837935119867325,-80.83747100830078,0.008208543062210083,0.08066623657941818,1.0884272342082111e-05,-77.82913208007811,9.409517360836617e-07,0.08272647857666014,9026.2138671875,-474.3611145019531,9038.669921875,-3.008338928222656
5.0,31699.21875,9116.8408203125,574.5397338867188,-574.5397338867188,9134.9267578125,-3.6059889793396,1.0,1.7696237364361878e-07,0.025131281465291977,8.0,0.15665771067142487,0.12367982417345048,175.8376007080078,0.010113883763551712,0.08043204247951508,1.353922561975196e-05,179.44357299804688,1.1863124882438567e-06,0.08519280701875687,9116.8408203125,-574.5397338867188,9134.9267578125,-3.6059889793396
6.0,25136.71875,9216.701171875,632.965576171875,-632.965576171875,9238.4111328125,-3.928672790527344,1.0,1.4047328988908703e-07,0.023458344861865044,8.0,0.24797981977462769,0.1462385356426239,-55.66061782836913,0.009852982126176356,0.06636802107095718,1.582940421940293e-05,-51.7319450378418,1.1367852721377856e-06,0.06931328773498535,9216.701171875,-632.965576171875,9238.4111328125,-3.928672790527344
7.0,19980.46875,9314.583984375,698.966796875,-698.966796875,9340.7724609375,-4.2914347648620605,1.0,9.07992827592352e-08,0.031293757259845734,8.0,0.4129736125469208,0.15555672347545624,-57.81005096435546,0.005259300116449594,0.03339996188879013,1.665351737756282e-05,-53.51861190795898,9.999999747378752e-06,0.03616267815232277,9314.583984375,-698.966796875,9340.7724609375,-4.2914347648620605
8.0,15878.90625,9414.623046875,772.6285400390626,-772.6285400390626,9446.2734375,-4.691571235656737,1.0,8.242322735441122e-08,0.029328979551792145,8.0,0.5545902252197266,0.12685582041740415,66.21177673339844,0.0006591093260794878,0.0010804416378960011,1.3429192222247364e-05,70.90335083007812,9.999999747378752e-06,0.0017811758443713188,9414.623046875,-772.6285400390626,9446.2734375,-4.691571235656737
9.0,12597.65625,9522.6953125,802.7672119140626,-802.7672119140626,9556.4716796875,-4.818665027618408,1.0,6.14651085584228e-08,0.024838736280798912,8.0,0.6358655691146851,0.10956976562738419,-28.10565757751465,0.000678370357491076,0.0006794959190301597,1.1465503121144138e-05,-23.2869930267334,9.999999747378752e-06,0.001994074555113912,9522.6953125,-802.7672119140626,9556.4716796875,-4.818665027618408
10.0,10019.53125,9630.5439453125,961.674560546875,-961.674560546875,9678.439453125,-5.702465057373047,1.0,7.653481048919275e-08,0.026589287444949154,8.0,0.7097970843315125,0.10803744196891785,-161.555908203125,0.0007016703602857888,0.006131452973932028,1.116269140766235e-05,-155.85345458984375,9.999999747378752e-06,0.02107509970664978,9630.5439453125,-961.674560546875,9678.439453125,-5.702465057373047
11.0,7928.24072265625,9753.2880859375,1087.0684814453125,-1087.0684814453125,9813.681640625,-6.359745502471924,1.0,7.602606189038852e-08,0.024357391521334648,8.0,0.77582848072052,0.1072663366794586,126.73651123046876,0.0005753363948315382,0.0014706681249663232,1.0930285498034207e-05,133.0962677001953,9.999999747378752e-06,0.010497425682842731,9753.2880859375,-1087.0684814453125,9813.681640625,-6.359745502471924
12.0,6307.87060546875,9875.3447265625,1207.36328125,-1207.36328125,9948.876953125,-6.970409870147705,1.0,7.247565747547924e-08,0.01844835840165615,8.0,0.8297226428985596,0.10639991611242294,47.091175079345696,0.0007263741572387516,0.0009344537393189967,1.069466543413e-05,54.06158828735352,9.999999747378752e-06,0.002107539679855108,9875.3447265625,-1207.36328125,9948.876953125,-6.970409870147705
13.0,5034.72216796875,10033.6982421875,1382.4534912109375,-1382.4534912109375,10128.48828125,-7.8448805809021,1.0,6.268902552619693e-08,0.00926294270902872,8.0,0.84306800365448,0.1029139533638954,57.11856460571289,0.0005938437534496188,0.0004974081530235708,1.0160841156903189e-05,64.96343994140625,9.999999747378752e-06,0.0004663816944230348,10033.6982421875,-1382.4534912109375,10128.48828125,-7.8448805809021
14.0,3993.0556640625,10188.9189453125,1554.4339599609375,-1554.4339599609375,10306.810546875,-8.674229621887207,1.0,5.7123457963825786e-08,0.013739600777626036,8.0,0.8909299373626709,0.1089193969964981,62.45974349975586,0.00048242078628391033,0.00047910350258462126,1.0567711797193624e-05,71.13397216796875,9.999999747378752e-06,0.0006097436416894196,10188.9189453125,-1554.4339599609375,10306.810546875,-8.674229621887207
15.0,3144.054931640625,10365.0810546875,1767.7952880859375,-1767.7952880859375,10514.751953125,-9.678834915161133,1.0,6.028612631325814e-08,0.013265062123537064,8.0,0.9230407476425171,0.10893723368644714,99.58854675292967,0.0005489517352543771,0.00477350316941738,1.0360418855270837e-05,109.26737976074217,9.999999747378752e-06,0.0007646575686521827,10365.0810546875,-1767.7952880859375,10514.751953125,-9.678834915161133
16.0,2519.53125,10547.0556640625,1995.11376953125,-1995.11376953125,10734.0986328125,-10.711679458618164,1.0,6.614193637233257e-08,0.018134640529751778,8.0,0.941952347755432,0.10954022407531738,32.9349250793457,0.0006950886454433203,0.006133565213531256,1.0204883437836543e-05,43.64660644531249,9.999999747378752e-06,0.0008225596393458545,10547.0556640625,-1995.11376953125,10734.0986328125,-10.711679458618164
17.0,2000.76220703125,10761.7685546875,2265.739990234375,-2265.739990234375,10997.6923828125,-11.889190673828123,1.0,7.387242817458173e-08,0.028540035709738728,8.0,0.9564797282218931,0.11167305707931519,64.05711364746094,0.0006196614122018218,0.0010030886624008415,1.0154226401937194e-05,75.94630432128906,9.999999747378752e-06,0.0008491323096677662,10761.7685546875,-2265.739990234375,10997.6923828125,-11.889190673828123
18.0,1580.6685791015625,11001.328125,2592.65673828125,-2592.65673828125,11302.703125,-13.260795593261719,1.0,7.059576745405138e-08,0.037790697067976,8.0,0.9663809537887571,0.11419705301523209,119.45270538330078,0.00023742613848298788,0.001142537803389132,1.0103517524839845e-05,132.71348571777344,9.999999747378752e-06,0.0010329148499295115,11001.328125,-2592.65673828125,11302.703125,-13.260795593261719
19.0,1253.6336669921875,11268.1220703125,2965.92529296875,-2965.92529296875,11651.9228515625,-14.746559143066406,1.0,6.863280077595846e-08,0.04509881883859634,8.0,0.9739937782287597,0.11743710935115814,149.08782958984375,0.00017409904103260487,0.0012143016792833803,1.0078776540467516e-05,163.8343963623047,9.999999747378752e-06,0.0011843466199934483,11268.1220703125,-2965.92529296875,11651.9228515625,-14.746559143066406
20.0,1000.7022705078124,11566.96484375,3409.82958984375,-3409.82958984375,12059.0888671875,-16.42500877380371,1.0,6.868840785045904e-08,0.04235398769378662,8.0,0.9788294434547424,0.12118960916996002,26.53378677368164,0.0003602941578719765,0.0013099726056680083,1.0049648153653834e-05,42.95879364013672,9.999999747378752e-06,0.0038737866561859846,11566.96484375,-3409.82958984375,12059.0888671875,-16.42500877380371
21.0,790.028076171875,11914.4111328125,3947.492431640625,-3947.492431640625,12551.3310546875,-18.33110809326172,1.0,6.824496523449852e-08,0.04282983019948006,8.0,0.9839246273040771,0.12616665661334991,-131.39537048339844,0.00041906110709533095,0.0017296704463660717,1.0052053767140023e-05,-113.06426239013672,9.999999747378752e-06,0.001425636583007872,11914.4111328125,-3947.492431640625,12551.3310546875,-18.33110809326172
22.0,628.8109741210938,12296.015625,4562.51904296875,-4562.51904296875,13115.2041015625,-20.357709884643555,1.0,6.967954391257081e-08,0.04069332778453826,8.0,0.9883648753166199,0.1317439079284668,79.40422058105469,0.0006697342614643276,0.0023033502511680126,1.0045127964986023e-05,99.76193237304688,9.999999747378752e-06,0.0010956444311887024,12296.015625,-4562.51904296875,13115.2041015625,-20.357709884643555
23.0,502.2321472167969,12230.943359375,5694.85107421875,-5694.85107421875,13491.7490234375,-24.96716499328613,1.0,7.718167438497403e-08,0.04606971517205238,8.0,0.9584155082702637,0.13082924485206604,152.91017150878906,0.0006339342216961086,0.001877269591204822,9.69698066910496e-06,177.8773193359375,9.999999747378752e-06,0.0004082898667547852,12230.943359375,-5694.85107421875,13491.7490234375,-24.96716499328613
24.0,400.1524353027344,12836.7529296875,6479.8994140625,-6479.8994140625,14379.5458984375,-26.784311294555664,1.0,7.216712560875747e-08,0.045335475355386734,8.0,0.9806042909622192,0.1471245437860489,107.41226196289062,0.0008932834607549012,0.0034514935687184334,1.0231515261693856e-05,134.19656372070312,9.999999747378752e-06,0.0005852128379046917,12836.7529296875,-6479.8994140625,14379.5458984375,-26.784311294555664
25.0,315.5048217773437,13544.0234375,7532.52685546875,-7532.52685546875,15497.7265625,-29.08068084716797,1.0,7.93596939274721e-08,0.02968483790755272,8.0,0.9901460409164429,0.15648527443408966,-163.22401428222656,0.0008651128155179322,0.005224271211773157,1.0097304766532032e-05,-134.14332580566406,9.999999747378752e-06,0.0008086043526418507,13544.0234375,-7532.52685546875,15497.7265625,-29.08068084716797
26.0,252.01612854003903,14289.7470703125,8615.494140625,-8615.494140625,16686.03125,-31.08638000488281,1.0,9.453381721868936e-08,0.029362563043832775,8.0,0.992630422115326,0.1672789603471756,79.12615966796875,0.0013115270994603632,0.007634319830685855,1.0025090887211263e-05,110.21253204345705,9.999999747378752e-06,0.0008712333510629832,14289.7470703125,-8615.494140625,16686.03125,-31.08638000488281
27.0,200.3205108642578,15174.087890625,9996.9462890625,-9996.9462890625,18171.181640625,-33.37757110595703,1.0,9.49835765595708e-08,0.017778227105736732,8.0,0.9933179020881652,0.18183767795562744,55.34156799316406,0.001932727172970772,0.010465807281434536,1.0006925549532752e-05,88.71913146972656,9.999999747378752e-06,0.001085274270735681,15174.087890625,-9996.9462890625,18171.181640625,-33.37757110595703
28.0,158.005615234375,16268.6357421875,11718.861328125,-11718.861328125,20049.943359375,-35.766510009765625,1.0,1.02971839055499e-07,-0.0002967327309306711,8.0,0.991142690181732,0.20006038248538968,98.58785247802734,0.002775490516796708,0.0133980643004179,9.978101843444163e-06,134.35435485839844,9.999999747378752e-06,0.00136503332760185,16268.6357421875,-11718.861328125,20049.943359375,-35.766510009765625
29.0,125.5580368041992,17477.294921875,13621.6611328125,-13621.6611328125,22158.64453125,-37.932559967041016,1.0,1.0123689264673885e-07,-0.01593472994863987,8.0,0.98272442817688,0.21970440447330475,-138.5884552001953,0.0038582605775445695,0.017233790829777718,9.915064765664285e-06,-100.65591430664062,9.999999747378752e-06,0.0013332943199202418,17477.294921875,-13621.6611328125,22158.64453125,-37.932559967041016
30.0,99.73403930664062,18985.15234375,15887.9140625,-15887.9140625,24756.046875,-39.92461395263672,1.0,1.0373518932738081e-07,-0.03935382887721062,8.0,0.9620454907417296,0.2423511892557144,36.855030059814446,0.005138922482728958,0.020597757771611214,9.78957541519776e-06,76.7796401977539,9.999999747378752e-06,0.0014681322500109673,18985.15234375,-15887.9140625,24756.046875,-39.92461395263672
31.0,79.44915008544922,20354.701171875,17147.7578125,-17147.7578125,26615.0234375,-40.11236190795898,1.0,1.1769614616241597e-07,0.028240773826837536,8.0,0.9883958697319031,0.27344006299972534,-135.43011474609375,0.00957683939486742,0.034138839691877365,1.027389953378588e-05,-95.3177490234375,9.999999747378752e-06,0.0012067921925336123,20354.701171875,-17147.7578125,26615.0234375,-40.11236190795898
32.0,62.919464111328125,22129.240234375,19626.845703125,-19626.845703125,29578.984375,-41.570430755615234,1.0,1.0585955578790163e-07,0.02813144028186798,8.0,0.9895806908607483,0.29614442586898804,-135.2252197265625,0.0123043991625309,0.04050738364458084,1.001198779704282e-05,-93.65478515625,9.999999747378752e-06,0.0013181397225707767,22129.240234375,-19626.845703125,29578.984375,-41.570430755615234
33.0,49.86701965332031,24311.0390625,22572.205078125,-22572.205078125,33174.25390625,-42.875953674316406,1.0,9.953853918887033e-08,0.017682068049907684,8.0,0.9907317161560057,0.3321283757686615,-136.66580200195312,0.015774384140968323,0.046884268522262566,1.0011631275119724e-05,-93.78984832763673,9.999999747378752e-06,0.0012307841097936034,24311.0390625,-22572.205078125,33174.25390625,-42.875953674316406
34.0,39.72457504272461,26644.658203125,25796.78515625,-25796.78515625,37086.546875,-44.07372283935546,1.0,9.402813105907626e-08,0.009471584111452103,8.0,0.9916894435882568,0.37122398614883423,-136.84869384765625,0.019866252318024635,0.05283704400062561,1.0009666766563896e-05,-92.77496337890624,9.999999747378752e-06,0.0013273390941321848,26644.658203125,-25796.78515625,37086.546875,-44.07372283935546
35.0,31.672296524047848,29395.0234375,29619.36328125,-29619.36328125,41729.7734375,-45.21780776977539,1.0,6.507635674779522e-08,-0.01012502796947956,8.0,0.9923280477523805,0.4175664782524109,-137.18203735351562,0.024121094495058056,0.05703994259238243,1.0006439879362004e-05,-91.96422576904298,9.999999747378752e-06,0.0013016785960644484,29395.0234375,-29619.36328125,41729.7734375,-45.21780776977539
36.0,25.201612472534176,32538.802734375,33671.05859375,-33671.05859375,46824.28515625,-45.97972106933594,1.0,6.004138697335293e-08,-0.019135862588882446,8.0,0.9930461645126343,0.46858173608779913,-137.30633544921875,0.0293075293302536,0.06175075843930245,1.0007236596720759e-05,-91.3266143798828,9.999999747378752e-06,0.001155336038209498,32538.802734375,-33671.05859375,46824.28515625,-45.97972106933594
37.0,20.03205108642578,36098.6875,38298.44140625,-38298.44140625,52629.703125,-46.69361114501953,1.0,5.7252268703678055e-08,-0.03733884915709496,8.0,0.9937440156936643,0.5266668796539307,-137.49490356445312,0.033957961946725845,0.06367400288581848,1.0007027412939353e-05,-90.8012924194336,9.999999747378752e-06,0.001286909799091518,36098.6875,-38298.44140625,52629.703125,-46.69361114501953
38.0,15.782828330993652,40323.94140625,43385.02734375,-43385.02734375,59230.7421875,-47.09427261352539,1.0,4.947171561298092e-08,-0.061901047825813287,8.0,0.9944995641708374,0.5927578210830688,-137.46896362304688,0.03741542249917984,0.0623396635055542,1.0007603123085572e-05,-90.37468719482419,9.999999747378752e-06,0.0010912178549915552,40323.94140625,-43385.02734375,59230.7421875,-47.09427261352539
39.0,12.600806236267088,44698.05078125,48178.09375,-48178.09375,65719.4375,-47.14585113525391,1.0,5.2932112026837785e-08,-0.09275467693805695,8.0,0.9951857328414917,0.6576477289199829,-137.1914520263672,0.03836020827293396,0.05761304497718811,1.00068991741864e-05,-90.04560852050781,9.999999747378752e-06,0.0010441758204251528,44698.05078125,-48178.09375,65719.4375,-47.14585113525391
40.0,9.973403930664062,49423.33984375,52595.234375,-52595.234375,72172.8828125,-46.78083038330078,1.0,6.626082438287995e-08,-0.11906918883323668,8.0,0.9958673119544984,0.7222231626510621,-136.548583984375,0.04040597751736641,0.05526955053210258,1.0006849151977804e-05,-89.7677536010742,9.999999747378752e-06,0.0009834235534071922,49423.33984375,-52595.234375,72172.8828125,-46.78083038330078
41.0,7.971938610076904,53998.5234375,56263.5625,-56263.5625,77983.515625,-46.17682266235352,1.0,7.838539772819786e-08,-0.1355456709861755,8.0,0.9965156316757202,0.7803428173065186,-135.72987365722656,0.04633640870451927,0.05866938084363937,1.0006509910454042e-05,-89.55303955078125,9.999999747378752e-06,0.0009605686645954848,53998.5234375,-56263.5625,77983.515625,-46.17682266235352
42.0,6.275100231170654,58912.7890625,59599.47265625,-59599.47265625,83802.2265625,-45.33197784423828,1.0,7.574927707310053e-08,-0.14298151433467865,8.0,0.9972459077835085,0.8386363983154298,-134.69876098632812,0.05731704831123352,0.06753517687320709,1.0007328455685636e-05,-89.36678314208984,9.999999747378752e-06,0.000968385022133589,58912.7890625,-59599.47265625,83802.2265625,-45.33197784423828
43.0,5.013369083404541,63390.703125,62434.6484375,-62434.6484375,88974.53125,-44.56465911865234,1.0,5.2819352447386336e-08,-0.15370965003967285,8.0,0.9977466464042664,0.8901919722557069,-133.7908172607422,0.07071705162525177,0.07849809527397156,1.000502106762724e-05,-89.22615051269531,9.999999747378752e-06,0.00098713010083884,63390.703125,-62434.6484375,88974.53125,-44.56465911865234
44.0,3.985969305038452,67736.078125,65233.17578125,-65233.17578125,94040.1171875,-43.9216423034668,1.0,7.0570962407146e-08,-0.16371825337409973,8.0,0.9980250000953673,0.9406635165214537,-133.0277099609375,0.08712442964315414,0.0915268138051033,1.000279007712379e-05,-89.10606384277342,9.999999747378752e-06,0.0009215205209329724,67736.078125,-65233.17578125,94040.1171875,-43.9216423034668
45.0,3.1758129596710205,71891.0234375,67966.8515625,-67966.8515625,98933.3671875,-43.392799377441406,1.0,7.913074995258285e-08,-0.16598099470138547,8.0,0.9984298348426819,0.9897350072860717,-132.4111328125,0.10479858517646788,0.10463453829288483,1.0004056093748657e-05,-89.0183334350586,9.999999747378752e-06,0.0008906390867196022,71891.0234375,-67966.8515625,98933.3671875,-43.392799377441406
46.0,2.516103029251098,74935.0859375,71394.90625,-71394.90625,103501.2109375,-43.61410903930664,1.0,6.316139433693024e-08,-0.1771450042724609,8.0,0.9677368998527527,1.0031944513320923,-176.49847412109375,0.055626317858695984,0.05479114130139351,9.692587809695395e-06,-132.8843536376953,9.999999747378752e-06,0.0002904873399529606,74935.0859375,-71394.90625,103501.2109375,-43.61410903930664
47.0,1.9955300092697144,77536.734375,72851.8671875,-72851.8671875,106392.3828125,-43.21571350097656,1.0,7.832922932493602e-08,-0.18218296766281128,8.0,0.9867181181907652,1.0847917795181274,-166.1835174560547,0.09098317474126816,0.08287981897592545,1.01961404652684e-05,-122.96778869628906,9.999999747378752e-06,0.0005050433683209121,77536.734375,-72851.8671875,106392.3828125,-43.21571350097656
48.0,1.5879064798355103,82003.9765625,76441.6015625,-76441.6015625,112106.953125,-42.98940658569336,1.0,7.816991853815125e-08,-0.1891334652900696,8.0,0.9943642616271972,1.1297569274902344,-158.51856994628906,0.12363415956497192,0.10814349353313446,1.0077490514959209e-05,-115.52916717529295,9.999999747378752e-06,0.0004492149746511132,82003.9765625,-76441.6015625,112106.953125,-42.98940658569336
