# point,freq,zreal,reflected_zimag,zimag,zmod,zphz,zsig,Idc,Vdc,ie_range,gain,vmod,vphz,vsig,vthd,imod,iphz,isig,ithd,zreal_drift,zimag_drift,zmod_drift,zphz_drift
0.0,100019.53125,19325.990234375,3354.8310546875,-3354.8310546875,19615.013671875,-9.847933769226074,1.0,3.124336558357755e-07,0.4474871456623077,8.0,0.022514162585139275,0.04154185578227043,23.995235443115234,0.0032120964024215937,0.07467730343341827,2.1178600491111865e-06,33.84316635131836,9.999999747378752e-06,0.07665210962295532,19325.990234375,-3354.8310546875,19615.013671875,-9.847933769226074
1.0,79511.71875,19767.57421875,3039.552490234375,-3039.552490234375,19999.896484375,-8.74159526824951,1.0,2.841448747403774e-07,0.5148040056228638,8.0,0.027915047481656075,0.052517924457788474,-61.23229980468751,0.003837126540020108,0.06334257125854492,2.6259099286107808e-06,-52.490699768066406,9.999999747378752e-06,0.06479180604219437,19767.57421875,-3039.552490234375,19999.896484375,-8.74159526824951
2.0,63105.46875,20183.4453125,2899.755859375,-2899.755859375,20390.685546875,-8.175740242004393,1.0,2.828419383149594e-07,0.5488859415054321,8.0,0.03449102118611336,0.06615753471851349,-144.21502685546875,0.00469719199463725,0.06971144676208496,3.244498202548129e-06,-136.03927612304688,9.999999747378752e-06,0.08487408608198166,20183.4453125,-2899.755859375,20390.685546875,-8.175740242004393
3.0,50214.84375,20574.90625,2709.954833984375,-2709.954833984375,20752.603515625,-7.503331661224365,1.0,2.5457003971496306e-07,0.5632824897766113,8.0,0.042542975395917886,0.08305044472217558,132.46975708007812,0.006500992923974991,0.07693611830472946,4.00192857341608e-06,139.97308349609375,9.999999747378752e-06,0.08366870880126953,20574.90625,-2709.954833984375,20752.603515625,-7.503331661224365
4.0,39902.34375,20863.77734375,2677.931396484375,-2677.931396484375,21034.935546875,-7.31410312652588,1.0,2.545972961343068e-07,0.5816880464553833,8.0,0.052732110023498535,0.10434167832136154,-36.21490859985352,0.008544517681002617,0.07861848920583726,4.96039911013213e-06,-28.90080451965332,9.999999747378752e-06,0.0864618271589279,20863.77734375,-2677.931396484375,21034.935546875,-7.31410312652588
5.0,31699.21875,21228.740234375,2617.238037109375,-2617.238037109375,21389.46875,-7.028386116027832,1.0,2.2359964191309703e-07,0.5729295015335083,8.0,0.06522080302238464,0.13122832775115967,-99.39314270019533,0.010773591697216032,0.08111393451690675,6.135184321465204e-06,-92.36476135253906,9.999999747378752e-06,0.08680830895900726,21228.740234375,-2617.238037109375,21389.46875,-7.028386116027832
6.0,25136.71875,21578.2578125,2567.08251953125,-2567.08251953125,21730.419921875,-6.784372806549072,1.0,2.2815095235273477e-07,0.5946999192237854,8.0,0.08092285692691803,0.16541723906993863,96.58512878417967,0.013505682349205015,0.08055127412080765,7.612243280163966e-06,103.3695068359375,9.999999747378752e-06,0.0881035104393959,21578.2578125,-2567.08251953125,21730.419921875,-6.784372806549072
7.0,19980.46875,21882.26171875,2531.3642578125,-2531.3642578125,22028.19140625,-6.598708629608153,1.0,1.761966927915637e-07,0.6126036643981934,8.0,0.10036874562501907,0.20797866582870483,158.9174041748047,0.017076006159186363,0.0811278149485588,9.441477232030591e-06,165.5160980224609,9.999999747378752e-06,0.08800137788057326,21882.26171875,-2531.3642578125,22028.19140625,-6.598708629608153
8.0,15878.90625,22156.033203125,2593.2919921875,-2593.2919921875,22307.28515625,-6.675909996032715,1.0,1.6552853310258797e-07,0.5828432440757751,8.0,0.12463686615228652,0.26153796911239624,-36.15623474121094,0.021165478974580765,0.07991887629032135,1.172432894236408e-05,-29.480321884155277,1.0315566214558203e-06,0.0853659138083458,22156.033203125,-2593.2919921875,22307.28515625,-6.675909996032715
9.0,12597.65625,22536.048828125,2700.1982421875,-2700.1982421875,22697.236328125,-6.832428455352783,1.0,1.6587654272370858e-07,0.6138407588005066,8.0,0.17849433422088623,0.32505050301551813,-140.76217651367188,0.025163056328892708,0.07643074542284013,1.4321150047180708e-05,-133.92974853515625,1.2072206345692391e-06,0.08228293061256409,22536.048828125,-2700.1982421875,22697.236328125,-6.832428455352783
10.0,10019.53125,22814.84765625,2711.709716796875,-2711.709716796875,22975.435546875,-6.778218746185304,1.0,1.305897967540659e-07,0.6288708448410033,8.0,0.2906287014484405,0.37409153580665594,98.93575286865233,0.022001557052135468,0.05810973048210144,1.6282237993436866e-05,105.71397399902344,1.0239925813948503e-06,0.06203284487128258,22814.84765625,-2711.709716796875,22975.435546875,-6.778218746185304
11.0,7928.24072265625,23159.974609375,2875.46044921875,-2875.46044921875,23337.794921875,-7.077423572540283,1.0,9.619209606626099e-08,0.6054462194442749,8.0,0.4645184874534607,0.37301328778266907,80.2292709350586,0.006252990569919348,0.01646982692182064,1.5983227058313787e-05,87.30669403076173,9.999999747378752e-06,0.01744205132126808,23159.974609375,-2875.46044921875,23337.794921875,-7.077423572540283
12.0,6307.87060546875,23525.951171875,3075.919189453125,-3075.919189453125,23726.1796875,-7.44892930984497,1.0,9.040476811605912e-08,0.5868570804595947,8.0,0.5674588680267334,0.28984060883522034,1.3015500307083128,0.0006034892285242677,0.000849687959998846,1.2216067261761054e-05,8.750478744506836,9.999999747378752e-06,0.002339098835363984,23525.951171875,-3075.919189453125,23726.1796875,-7.44892930984497
13.0,5034.72216796875,23943.390625,3371.759765625,-3371.759765625,24179.634765625,-8.0158052444458,1.0,9.206580386944552e-08,0.5781545042991638,8.0,0.6196256279945374,0.2640247941017151,-1.7312383651733398,0.0005337977199815214,0.000494525593239814,1.0919304259005003e-05,6.284567356109619,9.999999747378752e-06,0.001112520578317344,23943.390625,-3371.759765625,24179.634765625,-8.0158052444458
14.0,3993.0556640625,24339.8828125,3634.665771484375,-3634.665771484375,24609.767578125,-8.493197441101074,1.0,9.485348329008048e-08,0.5792486667633057,8.0,0.7002911567687988,0.2781357169151306,24.857130050659176,0.0007657808600924909,0.00048527249600738287,1.1301843187538905e-05,33.3503303527832,9.999999747378752e-06,0.001431440468877554,24339.8828125,-3634.665771484375,24609.767578125,-8.493197441101074
15.0,3144.054931640625,24794.271484375,3995.6811523437505,-3995.6811523437505,25114.166015625,-9.15470027923584,1.0,9.088226704534465e-08,0.5685029029846193,8.0,0.7668551206588745,0.27501314878463745,66.1961898803711,0.0007392866536974907,0.002229184843599796,1.0950518117169848e-05,75.35088348388672,9.999999747378752e-06,0.0014063537819311023,24794.271484375,-3995.6811523437505,25114.166015625,-9.15470027923584
16.0,2519.53125,25253.66796875,4382.12744140625,-4382.12744140625,25631.05078125,-9.844191551208496,1.0,9.836173120447712e-08,0.5619359016418457,8.0,0.8167809247970581,0.27299752831459045,10.906814575195312,0.0009823740692809224,0.0034039572346955538,1.0651046068232972e-05,20.751007080078125,9.999999747378752e-06,0.0016984749818220735,25253.66796875,-4382.12744140625,25631.05078125,-9.844191551208496
17.0,2000.76220703125,25775.849609375,4841.5029296875,-4841.5029296875,26226.599609375,-10.63797378540039,1.0,1.0722044407884824e-07,0.560874342918396,8.0,0.8576641678810119,0.2753934860229492,41.71906661987305,0.0005510092014446856,0.0012098393635824323,1.0500541065994184e-05,52.357036590576165,9.999999747378752e-06,0.0017097870586439967,25775.849609375,-4841.5029296875,26226.599609375,-10.63797378540039
18.0,1580.6685791015625,26344.765625,5380.72265625,-5380.72265625,26888.638671875,-11.543473243713377,1.0,1.0367958935830757e-07,0.5641000270843506,8.0,0.8917310833930969,0.2795667350292206,96.09346771240233,0.0006626967806369065,0.001821808167733252,1.0397206096968148e-05,107.63694763183592,9.999999747378752e-06,0.0016793070826679468,26344.765625,-5380.72265625,26888.638671875,-11.543473243713377
19.0,1253.6336669921875,26971.943359375,5989.99462890625,-5989.99462890625,27629.076171875,-12.521174430847168,1.0,1.0321000587509844e-07,0.5661820769309998,8.0,0.9161325097084044,0.28385117650032043,135.4617462158203,0.0006628204137086868,0.00246195262297988,1.0273641237290576e-05,147.98292541503906,9.999999747378752e-06,0.00202390062622726,26971.943359375,-5989.99462890625,27629.076171875,-12.521174430847168
20.0,1000.7022705078124,27648.68359375,6689.9482421875,-6689.9482421875,28446.53125,-13.602011680603027,1.0,1.1718444170583096e-07,0.5643531680107117,8.0,0.9323238730430605,0.28949281573295593,17.114763259887695,0.0010824615601450205,0.003178133629262448,1.0176735486311372e-05,30.716773986816406,9.999999747378752e-06,0.0035973149351775646,27648.68359375,-6689.9482421875,28446.53125,-13.602011680603027
21.0,790.028076171875,28419.134765625,7492.20751953125,-7492.20751953125,29390.140625,-14.768991470336914,1.0,1.1505868258154806e-07,0.5679340958595276,8.0,0.9467240571975709,0.2984408736228943,-140.50440979003906,0.0014026458375155924,0.004244391806423664,1.015445468510734e-05,-125.73542022705078,9.999999747378752e-06,0.0018198912730440495,28419.134765625,-7492.20751953125,29390.140625,-14.768991470336914
22.0,628.8109741210938,29225.259765625,8337.9296875,-8337.9296875,30391.396484375,-15.923380851745604,1.0,1.1861253312872577e-07,0.5763895511627197,8.0,0.9588596820831299,0.30780971050262446,75.7101821899414,0.0017972547793760896,0.005278154741972685,1.0128185749636032e-05,91.6335678100586,9.999999747378752e-06,0.001970854355022311,29225.259765625,-8337.9296875,30391.396484375,-15.923380851745604
23.0,502.2321472167969,29052.3125,10383.9111328125,-10383.9111328125,30852.267578125,-19.66796493530273,1.0,1.1844602454402776e-07,0.5849749445915222,8.0,0.9364811182022095,0.3013221323490143,150.79855346679688,0.001423310488462448,0.004258285276591778,9.766612492967397e-06,170.46652221679688,9.999999747378752e-06,0.0010760211152955888,29052.3125,-10383.9111328125,30852.267578125,-19.66796493530273
24.0,400.1524353027344,30273.314453125,11268.16015625,-11268.16015625,32302.3984375,-20.415985107421875,1.0,1.2027848583784362e-07,0.5945615172386169,8.0,0.9630305767059326,0.33218181133270264,108.12512969970705,0.0023857455234974623,0.0066378144547343245,1.02835028883419e-05,128.54112243652344,9.999999747378752e-06,0.0014843841781839728,30273.314453125,-11268.16015625,32302.3984375,-20.415985107421875
25.0,315.5048217773437,31670.0,12507.1650390625,-12507.1650390625,34050.23046875,-21.550130844116207,1.0,1.2179113184629387e-07,0.5876185297966003,8.0,0.9756831526756287,0.34497588872909546,-160.7080841064453,0.0031777331605553627,0.008963817730545998,1.0131382623512764e-05,-139.157958984375,9.999999747378752e-06,0.0018838702235370877,31670.0,-12507.1650390625,34050.23046875,-21.550130844116207
26.0,252.01612854003903,33025.66796875,13716.71875,-13716.71875,35760.91796875,-22.554826736450195,1.0,1.1287065149190313e-07,0.5903252959251404,8.0,0.9824318885803223,0.36008274555206293,84.2785415649414,0.004308351315557957,0.0117642842233181,1.0069169547932688e-05,106.83336639404295,9.999999747378752e-06,0.0021013608202338214,33025.66796875,-13716.71875,35760.91796875,-22.554826736450195
27.0,200.3205108642578,34500.1015625,15141.134765625,-15141.134765625,37676.3984375,-23.69533348083496,1.0,1.1047077919101866e-07,0.5910708904266356,8.0,0.9837689399719238,0.377276748418808,62.137073516845696,0.005797171033918858,0.015184060670435429,1.001360942609608e-05,85.83240509033203,9.999999747378752e-06,0.002319571329280734,34500.1015625,-15141.134765625,37676.3984375,-23.69533348083496
28.0,158.005615234375,36265.50390625,17020.0546875,-17020.0546875,40060.81640625,-25.141511917114254,1.0,1.1483385264909884e-07,0.5788021683692932,8.0,0.9841233491897584,0.40075245499610895,106.96539306640624,0.00776922283694148,0.019094536080956456,1.0003602255892474e-05,132.1069183349609,9.999999747378752e-06,0.0022331147920340295,36265.50390625,-17020.0546875,40060.81640625,-25.141511917114254
29.0,125.5580368041992,37908.80859375,18620.32421875,-18620.32421875,42234.98828125,-26.159683227539062,1.0,1.0385888060682193e-07,0.5909186601638794,8.0,0.976029694080353,0.4188764095306397,-128.8734893798828,0.010421679355204104,0.024566177278757092,9.917757779476233e-06,-102.71380615234376,9.999999747378752e-06,0.0024799783714115615,37908.80859375,-18620.32421875,42234.98828125,-26.159683227539062
30.0,99.73403930664062,40030.51953125,21027.533203125,-21027.533203125,45217.25,-27.712387084960938,1.0,1.0320634658000927e-07,0.5736913084983826,8.0,0.9569382071495056,0.44332784414291376,47.283294677734375,0.013524613343179224,0.03011013753712177,9.804396540857853e-06,74.99568176269531,9.999999747378752e-06,0.002506433287635445,40030.51953125,-21027.533203125,45217.25,-27.712387084960938
31.0,79.44915008544922,41579.40234375,21697.103515625,-21697.103515625,46900.0078125,-27.556604385375977,1.0,9.123338884364784e-08,0.6279729008674622,8.0,0.9853959679603576,0.4829474091529846,-123.70419311523436,0.020699407905340195,0.04181162267923355,1.0297383596480358e-05,-96.14759063720705,9.999999747378752e-06,0.002595584373921156,41579.40234375,-21697.103515625,46900.0078125,-27.556604385375977
32.0,62.919464111328125,44163.12890625,24548.544921875,-24548.544921875,50527.34765625,-29.067960739135746,1.0,7.701804349835582e-08,0.6135243773460388,8.0,0.9866344332695008,0.5059085488319397,-123.40448760986328,0.02562752179801464,0.049433719366788864,1.0012568054662552e-05,-94.33653259277344,9.999999747378752e-06,0.002788856625556946,44163.12890625,-24548.544921875,50527.34765625,-29.067960739135746
33.0,49.86701965332031,46825.01171875,27498.337890625,-27498.337890625,54302.3046875,-30.42390251159668,1.0,7.254991629679353e-08,0.5995887517929077,8.0,0.9884596467018129,0.5440276265144348,-124.7812042236328,0.03257690742611885,0.05915242061018944,1.0018499779107515e-05,-94.3572998046875,9.999999747378752e-06,0.002782166004180908,46825.01171875,-27498.337890625,54302.3046875,-30.42390251159668
34.0,39.72457504272461,49820.484375,30878.521484375,-30878.521484375,58613.68359375,-31.790456771850582,1.0,6.856527079435182e-08,0.5811843872070312,8.0,0.9899211525917053,0.5870034694671631,-125.01841735839844,0.041077934205532074,0.06912554055452347,1.0014785402745474e-05,-93.22796630859376,9.999999747378752e-06,0.002670329064130783,49820.484375,-30878.521484375,58613.68359375,-31.790456771850582
35.0,31.672296524047848,53246.8046875,34837.5546875,-34837.5546875,63630.79296875,-33.195343017578125,1.0,8.233938331159152e-08,0.5541500449180603,8.0,0.9908351302146912,0.6368952989578247,-125.53846740722656,0.050730250775814056,0.07869121432304382,1.000923293759115e-05,-92.3431167602539,9.999999747378752e-06,0.0026787759270519014,53246.8046875,-34837.5546875,63630.79296875,-33.195343017578125
36.0,25.201612472534176,57120.98828125,39078.0546875,-39078.0546875,69209.1171875,-34.37711334228516,1.0,7.624868914035686e-08,0.52628093957901,8.0,0.9916873574256898,0.6926864385604857,-126.0081558227539,0.06116847693920136,0.08723661303520201,1.0008600838773418e-05,-91.63104248046876,9.999999747378752e-06,0.0028255353681743145,57120.98828125,-39078.0546875,69209.1171875,-34.37711334228516
37.0,20.03205108642578,61307.34375,43684.6875,-43684.6875,75279.09375,-35.471858978271484,1.0,1.0689049645407068e-07,0.4898747503757477,8.0,0.9928092956542968,0.7536426186561584,-126.52700042724608,0.06981480121612549,0.09152282029390336,1.0011313861468805e-05,-91.05513763427734,9.999999747378752e-06,0.002468526130542159,61307.34375,-43684.6875,75279.09375,-35.471858978271484
38.0,15.782828330993652,65843.53125,48323.29296875,-48323.29296875,81673.1953125,-36.27535629272461,1.0,1.2409429928084137e-07,0.4528200626373291,8.0,0.9937953948974608,0.8175431489944458,-126.85072326660156,0.07566257566213606,0.09144166111946106,1.0009932339016812e-05,-90.5753707885742,9.999999747378752e-06,0.0020395372994244094,65843.53125,-48323.29296875,81673.1953125,-36.27535629272461
39.0,12.600806236267088,70108.96875,52381.49609375,-52381.49609375,87516.21875,-36.7650260925293,1.0,1.3308789448274186e-07,0.4214351773262024,8.0,0.9947862029075623,0.876034677028656,-126.96318817138672,0.07830213755369185,0.08831620961427689,1.0009969628299586e-05,-90.19816589355469,9.999999747378752e-06,0.002156579168513417,70108.96875,-52381.49609375,87516.21875,-36.7650260925293
40.0,9.973403930664062,74695.5390625,56317.85546875,-56317.85546875,93547.4453125,-37.015033721923835,1.0,1.0868419053622347e-07,0.3831060230731964,8.0,0.9957199692726136,0.9363526105880736,-126.89848327636717,0.07912454009056091,0.08349446952342987,1.000938664219575e-05,-89.88345336914062,9.999999747378752e-06,0.0016443525673821568,74695.5390625,-56317.85546875,93547.4453125,-37.015033721923835
41.0,7.971938610076904,78928.46875,59970.96875,-59970.96875,99127.2890625,-37.22808456420898,1.0,1.3460459058478594e-07,0.3472848832607269,8.0,0.9963578581809996,0.9919080138206482,-126.87928771972656,0.0800965577363968,0.07979153841733932,1.000640622805804e-05,-89.6511993408203,9.999999747378752e-06,0.001455895835533738,78928.46875,-59970.96875,99127.2890625,-37.22808456420898
42.0,6.275100231170654,83166.9375,63781.40234375,-63781.40234375,104808.4296875,-37.484893798828125,1.0,1.2821028860798833e-07,0.32168176770210266,8.0,0.9971922039985656,1.0489619970321655,-126.93387603759764,0.08417138457298279,0.07929105311632156,1.0008374374592677e-05,-89.44898223876953,9.999999747378752e-06,0.0012097136350348592,83166.9375,-63781.40234375,104808.4296875,-37.484893798828125
43.0,5.013369083404541,87018.046875,67673.9140625,-67673.9140625,110235.65625,-37.872196197509766,1.0,9.300747194629366e-08,0.29228898882865906,8.0,0.997670531272888,1.1028852462768555,-127.15977478027344,0.08857177942991255,0.0793553739786148,1.0004796422435902e-05,-89.28759002685545,9.999999747378752e-06,0.0011754591250792144,87018.046875,-67673.9140625,110235.65625,-37.872196197509766
44.0,3.985969305038452,90569.75,71885.1484375,-71885.1484375,115630.2421875,-38.43900680541992,1.0,1.2128046478210308e-07,0.27511024475097656,8.0,0.9979954957962035,1.1566791534423828,-127.5972671508789,0.09592249244451523,0.0819471776485443,1.0003257557400502e-05,-89.15825653076173,9.999999747378752e-06,0.0010670488700270653,90569.75,-71885.1484375,115630.2421875,-38.43900680541992
45.0,3.1758129596710205,93877.0078125,76353.921875,-76353.921875,121007.4921875,-39.12283706665039,1.0,1.0459707766585781e-07,0.24926738440990448,8.0,0.9985277652740479,1.2107201814651487,-128.16958618164062,0.10388555377721786,0.08478473126888275,1.0005333024309948e-05,-89.04673767089844,9.999999747378752e-06,0.0009524101042188704,93877.0078125,-76353.921875,121007.4921875,-39.12283706665039
46.0,2.516103029251098,96324.7578125,81572.71875,-81572.71875,126224.2734375,-40.25962829589844,1.0,1.0654483162397808e-07,0.2293209731578827,8.0,0.9677062034606931,1.2232811450958252,-173.16912841796875,0.043381113559007645,0.03504655137658119,9.691329978522845e-06,-132.90948486328125,9.999999747378752e-06,0.000305954075884074,96324.7578125,-81572.71875,126224.2734375,-40.25962829589844
47.0,1.9955300092697144,99312.953125,84541.2421875,-84541.2421875,130423.484375,-40.40645217895508,1.0,9.081337992711268e-08,0.19571529328823087,8.0,0.9863702654838562,1.3293894529342651,-163.41004943847656,0.07517362385988235,0.05588016286492348,1.0192869012826122e-05,-123.0035934448242,9.999999747378752e-06,0.00035534074413590133,99312.953125,-84541.2421875,130423.484375,-40.40645217895508
48.0,1.5879064798355103,104857.203125,89994.3515625,-89994.3515625,138181.09375,-40.638050079345696,1.0,1.0423707408335758e-07,0.16114503145217896,8.0,0.9944661855697632,1.3931525945663452,-156.17686462402344,0.11525920778512953,0.08175359666347502,1.0082078006234951e-05,-115.53882598876952,9.999999747378752e-06,0.000576752529013902,104857.203125,-89994.3515625,138181.09375,-40.638050079345696
