# point,freq,zreal,reflected_zimag,zimag,zmod,zphz,zsig,Idc,Vdc,ie_range,gain,vmod,vphz,vsig,vthd,imod,iphz,isig,ithd,zreal_drift,zimag_drift,zmod_drift,zphz_drift
0.0,100019.53125,7322.142578125,6188.8330078125,-6188.8330078125,9587.2529296875,-40.20521545410156,1.0,2.9072171514599177e-07,0.014916914515197275,8.0,0.02449718862771988,0.02209285832941532,-83.21754455566406,0.017860572785139084,0.7885295152664183,2.3043992314342177e-06,-43.012325286865234,9.999999747378752e-06,0.09503359347581863,7322.142578125,-6188.8330078125,9587.2529296875,-40.20521545410156
1.0,79511.71875,63774.859375,41383.7421875,-41383.7421875,76025.3046875,-32.97968673706055,1.0,2.8152607001175056e-07,0.15231378376483917,8.0,0.028552236035466198,0.20419248938560483,-83.28369140625,0.0791388750076294,0.3792758882045746,2.685849040062749e-06,-50.30400085449219,9.999999747378752e-06,0.09722138196229935,63774.859375,-41383.7421875,76025.3046875,-32.97968673706055
2.0,63105.46875,121476.9296875,63396.12109375,-63396.12109375,137024.5,-27.55906105041504,1.0,2.406427483947482e-07,0.2635946869850158,8.0,0.03392713516950607,0.4373074471950531,-162.60475158691406,0.028071677312254906,0.06325632333755493,3.1914546525513288e-06,-135.04568481445312,9.999999747378752e-06,0.11799998581409454,121476.9296875,-63396.12109375,137024.5,-27.55906105041504
3.0,50214.84375,133314.9375,56682.12890625,-56682.12890625,144864.546875,-23.033966064453125,1.0,2.0218905660840394e-07,0.2988980710506439,8.0,0.040427397936582565,0.5509083271026611,-169.95216369628906,0.0399162620306015,0.07147406041622162,3.802920446105418e-06,-146.9181976318359,9.999999747378752e-06,0.11316176503896712,133314.9375,-56682.12890625,144864.546875,-23.033966064453125
4.0,39902.34375,141925.71875,47591.859375,-47591.859375,149692.671875,-18.53781509399414,1.0,1.7567515442351578e-07,0.32793524861335754,8.0,0.049264084547758095,0.6937011480331421,-46.188343048095696,0.05459227412939072,0.07577808946371078,4.634169272321742e-06,-27.650524139404297,9.999999747378752e-06,0.10555040836334229,141925.71875,-47591.859375,149692.671875,-18.53781509399414
5.0,31699.21875,147394.5625,40735.734375,-40735.734375,152920.109375,-15.449311256408691,1.0,1.8210721464129165e-07,0.33131974935531616,8.0,0.06071636825799943,0.8733972907066345,-84.58847045898438,0.0690234825015068,0.07804375886917114,5.7114616538456175e-06,-69.13916778564453,9.999999747378752e-06,0.10243475437164307,147394.5625,-40735.734375,152920.109375,-15.449311256408691
6.0,25136.71875,152440.96875,34115.04296875,-34115.04296875,156211.65625,-12.614479064941406,1.0,1.5947289000450837e-07,0.3274995684623718,8.0,0.07490445673465727,1.1006839275360107,137.62808227539062,0.08762508630752563,0.0786065086722374,7.046105110930512e-06,150.2425537109375,9.999999747378752e-06,0.09587252885103224,152440.96875,-34115.04296875,156211.65625,-12.614479064941406
7.0,19980.46875,155348.296875,28060.455078125,-28060.455078125,157862.21875,-10.238895416259764,1.0,1.5790783436386846e-07,0.30627426505088806,8.0,0.093214251101017,1.3842101097106931,165.9640655517578,0.1079300343990326,0.0770486071705818,8.768469342612661e-06,176.2029571533203,9.999999747378752e-06,0.09209975600242615,155348.296875,-28060.455078125,157862.21875,-10.238895416259764
8.0,15878.90625,157342.09375,23144.630859375,-23144.630859375,159035.25,-8.368056297302246,1.0,1.6296156957196217e-07,0.31618696451187134,8.0,0.11633369326591492,1.7403652667999268,-37.337757110595696,0.1386684775352478,0.0786919891834259,1.0943266715912614e-05,-28.969701766967773,9.717648481455399e-07,0.08646119385957718,157342.09375,-23144.630859375,159035.25,-8.368056297302246
9.0,12597.65625,157309.328125,18873.177734375,-18873.177734375,158437.4375,-6.841358184814453,1.0,1.7060614254660322e-07,0.3325097858905792,8.0,0.159824401140213,2.1766839027404785,-123.8202667236328,0.15882256627082825,0.07177813351154327,1.3738444067712408e-05,-116.97890472412108,1.1810623163910348e-06,0.08385864645242691,157309.328125,-18873.177734375,158437.4375,-6.841358184814453
10.0,10019.53125,149350.609375,14674.3125,-14674.3125,150069.78125,-5.61153507232666,1.0,1.4132965020507982e-07,0.338566929101944,8.0,0.25649505853652954,2.408403158187866,127.35748291015624,0.09264780580997468,0.037101268768310554,1.6048554243752733e-05,132.96902465820312,1.1008178262272848e-06,0.06764282286167145,149350.609375,-14674.3125,150069.78125,-5.61153507232666
11.0,7928.24072265625,147795.765625,12053.4150390625,-12053.4150390625,148286.453125,-4.662412166595458,1.0,1.2779889857483795e-07,0.33248835802078247,8.0,0.43352925777435297,2.506345510482788,70.37126922607422,0.1375351995229721,0.053458478301763535,1.69020513567375e-05,75.03367614746092,9.999999747378752e-06,0.03160740435123444,147795.765625,-12053.4150390625,148286.453125,-4.662412166595458
12.0,6307.87060546875,160884.71875,10951.501953125,-10951.501953125,161257.015625,-3.894144773483276,1.0,1.0561483065885113e-07,0.3142899870872497,8.0,0.5758442282676697,2.1419301033020015,0.7837122082710266,0.0035137906670570374,0.0005560602294281125,1.3282708096085116e-05,4.677856922149657,9.999999747378752e-06,0.0013268723851069808,160884.71875,-10951.501953125,161257.015625,-3.894144773483276
13.0,5034.72216796875,161556.65625,9617.9111328125,-9617.9111328125,161842.6875,-3.406953811645508,1.0,9.394715760890904e-08,0.30790215730667114,8.0,0.6415606737136841,1.8031249046325684,8.161478042602539,0.00285208341665566,0.0003160100313834846,1.1141219147248192e-05,11.56843376159668,9.999999747378752e-06,0.00030426617013290524,161556.65625,-9617.9111328125,161842.6875,-3.406953811645508
14.0,3993.0556640625,161931.921875,8333.220703125,-8333.220703125,162146.203125,-2.9459145069122314,1.0,8.473635659811407e-08,0.3111574947834015,8.0,0.7350214719772339,1.857671976089477,29.446138381958008,0.003247008426114917,0.00037314105429686606,1.1456771972007118e-05,32.392051696777344,9.999999747378752e-06,0.000437661015894264,161931.921875,-8333.220703125,162146.203125,-2.9459145069122314
15.0,3144.054931640625,162310.0625,7353.39599609375,-7353.39599609375,162476.546875,-2.5939900875091553,1.0,7.495815168567788e-08,0.31114062666893005,8.0,0.8125715851783752,1.7961900234222412,83.49563598632812,0.0025105816312134266,0.0013721681898459792,1.1055072718590964e-05,86.0896224975586,9.999999747378752e-06,0.00043168052798137063,162310.0625,-7353.39599609375,162476.546875,-2.5939900875091553
16.0,2519.53125,162632.609375,6760.1767578125,-6760.1767578125,162773.046875,-2.3802530765533447,1.0,6.963378496038786e-08,0.30906152725219727,8.0,0.8704807758331299,1.7437334060668943,15.286316871643066,0.003758941078558564,0.0020525536965578794,1.0712666153267492e-05,17.66657066345215,9.999999747378752e-06,0.000575138081330806,162632.609375,-6760.1767578125,162773.046875,-2.3802530765533447
17.0,2000.76220703125,163030.6875,6357.02099609375,-6357.02099609375,163154.578125,-2.2329909801483154,1.0,6.804923913250605e-08,0.3056028485298157,8.0,0.9148343801498413,1.7146779298782349,47.35925292968751,0.00283535523340106,0.0004892880097031593,1.0509529602131806e-05,49.592247009277344,9.999999747378752e-06,0.000637947756331414,163030.6875,-6357.02099609375,163154.578125,-2.2329909801483154
18.0,1580.6685791015625,163469.421875,6220.57470703125,-6220.57470703125,163587.734375,-2.179250478744507,1.0,6.995348655891576e-08,0.30739763379096985,8.0,0.9460019469261168,1.6916100978851318,106.71592712402344,0.00171359337400645,0.0004926548572257161,1.034069100569468e-05,108.89517211914062,9.999999747378752e-06,0.0006528710946440697,163469.421875,-6220.57470703125,163587.734375,-2.179250478744507
19.0,1253.6336669921875,163925.0,6211.802734375,-6211.802734375,164042.65625,-2.1701381206512447,1.0,8.540787632682623e-08,0.30332866311073303,8.0,0.9677984714508056,1.678222894668579,146.31773376464844,0.0017050632741302252,0.0005892611807212234,1.0230406587652396e-05,148.48788452148435,9.999999747378752e-06,0.0007298116688616573,163925.0,-6211.802734375,164042.65625,-2.1701381206512447
20.0,1000.7022705078124,164316.28125,6374.59814453125,-6374.59814453125,164439.890625,-2.2216575145721436,1.0,8.929445982630568e-08,0.30218014121055603,8.0,0.98355895280838,1.6711777448654175,30.37984848022461,0.0029508545994758606,0.0011018917430192232,1.0162849321204703e-05,32.60150909423828,9.999999747378752e-06,0.002201608382165432,164316.28125,-6374.59814453125,164439.890625,-2.2216575145721436
21.0,790.028076171875,165008.34375,6667.14794921875,-6667.14794921875,165142.984375,-2.3137724399566646,1.0,8.587743849375328e-08,0.30688798427581787,8.0,0.9928261637687683,1.6669898033142088,-125.91007232666016,0.002810105215758085,0.0008756752940826118,1.009422066999832e-05,-123.59630584716795,9.999999747378752e-06,0.0011120805284008384,165008.34375,-6667.14794921875,165142.984375,-2.3137724399566646
22.0,628.8109741210938,165676.046875,7116.63037109375,-7116.63037109375,165828.828125,-2.4596338272094727,1.0,9.624569230481937e-08,0.31122931838035583,8.0,0.9981502890586851,1.6671810150146484,91.60222625732419,0.0037657106295228,0.0009399310220032929,1.0053626283479389e-05,94.06185913085936,9.999999747378752e-06,0.001234412542544305,165676.046875,-7116.63037109375,165828.828125,-2.4596338272094727
23.0,502.2321472167969,162514.078125,14685.2958984375,-14685.2958984375,163176.234375,-5.163407802581787,1.0,9.548595869546259e-08,0.3201305568218231,8.0,0.9725294709205629,1.5898778438568115,166.9772796630859,0.002728464780375361,0.0002791278238873929,9.743316695676183e-06,172.14068603515625,9.999999747378752e-06,0.0006005096365697682,162514.078125,-14685.2958984375,163176.234375,-5.163407802581787
24.0,400.1524353027344,164716.453125,14221.5478515625,-14221.5478515625,165329.25,-4.934655666351318,1.0,8.65197549160257e-08,0.3207407295703888,8.0,0.9945681691169738,1.6907581090927124,124.55239105224608,0.003187512280419469,0.0004886476672254503,1.02266121757566e-05,129.487060546875,9.999999747378752e-06,0.0005261426558718085,164716.453125,-14221.5478515625,165329.25,-4.934655666351318
25.0,315.5048217773437,166526.71875,13879.6298828125,-13879.6298828125,167104.140625,-4.764462947845458,1.0,8.978678778248651e-08,0.3249315619468689,8.0,1.003635287284851,1.6862757205963135,-143.0386505126953,0.001111357007175684,0.0006728093721903861,1.0091166586789768e-05,-138.27418518066406,9.999999747378752e-06,0.000705512473359704,166526.71875,-13879.6298828125,167104.140625,-4.764462947845458
26.0,252.01612854003903,168008.328125,13924.4189453125,-13924.4189453125,168584.359375,-4.737808227539063,1.0,8.243754479053676e-08,0.31199440360069275,8.0,1.0072094202041624,1.6918474435806274,102.99410247802734,0.0016053738072514534,0.0009037847048602998,1.0035611921921372e-05,107.7319107055664,9.999999747378752e-06,0.0009726155549287795,168008.328125,-13924.4189453125,168584.359375,-4.737808227539063
27.0,200.3205108642578,169428.828125,14310.4736328125,-14310.4736328125,170032.109375,-4.827916622161865,1.0,8.336357382177086e-08,0.30329594016075134,8.0,1.0061205625534055,1.6984827518463135,81.94654846191406,0.0019066192908212545,0.001152722048573196,9.989189493353479e-06,86.77446746826173,9.999999747378752e-06,0.0009554768912494183,169428.828125,-14310.4736328125,170032.109375,-4.827916622161865
28.0,158.005615234375,170866.046875,15026.2138671875,-15026.2138671875,171525.5,-5.025746822357178,1.0,8.085955727210603e-08,0.29342159628868103,8.0,1.0037561655044556,1.7112239599227903,127.864501953125,0.0033884514123201366,0.0015628441469743848,9.976499313779641e-06,132.89024353027344,9.999999747378752e-06,0.0009726764401420951,170866.046875,-15026.2138671875,171525.5,-5.025746822357178
29.0,125.5580368041992,172293.421875,16126.556640625,-16126.556640625,173046.484375,-5.347270011901856,1.0,7.601411766700039e-08,0.28331148624420166,8.0,0.99444979429245,1.7144207954406738,-106.6032257080078,0.0038751792162656784,0.0020869194995611906,9.907284947985316e-06,-101.25595092773436,9.999999747378752e-06,0.0012086615897715092,172293.421875,-16126.556640625,173046.484375,-5.347270011901856
30.0,99.73403930664062,173966.859375,17652.1484375,-17652.1484375,174860.140625,-5.79388427734375,1.0,7.506267252210817e-08,0.2633398473262787,8.0,0.9718276858329774,1.708823561668396,70.01415252685547,0.005220398772507906,0.002876223297789693,9.772516023076605e-06,75.80803680419923,9.999999747378752e-06,0.001181864645332098,173966.859375,-17652.1484375,174860.140625,-5.79388427734375
31.0,79.44915008544922,175617.921875,18174.970703125,-18174.970703125,176555.90625,-5.908594608306885,1.0,7.306110205718142e-08,0.33601859211921686,8.0,0.99812114238739,1.813327431678772,-101.47588348388672,0.008605490438640118,0.004604680463671684,1.0270557140756864e-05,-95.56729125976561,9.999999747378752e-06,0.00037919479655101895,175617.921875,-18174.970703125,176555.90625,-5.908594608306885
32.0,62.919464111328125,177662.6875,20352.728515625,-20352.728515625,178824.671875,-6.535215854644775,1.0,7.64775052175537e-08,0.3357069194316864,8.0,0.998285233974457,1.7885408401489256,-100.33587646484376,0.011428017169237137,0.006190303713083267,1.0001644113799555e-05,-93.8006591796875,9.999999747378752e-06,0.0004739000869449228,177662.6875,-20352.728515625,178824.671875,-6.535215854644775
33.0,49.86701965332031,179624.734375,22345.001953125,-22345.001953125,181009.234375,-7.091066360473633,1.0,7.215313502229037e-08,0.33512529730796814,8.0,0.998715400695801,1.8108723163604736,-100.97445678710936,0.01409914158284664,0.00768750300630927,1.0004308933275752e-05,-93.88339233398435,9.999999747378752e-06,0.0004259709967300296,179624.734375,-22345.001953125,181009.234375,-7.091066360473633
34.0,39.72457504272461,181805.65625,25008.85546875,-25008.85546875,183517.6875,-7.832347869873046,1.0,8.438063048288313e-08,0.33125898241996765,8.0,0.9991025328636168,1.8358882665634155,-100.62397003173828,0.019158711656928062,0.01027349568903446,1.0003876013797708e-05,-92.7916259765625,9.999999747378752e-06,0.0004377345030661672,181805.65625,-25008.85546875,183517.6875,-7.832347869873046
35.0,31.672296524047848,184376.1875,28214.958984375,-28214.958984375,186522.546875,-8.700436592102049,1.0,7.70974679653591e-08,0.32013511657714844,8.0,0.9992430806159971,1.8654878139495847,-100.63932800292967,0.022488756105303764,0.011897023767232893,1.0001406735682394e-05,-91.9388961791992,9.999999747378752e-06,0.0003507068904582411,184376.1875,-28214.958984375,186522.546875,-8.700436592102049
36.0,25.201612472534176,187439.5625,31820.341796875,-31820.341796875,190121.34375,-9.634859085083008,1.0,7.196977946932748e-08,0.30969017744064326,8.0,0.9993419051170349,1.9014015197753904,-100.90632629394533,0.03369712457060814,0.01746172457933426,1.000098927761428e-05,-91.2714614868164,9.999999747378752e-06,0.00043799128616228694,187439.5625,-31820.341796875,190121.34375,-9.634859085083008
37.0,20.03205108642578,190876.53125,36221.51953125,-36221.51953125,194282.90625,-10.744923591613768,1.0,7.290383763347563e-08,0.2870451211929321,8.0,0.999428391456604,1.9429972171783447,-101.47486877441406,0.04269728437066078,0.021672312170267105,1.000086558633484e-05,-90.72994232177734,9.999999747378752e-06,0.00025079961051233113,190876.53125,-36221.51953125,194282.90625,-10.744923591613768
38.0,15.782828330993652,194955.421875,41317.67578125,-41317.67578125,199285.640625,-11.965866088867188,1.0,8.037912380132183e-08,0.25947344303131104,8.0,0.9994173049926756,1.9928342103958128,-102.2496109008789,0.05300946161150932,0.026259250938892365,9.999888789025135e-06,-90.28375244140624,9.999999747378752e-06,0.0002503582218196243,194955.421875,-41317.67578125,199285.640625,-11.965866088867188
39.0,12.600806236267088,199277.46875,46441.87109375,-46441.87109375,204617.59375,-13.118696212768555,1.0,7.735177831591501e-08,0.22145725786685944,8.0,0.9996675848960876,2.0466883182525635,-103.06944274902344,0.06117153167724609,0.029518481343984604,1.0002504495787434e-05,-89.95075225830078,9.999999747378752e-06,0.0003641943912953138,199277.46875,-46441.87109375,204617.59375,-13.118696212768555
40.0,9.973403930664062,204090.390625,51289.625,-51289.625,210436.484375,-14.106776237487791,1.0,7.976583304980522e-08,0.1790442317724228,8.0,0.9996266365051267,2.104278564453125,-103.7763900756836,0.06508702039718628,0.030551647767424583,9.999590474762954e-06,-89.66961669921875,9.999999747378752e-06,0.00022764405002817512,204090.390625,-51289.625,210436.484375,-14.106776237487791
41.0,7.971938610076904,208658.28125,55212.41015625,-55212.41015625,215839.5,-14.82117748260498,1.0,9.179912296986004e-08,0.14569434523582458,8.0,0.9997723102569581,2.158709764480591,-104.27552032470705,0.06637555360794067,0.030370602384209633,1.0001456757890992e-05,-89.45434570312499,9.999999747378752e-06,0.00036301568616181607,208658.28125,-55212.41015625,215839.5,-14.82117748260498
42.0,6.275100231170654,213422.625,58757.9765625,-58757.9765625,221363.3125,-15.392910957336424,1.0,9.068729411865206e-08,0.11701981723308565,8.0,0.9998210668563842,2.2137410640716553,-104.67135620117188,0.06905605643987656,0.030808420851826668,1.0000488146033604e-05,-89.2784423828125,9.999999747378752e-06,0.00028687313897535205,213422.625,-58757.9765625,221363.3125,-15.392910957336424
43.0,5.013369083404541,217563.828125,62146.71484375,-62146.71484375,226265.84375,-15.941895484924316,1.0,7.963119230680606e-08,0.06648649275302887,8.0,1.0001373291015625,2.263374328613281,-105.10954284667967,0.07217616587877274,0.031479816883802414,1.0003162969951516e-05,-89.16764831542967,9.999999747378752e-06,0.0002430763852316886,217563.828125,-62146.71484375,226265.84375,-15.941895484924316
44.0,3.985969305038452,221209.640625,65894.9765625,-65894.9765625,230815.625,-16.587989807128906,1.0,6.215058334646528e-08,0.02845820039510727,8.0,0.9999259710311889,2.307668447494507,-105.61856079101562,0.08271200954914093,0.03540172800421715,9.997886991186531e-06,-89.03057098388672,9.999999747378752e-06,0.0001384962088195607,221209.640625,-65894.9765625,230815.625,-16.587989807128906
45.0,3.1758129596710205,224609.171875,69284.578125,-69284.578125,235052.40625,-17.143281936645508,1.0,7.492080555948633e-08,0.019950635731220245,8.0,1.000059962272644,2.350838661193848,-106.08506774902344,0.09587566554546355,0.04029141366481781,1.0001339433074463e-05,-88.94178009033203,9.999999747378752e-06,0.0001812767732189968,224609.171875,-69284.578125,235052.40625,-17.143281936645508
46.0,2.516103029251098,227034.15625,74664.8828125,-74664.8828125,238996.546875,-18.204521179199215,1.0,1.0507476844168197e-07,0.00480126403272152,8.0,0.9687525629997251,2.315146446228028,-151.0268096923828,0.048247367143630975,0.02058756537735462,9.686945304565597e-06,-132.82229614257812,9.999999747378752e-06,5.2941857575206086e-05,227034.15625,-74664.8828125,238996.546875,-18.204521179199215
47.0,1.9955300092697144,228659.546875,76755.9453125,-76755.9453125,241198.390625,-18.555761337280277,1.0,6.168097144154672e-08,-0.018537865951657292,8.0,0.9875425696372986,2.45876669883728,-141.46844482421875,0.08349113166332243,0.03354661166667938,1.0193960406468248e-05,-122.9126968383789,9.999999747378752e-06,0.00014382424706127495,228659.546875,-76755.9453125,241198.390625,-18.555761337280277
48.0,1.5879064798355103,232423.46875,80560.8671875,-80560.8671875,245989.28125,-19.116952896118164,1.0,8.078754376583673e-08,-0.018697420135140416,8.0,0.9948836565017699,2.478179216384888,-134.5972442626953,0.1120237335562706,0.04466743022203445,1.007433729682816e-05,-115.48029327392578,9.999999747378752e-06,5.849001172464341e-05,232423.46875,-80560.8671875,245989.28125,-19.116952896118164
49.0,1.258051514625549,236416.953125,83238.703125,-83238.703125,250642.484375,-19.3963680267334,1.0,6.977066391300468e-08,-0.007131064310669898,8.0,0.9979024529457091,2.5140304565429688,-129.0563507080078,0.1369006186723709,0.05381030961871147,1.0030343219114e-05,-109.65997314453124,9.999999747378752e-06,0.00010905379167525096,236416.953125,-83238.703125,250642.484375,-19.3963680267334
