# point,freq,zreal,reflected_zimag,zimag,zmod,zphz,zsig,Idc,Vdc,ie_range,gain,vmod,vphz,vsig,vthd,imod,iphz,isig,ithd,zreal_drift,zimag_drift,zmod_drift,zphz_drift
0.0,100019.53125,6051.7578125,210.21258544921875,-210.21258544921875,6055.40771484375,-1.98941433429718,1.0,9.671108358588752e-08,-0.009781956672668455,8.0,0.15621349215507507,0.009459363296627998,-96.45094299316406,0.0004640675033442676,0.04633906856179237,1.5621349120920058e-06,-94.46152496337889,9.999999747378752e-06,0.11049764603376389,6051.7578125,-210.21258544921875,6055.40771484375,-1.98941433429718
1.0,79511.71875,6130.20361328125,273.6686096191406,-273.6686096191406,6136.30908203125,-2.5561389923095703,1.0,1.8950589719679559e-07,0.07414811104536057,8.0,0.11393012106418608,0.04475352540612221,-165.9468536376953,0.0026498918887227774,0.05259966105222703,7.293231647054198e-06,-163.3907012939453,9.999999747378752e-06,0.05198011174798012,6130.20361328125,-273.6686096191406,6136.30908203125,-2.5561389923095703
2.0,63105.46875,6207.7255859375,345.351318359375,-345.351318359375,6217.32470703125,-3.184225559234619,1.0,2.3270165172561974e-07,0.14496609568595886,8.0,0.10959700495004653,0.05980860441923141,39.09591293334961,0.0042973863892257205,0.06996353715658188,9.619669071980752e-06,42.28014373779297,9.999999747378752e-06,0.07468583434820174,6207.7255859375,-345.351318359375,6217.32470703125,-3.184225559234619
3.0,50214.84375,6275.046875,422.8524475097656,-422.8524475097656,6289.27783203125,-3.855124950408936,1.0,1.9639733750409505e-07,0.17691577970981595,8.0,0.1307634860277176,0.07503926753997801,19.61706733703613,0.005845183972269297,0.07652082294225693,1.1931300832657143e-05,23.472190856933597,9.800360203371385e-07,0.07974838465452194,6275.046875,-422.8524475097656,6289.27783203125,-3.855124950408936
4.0,39902.34375,6353.8271484375,510.25982666015625,-510.25982666015625,6374.283203125,-4.591425895690918,1.0,1.8172914906244841e-07,0.1725274622440338,8.0,0.18909713625907895,0.09217853844165802,-18.331676483154297,0.007071832660585642,0.07442925870418547,1.4461004866461735e-05,-13.740249633789062,1.1688633776429924e-06,0.07873862981796265,6353.8271484375,-510.25982666015625,6374.283203125,-4.591425895690918
5.0,31699.21875,6430.06884765625,566.8115844726562,-566.8115844726562,6455.0029296875,-5.03761100769043,1.0,1.31329230157462e-07,0.1872181445360184,8.0,0.3085176944732666,0.10531532019376753,-63.24365997314453,0.005780457053333521,0.05396511033177376,1.631530176382512e-05,-58.20604705810546,9.697370160210994e-07,0.057688314467668526,6430.06884765625,-566.8115844726562,6455.0029296875,-5.03761100769043
6.0,25136.71875,6525.51611328125,652.5735473632812,-652.5735473632812,6558.064453125,-5.710783958435059,1.0,1.0434959563099257e-07,0.18569971621036527,8.0,0.48113393783569336,0.1022731438279152,117.99833679199217,0.0014207359636202455,0.012172752991318703,1.559502015879843e-05,123.70911407470705,9.999999747378752e-06,0.013015118427574635,6525.51611328125,-652.5735473632812,6558.064453125,-5.710783958435059
7.0,19980.46875,6619.19921875,737.8831787109374,-737.8831787109374,6660.20068359375,-6.360854148864745,1.0,1.0358674984445317e-07,0.1800078451633453,8.0,0.5788881182670593,0.0801338329911232,-155.57484436035156,0.0006115040159784257,0.0066473293118178844,1.2031745427520944e-05,-149.2139892578125,9.999999747378752e-06,0.02044613845646381,6619.19921875,-737.8831787109374,6660.20068359375,-6.360854148864745
8.0,15878.90625,6722.814453125,828.4046020507811,-828.4046020507811,6773.66162109375,-7.024739742279053,1.0,9.505087206207464e-08,0.18625342845916748,8.0,0.654484748840332,0.07658229768276215,-0.7600532174110413,0.0006367373862303793,0.000735672132577747,1.1305894076940604e-05,6.264686584472656,9.999999747378752e-06,0.0015199374174699187,6722.814453125,-828.4046020507811,6773.66162109375,-7.024739742279053
9.0,12597.65625,6875.6259765625,907.1729125976561,-907.1729125976561,6935.21435546875,-7.516214370727539,1.0,8.221132929975283e-08,0.19007465243339536,8.0,0.7196924090385437,0.07626183331012726,-58.61779785156249,0.0005934676737524569,0.000571335491258651,1.0996320270351134e-05,-51.10158157348633,9.999999747378752e-06,0.0017789002740755675,6875.6259765625,-907.1729125976561,6935.21435546875,-7.516214370727539
10.0,10019.53125,6938.88916015625,1050.8619384765625,-1050.8619384765625,7018.01220703125,-8.611734390258789,1.0,9.080908114356134e-08,0.19278599321842196,8.0,0.783708393573761,0.07642257213592529,160.20919799804688,0.0007509879069402814,0.008999628946185112,1.0889491022680886e-05,168.8209228515625,9.999999747378752e-06,0.022054512053728104,6938.88916015625,-1050.8619384765625,7018.01220703125,-8.611734390258789
11.0,7928.24072265625,7073.50537109375,1181.4388427734375,-1181.4388427734375,7171.49072265625,-9.482192039489746,1.0,9.7333213489037e-08,0.1995480954647064,8.0,0.8328014016151427,0.07620725780725478,91.6593780517578,0.0006020244909450412,0.002244653645902872,1.0626418770698365e-05,101.14156341552734,9.999999747378752e-06,0.012221869081258772,7073.50537109375,-1181.4388427734375,7171.49072265625,-9.482192039489746
12.0,6307.87060546875,7210.46875,1338.386474609375,-1338.386474609375,7333.630859375,-10.515403747558592,1.0,8.70040750555745e-08,0.20363138616085047,8.0,0.8709588646888734,0.07669644057750702,18.709329605102536,0.0005887662409804761,0.0008126844768412411,1.0458182259753812e-05,29.224729537963867,9.999999747378752e-06,0.001757961232215166,7210.46875,-1338.386474609375,7333.630859375,-10.515403747558592
13.0,5034.72216796875,7369.79150390625,1521.7369384765625,-1521.7369384765625,7525.25830078125,-11.66664695739746,1.0,9.170713610728851e-08,0.2057126760482788,8.0,0.8715089559555053,0.07530011236667633,26.474321365356445,0.0004867147072218359,0.0006878568092361093,1.0006316188082565e-05,38.14096450805664,9.999999747378752e-06,0.0005786988185718656,7369.79150390625,-1521.7369384765625,7525.25830078125,-11.66664695739746
14.0,3993.0556640625,7543.419921875,1716.8203125,-1716.8203125,7736.32080078125,-12.821647644042969,1.0,8.962040709548091e-08,0.2133846879005432,8.0,0.9101882576942445,0.08079673349857329,44.62586975097656,0.0004424522630870342,0.0005834601470269263,1.0443819519423414e-05,57.447513580322266,9.999999747378752e-06,0.0006020735600031912,7543.419921875,-1716.8203125,7736.32080078125,-12.821647644042969
15.0,3144.054931640625,7741.134765625,1953.6688232421875,-1953.6688232421875,7983.85791015625,-14.164243698120115,1.0,8.95161704761449e-08,0.21830990910530088,8.0,0.9349074959754944,0.08200687915086746,83.36302185058594,0.00039400544483214617,0.004728413186967373,1.0271583960275164e-05,97.52725982666016,9.999999747378752e-06,0.0007192872581072152,7741.134765625,-1953.6688232421875,7983.85791015625,-14.164243698120115
16.0,2519.53125,7947.60498046875,2208.855224609375,-2208.855224609375,8248.8466796875,-15.53205680847168,1.0,8.748484958687186e-08,0.22243402898311612,8.0,0.9492626190185546,0.08375503867864607,27.329578399658203,0.0006379853002727032,0.007472563534975053,1.0153546099900268e-05,42.86163711547852,9.999999747378752e-06,0.0006361702689900993,7947.60498046875,-2208.855224609375,8248.8466796875,-15.53205680847168
17.0,2000.76220703125,8188.44970703125,2513.60791015625,-2513.60791015625,8565.56640625,-17.064912796020508,1.0,8.746528123992903e-08,0.22695362567901609,8.0,0.959626257419586,0.08659081906080246,46.52271270751953,0.0004384091880638152,0.001083236769773066,1.0109175491379572e-05,63.58762741088867,9.999999747378752e-06,0.000899793638382107,8188.44970703125,-2513.60791015625,8565.56640625,-17.064912796020508
18.0,1580.6685791015625,8466.138671875,2876.01025390625,-2876.01025390625,8941.3046875,-18.76300621032715,1.0,8.424063935308368e-08,0.2323942333459854,8.0,0.9686123132705688,0.09025032073259352,102.14208984375,0.0001546009734738618,0.0013796905986964703,1.0093641321873292e-05,120.90509796142578,9.999999747378752e-06,0.0010688947513699532,8466.138671875,-2876.01025390625,8941.3046875,-18.76300621032715
19.0,1253.6336669921875,8777.4326171875,3291.21533203125,-3291.21533203125,9374.1884765625,-20.554203033447266,1.0,8.185075728306401e-08,0.23537887632846832,8.0,0.9739542603492736,0.09425888210535048,138.461669921875,0.0002148576168110594,0.0015507988864555955,1.005515059659956e-05,159.015869140625,9.999999747378752e-06,0.0011172267841175199,8777.4326171875,-3291.21533203125,9374.1884765625,-20.554203033447266
20.0,1000.7022705078124,9121.5380859375,3763.554931640625,-3763.554931640625,9867.4619140625,-22.42108917236328,1.0,8.00151198632193e-08,0.23670823872089383,8.0,0.9778615236282349,0.09907048195600508,18.28888702392578,0.000386627740226686,0.0025140419602394104,1.0040117558673956e-05,40.709976196289055,9.999999747378752e-06,0.0027075703255832195,9121.5380859375,-3763.554931640625,9867.4619140625,-22.42108917236328
21.0,790.028076171875,9531.646484375,4337.68115234375,-4337.68115234375,10472.23828125,-24.46942901611328,1.0,8.07129083568725e-08,0.2358867973089218,8.0,0.9838588237762451,0.10536463558673859,-140.7143402099609,0.00047498921048827464,0.0024283111561089754,1.0061330613098107e-05,-116.24491882324217,9.999999747378752e-06,0.0010382602922618387,9531.646484375,-4337.68115234375,10472.23828125,-24.46942901611328
22.0,628.8109741210938,9985.7119140625,4968.57861328125,-4968.57861328125,11153.529296875,-26.45350456237793,1.0,8.219306124601645e-08,0.23946106433868408,8.0,0.9867888689041135,0.11186746507883072,71.2709732055664,0.0006611237186007202,0.002987502608448267,1.0029781151388306e-05,97.72447967529295,9.999999747378752e-06,0.0012552206171676517,9985.7119140625,-4968.57861328125,11153.529296875,-26.45350456237793
23.0,502.2321472167969,10015.673828125,6005.513671875,-6005.513671875,11678.181640625,-30.94738960266113,1.0,7.99400083906221e-08,0.24705742299556727,8.0,0.95769065618515,0.11333818733692168,144.5732269287109,0.0005161568406037985,0.002575218910351396,9.705122465675233e-06,175.52059936523435,9.999999747378752e-06,0.0003591843997128308,10015.673828125,-6005.513671875,11678.181640625,-30.94738960266113
24.0,400.1524353027344,10688.5712890625,6800.35107421875,-6800.35107421875,12668.478515625,-32.46559524536133,1.0,7.315819061659566e-08,0.25298184156417847,8.0,0.980745792388916,0.1297345608472824,99.94695281982419,0.0008048475137911738,0.004478400107473135,1.0240736628475132e-05,132.4125518798828,9.999999747378752e-06,0.0005848417058587073,10688.5712890625,-6800.35107421875,12668.478515625,-32.46559524536133
25.0,315.5048217773437,11486.05859375,7851.991210937501,-7851.991210937501,13913.421875,-34.35692596435547,1.0,7.516020161801863e-08,0.2425457388162613,8.0,0.9893778562545776,0.1403588056564331,-170.6632537841797,0.0009823503205552695,0.006731048692017794,1.0088015187648123e-05,-136.30633544921875,9.999999747378752e-06,0.0006559960311278701,11486.05859375,-7851.991210937501,13913.421875,-34.35692596435547
26.0,252.01612854003903,12304.6357421875,8903.7490234375,-8903.7490234375,15188.1796875,-35.88985061645508,1.0,7.101906618345312e-08,0.2463098168373108,8.0,0.9932731986045836,0.15247978270053864,73.50267791748048,0.0015015378594398499,0.009653545916080473,1.00393717730185e-05,109.3925323486328,9.999999747378752e-06,0.0010391914984211323,12304.6357421875,-8903.7490234375,15188.1796875,-35.88985061645508
27.0,200.3205108642578,13287.08203125,10263.3974609375,-10263.3974609375,16789.3984375,-37.6837272644043,1.0,7.48866568756057e-08,0.23570634424686432,8.0,0.99333256483078,0.16790400445461273,50.453372955322266,0.0022321692667901516,0.013019300065934658,1.0000597285397816e-05,88.13710021972656,9.999999747378752e-06,0.0011373240267857907,13287.08203125,-10263.3974609375,16789.3984375,-37.6837272644043
28.0,158.005615234375,14456.8447265625,11901.9423828125,-11901.9423828125,18725.826171875,-39.463733673095696,1.0,9.301459158450595e-08,0.22587779164314273,8.0,0.9906976819038392,0.18676155805587769,94.37083435058592,0.003235108219087124,0.016948716714978218,9.973474334401544e-06,133.83456420898435,9.999999747378752e-06,0.0013898044126108289,14456.8447265625,-11901.9423828125,18725.826171875,-39.463733673095696
29.0,125.5580368041992,15715.9462890625,13730.029296875,-13730.029296875,20868.748046875,-41.14165878295898,1.0,8.662418338190035e-08,0.21522340178489685,8.0,0.9817813634872435,0.20680928230285645,-142.22341918945312,0.004647970665246248,0.021976009011268612,9.909999789670108e-06,-101.08175659179688,9.999999747378752e-06,0.00153341272380203,15715.9462890625,-13730.029296875,20868.748046875,-41.14165878295898
30.0,99.73403930664062,17279.19921875,15896.10546875,-15896.10546875,23478.861328125,-42.61269760131836,1.0,9.001458067814384e-08,0.19928723573684687,8.0,0.9628138542175294,0.23025262355804443,33.98747634887695,0.006343360058963299,0.02689354121685028,9.806804882828146e-06,76.60016632080078,9.999999747378752e-06,0.001609632628969848,17279.19921875,-15896.10546875,23478.861328125,-42.61269760131836
31.0,79.44915008544922,18635.3828125,16975.408203125,-16975.408203125,25207.974609375,-42.33112716674805,1.0,8.873036705381308e-08,0.2666471004486084,8.0,0.988817274570465,0.2588878571987152,-137.58151245117188,0.01016052719205618,0.03825593367218971,1.0270077837049028e-05,-95.25038146972656,9.999999747378752e-06,0.0014062084956094623,18635.3828125,-16975.408203125,25207.974609375,-42.33112716674805
32.0,62.919464111328125,20474.359375,19429.263671875,-19429.263671875,28225.798828125,-43.49973678588867,1.0,8.472706269913034e-08,0.2692886888980865,8.0,0.9895769357681273,0.2824748456478119,-137.1064910888672,0.012986807152628899,0.04482334107160568,1.0007682249124628e-05,-93.60675048828125,9.999999747378752e-06,0.0013939307536929844,20474.359375,-19429.263671875,28225.798828125,-43.49973678588867
33.0,49.86701965332031,22663.541015625,22195.71875,-22195.71875,31722.01171875,-44.40250396728516,1.0,8.281216423711157e-08,0.26697039604187006,8.0,0.9908092021942138,0.3176151216030121,-138.1593475341797,0.016840988770127296,0.052341114729642875,1.0012452548835427e-05,-93.75684356689453,9.999999747378752e-06,0.001508096233010292,22663.541015625,-22195.71875,31722.01171875,-44.40250396728516
34.0,39.72457504272461,25115.37109375,25400.451171875,-25400.451171875,35720.6484375,-45.323341369628906,1.0,8.406994567167203e-08,0.26052185893058777,8.0,0.9916666150093079,0.3575156033039093,-138.0712432861328,0.021840140223503113,0.06031974777579308,1.000865358946612e-05,-92.74789428710936,9.999999747378752e-06,0.0013389561790972948,25115.37109375,-25400.451171875,35720.6484375,-45.323341369628906
35.0,31.672296524047848,27967.74609375,29173.46875,-29173.46875,40413.93359375,-46.20880508422852,1.0,8.17110077377947e-08,0.24772061407566073,8.0,0.9924999475479125,0.4044789373874664,-138.15414428710935,0.028117299079895016,0.06864859908819199,1.0008403478423132e-05,-91.9453353881836,9.999999747378752e-06,0.0014522185083478687,27967.74609375,-29173.46875,40413.93359375,-46.20880508422852
36.0,25.201612472534176,31303.2109375,33382.16796875,-33382.16796875,45763.08984375,-46.84082794189453,1.0,8.326983191864201e-08,0.235115259885788,8.0,0.9931948781013488,0.4579513072967529,-138.15220642089844,0.03618130832910538,0.07801425457000732,1.00070019470877e-05,-91.31137084960936,9.999999747378752e-06,0.0016408851370215416,31303.2109375,-33382.16796875,45763.08984375,-46.84082794189453
37.0,20.03205108642578,35145.0546875,38408.44140625,-38408.44140625,52061.33984375,-47.54040527343751,1.0,8.03832378437619e-08,0.2079962342977524,8.0,0.9936450719833374,0.5208494067192078,-138.33062744140625,0.04516248032450676,0.08563258498907089,1.0004532668972388e-05,-90.79022216796876,9.999999747378752e-06,0.0015410750638693571,35145.0546875,-38408.44140625,52061.33984375,-47.54040527343751
38.0,15.782828330993652,39666.9921875,44099.86328125,-44099.86328125,59314.9921875,-48.02921676635742,1.0,8.097546100316323e-08,0.16995361447334287,8.0,0.994481921195984,0.5936495065689087,-138.3917236328125,0.05402589589357376,0.08989150822162627,1.0008421668317167e-05,-90.36249542236328,9.999999747378752e-06,0.0015196927124634383,39666.9921875,-44099.86328125,59314.9921875,-48.02921676635742
39.0,12.600806236267088,44335.359375,49338.83203125,-49338.83203125,66332.078125,-48.05746841430664,1.0,7.921034494984269e-08,0.12850835919380188,8.0,0.9950047731399536,0.6636694669723511,-138.10519409179688,0.05896826833486557,0.08777423202991484,1.00052575362497e-05,-90.0477294921875,9.999999747378752e-06,0.0014123670989647508,44335.359375,-49338.83203125,66332.078125,-48.05746841430664
40.0,9.973403930664062,49229.9453125,53924.59765625,-53924.59765625,73016.78125,-47.60578536987305,1.0,7.85869289643415e-08,0.08972228318452835,8.0,0.9957963824272157,0.7307487130165101,-137.37322998046875,0.06127455458045006,0.08284530043601988,1.000795600702986e-05,-89.76744842529295,9.999999747378752e-06,0.0012511333916336296,49229.9453125,-53924.59765625,73016.78125,-47.60578536987305
41.0,7.971938610076904,53838.953125,57617.1640625,-57617.1640625,78856.6484375,-46.941505432128906,1.0,7.516134559182318e-08,0.056582193821668625,8.0,0.9965221285820008,0.789141297340393,-136.4968719482422,0.06341641396284103,0.07940173149108887,1.000728843791876e-05,-89.55535888671875,9.999999747378752e-06,0.001133918180130422,53838.953125,-57617.1640625,78856.6484375,-46.941505432128906
42.0,6.275100231170654,58524.53125,61050.50390625,-61050.50390625,84571.1796875,-46.21017074584961,1.0,6.747099945414448e-08,0.029373804107308388,8.0,0.9972679615020753,0.8463447093963622,-135.58160400390625,0.06942020356655121,0.08104760199785233,1.000748397927964e-05,-89.37144470214844,9.999999747378752e-06,0.0010686774039641023,58524.53125,-61050.50390625,84571.1796875,-46.21017074584961
43.0,5.013369083404541,62631.19921875,64211.6875,-64211.6875,89698.4296875,-45.7138786315918,1.0,7.713020266919556e-08,0.008757227100431919,8.0,0.9976277351379393,0.8973077535629272,-134.93899536132812,0.0786253735423088,0.08658330142498016,1.0003607712860685e-05,-89.22511291503906,9.999999747378752e-06,0.0010423235362395644,62631.19921875,-64211.6875,89698.4296875,-45.7138786315918
44.0,3.985969305038452,66559.015625,67463.2109375,-67463.2109375,94770.1796875,-45.38654708862305,1.0,8.731574041576094e-08,-0.005398748442530632,8.0,0.9982423186302184,0.9482856392860413,-134.50253295898435,0.09087514132261276,0.09469718486070633,1.000616066448856e-05,-89.11598205566406,9.999999747378752e-06,0.0009605618542991577,66559.015625,-67463.2109375,94770.1796875,-45.38654708862305
45.0,3.1758129596710205,70107.7734375,70997.8359375,-70997.8359375,99778.71875,-45.36140441894531,1.0,8.357131520142502e-08,-0.01942058838903904,8.0,0.9986466765403748,0.9981913566589357,-134.3715057373047,0.10458116233348846,0.10353340953588484,1.0004050636780448e-05,-89.01009368896483,9.999999747378752e-06,0.0009033057140186429,70107.7734375,-70997.8359375,99778.71875,-45.36140441894531
46.0,2.516103029251098,72596.421875,75184.5859375,-75184.5859375,104512.9765625,-46.00334930419922,1.0,7.999841500350156e-08,-0.03147244453430176,8.0,0.9676763415336608,1.0127179622650146,-178.87953186035156,0.05103545263409615,0.049796160310506814,9.689876605989411e-06,-132.8761749267578,9.999999747378752e-06,0.0003135233710054308,72596.421875,-75184.5859375,104512.9765625,-46.00334930419922
47.0,1.9955300092697144,74870.734375,77084.640625,-77084.640625,107460.078125,-45.83470916748047,1.0,8.329020317887625e-08,-0.0368545800447464,8.0,0.9865355491638184,1.09554386138916,-168.80850219726562,0.08275700360536574,0.07465194165706633,1.0194891729042864e-05,-122.97380065917967,9.999999747378752e-06,0.00039909931365400553,74870.734375,-77084.640625,107460.078125,-45.83470916748047
48.0,1.5879064798355103,79417.765625,80988.28125,-80988.28125,113429.640625,-45.56095886230469,1.0,8.83837145693178e-08,-0.030358240008354187,8.0,0.994336485862732,1.143265724182129,-161.0812835693359,0.10948262363672256,0.09463466703891754,1.0079073945234995e-05,-115.52033233642578,9.999999747378752e-06,0.00042652714182622725,79417.765625,-80988.28125,113429.640625,-45.56095886230469
