# point,freq,zreal,reflected_zimag,zimag,zmod,zphz,zsig,Idc,Vdc,ie_range,gain,vmod,vphz,vsig,vthd,imod,iphz,isig,ithd,zreal_drift,zimag_drift,zmod_drift,zphz_drift
0.0,100019.53125,3740.6938476562495,54.79686737060546,-54.79686737060546,3741.0952148437505,-0.8392572999000549,1.0,1.4801481995618815e-07,0.1908124089241028,8.0,0.2274123579263687,0.008507711812853813,-140.03457641601562,0.00027273906744085247,0.026116328313946724,2.274123517054249e-06,-139.19532775878906,9.999999747378752e-06,0.03933773189783096,3740.6938476562495,-54.79686737060546,3741.0952148437505,-0.8392572999000549
1.0,79511.71875,3787.197509765625,124.8896255493164,-124.8896255493164,3789.256103515625,-1.8887467384338377,1.0,1.9573337795009138e-07,0.23597007989883423,8.0,0.21991848945617676,0.036643899977207184,-87.20235443115233,0.0013625803403556347,0.0346047542989254,9.670472536527086e-06,-85.31361389160156,9.999999747378752e-06,0.03393383324146271,3787.197509765625,-124.8896255493164,3789.256103515625,-1.8887467384338377
2.0,63105.46875,3828.955810546875,187.13803100585935,-187.13803100585935,3833.5263671875,-2.7980718612670894,1.0,2.021576506194833e-07,0.2586632072925568,8.0,0.2669559717178345,0.046534642577171326,-116.31497955322264,0.0019877005834132433,0.03976614400744438,1.213886025652755e-05,-113.51690673828124,9.999999747378752e-06,0.04208605736494064,3828.955810546875,-187.13803100585935,3833.5263671875,-2.7980718612670894
3.0,50214.84375,3879.849609375,251.99026489257807,-251.99026489257807,3888.024169921875,-3.716053724288941,1.0,1.7779139227513954e-07,0.2635478973388672,8.0,0.3648723661899567,0.053141068667173386,-147.1369171142578,0.0014673643745481968,0.02609987743198872,1.3667885468748864e-05,-143.42086791992188,9.999999747378752e-06,0.028071762993931767,3879.849609375,-251.99026489257807,3888.024169921875,-3.716053724288941
4.0,39902.34375,3888.723388671875,332.91848754882807,-332.91848754882807,3902.9482421875,-4.893231868743896,1.0,1.4998811082023167e-07,0.27533164620399475,8.0,0.48460862040519714,0.05183736979961395,-23.51432609558105,0.000553424295503646,0.005534355528652668,1.328159214608604e-05,-18.621095657348633,9.999999747378752e-06,0.004214773420244455,3888.723388671875,-332.91848754882807,3902.9482421875,-4.893231868743896
5.0,31699.21875,3979.982666015625,372.1827392578125,-372.1827392578125,3997.346923828125,-5.342401504516602,1.0,1.55465599505078e-07,0.2790258526802063,8.0,0.5672340989112854,0.04678891971707344,-56.40918731689453,0.0005282697384245694,0.004378923214972019,1.1704993994499093e-05,-51.0667839050293,9.999999747378752e-06,0.010724836960434912,3979.982666015625,-372.1827392578125,3997.346923828125,-5.342401504516602
6.0,25136.71875,4042.5092773437505,433.00073242187506,-433.00073242187506,4065.6328125,-6.113748550415039,1.0,1.4490633759578486e-07,0.27982330322265625,8.0,0.6457762122154236,0.046285808086395264,154.00930786132812,0.000491080863866955,0.0014354541199281812,1.1384650861145929e-05,160.123046875,9.999999747378752e-06,0.0025722745340317488,4042.5092773437505,-433.00073242187506,4065.6328125,-6.113748550415039
7.0,19980.46875,4105.341796875,502.2730102539063,-502.2730102539063,4135.953125,-6.975255966186523,1.0,1.4188393038239158e-07,0.28920286893844604,8.0,0.717884361743927,0.04597778618335724,-140.85626220703125,0.0005071430350653827,0.011395564302802084,1.1116611858597024e-05,-133.88101196289062,9.999999747378752e-06,0.01841321028769016,4105.341796875,-502.2730102539063,4135.953125,-6.975255966186523
8.0,15878.90625,4174.1083984375,575.4654541015625,-575.4654541015625,4213.58984375,-7.849627494812011,1.0,1.2838889063004902e-07,0.29722446203231806,8.0,0.7801167368888856,0.04578860476613045,17.36525535583496,0.0005659640883095561,0.0013778475113213062,1.086688644136302e-05,25.21488571166992,9.999999747378752e-06,0.0023158045951277018,4174.1083984375,-575.4654541015625,4213.58984375,-7.849627494812011
9.0,12597.65625,4253.26953125,603.9185791015625,-603.9185791015625,4295.9306640625,-8.081364631652832,1.0,1.2627612022697576e-07,0.30525025725364685,8.0,0.829741597175598,0.04569203406572342,-71.1202163696289,0.0005435351049527526,0.0020013307221233845,1.0636120350682177e-05,-63.038856506347656,9.999999747378752e-06,0.003235400887206197,4253.26953125,-603.9185791015625,4295.9306640625,-8.081364631652832
10.0,10019.53125,4328.01806640625,754.5582275390626,-754.5582275390626,4393.30126953125,-9.889698028564451,1.0,1.2098119839265564e-07,0.3132864832878113,8.0,0.8705636858940125,0.04609445482492447,133.1730194091797,0.0005783092929050326,0.010830892249941824,1.0491985449334607e-05,143.06271362304688,9.999999747378752e-06,0.01904907822608948,4328.01806640625,-754.5582275390626,4393.30126953125,-9.889698028564451
11.0,7928.24072265625,4416.0185546875,856.3768310546875,-856.3768310546875,4498.28857421875,-10.974865913391112,1.0,1.1040103231607645e-07,0.323990136384964,8.0,0.9022417664527891,0.0466197244822979,95.34695434570312,0.0004794116248376668,0.004474321845918894,1.0363880392105784e-05,106.32182312011717,9.999999747378752e-06,0.015131551772356032,4416.0185546875,-856.3768310546875,4498.28857421875,-10.974865913391112
12.0,6307.87060546875,4520.2685546875,975.4039306640624,-975.4039306640624,4624.3095703125,-12.17683696746826,1.0,1.0583968901300977e-07,0.32396891713142395,8.0,0.9242653250694275,0.04737188667058945,30.91476821899414,0.000533937301952392,0.001061821822077036,1.0244098120892886e-05,43.091602325439446,9.999999747378752e-06,0.001522696460597217,4520.2685546875,-975.4039306640624,4624.3095703125,-12.17683696746826
13.0,5034.72216796875,4633.64013671875,1118.6607666015625,-1118.6607666015625,4766.76220703125,-13.572723388671877,1.0,9.929099320515888e-08,0.33117246627807617,8.0,0.9125003218650816,0.04706086218357086,44.54044342041016,0.0004551766032818705,0.0004319504369050264,9.872709597402718e-06,58.1131706237793,9.999999747378752e-06,0.000718802388291806,4633.64013671875,-1118.6607666015625,4766.76220703125,-13.572723388671877
14.0,3993.0556640625,4756.560546875,1275.2451171875,-1275.2451171875,4924.54248046875,-15.008188247680664,1.0,9.973442871569203e-08,0.3371369242668152,8.0,0.9412175416946413,0.05079522728919983,55.65771484375,0.00041424843948334455,0.00051603012252599,1.0314709470549133e-05,70.6658935546875,9.999999747378752e-06,0.0008092332864180206,4756.560546875,-1275.2451171875,4924.54248046875,-15.008188247680664
15.0,3144.054931640625,4902.65478515625,1466.576904296875,-1466.576904296875,5117.31103515625,-16.65399169921875,1.0,9.567836656287908e-08,0.33760356903076166,8.0,0.9579679369926452,0.0520838163793087,87.90240478515625,0.0003792439820244908,0.008029698394238947,1.0177965123148168e-05,104.556396484375,9.999999747378752e-06,0.0008063593995757402,4902.65478515625,-1466.576904296875,5117.31103515625,-16.65399169921875
16.0,2519.53125,5057.02978515625,1674.9256591796875,-1674.9256591796875,5327.1875,-18.325252532958984,1.0,9.811724765995677e-08,0.33848342299461365,8.0,0.9691912531852721,0.0538959875702858,21.62862014770508,0.0005334346788004041,0.009534067474305628,1.0117157216882331e-05,39.95387649536133,9.999999747378752e-06,0.0008732195128686726,5057.02978515625,-1674.9256591796875,5327.1875,-18.325252532958984
17.0,2000.76220703125,5236.6513671875,1922.3944091796875,-1922.3944091796875,5578.36181640625,-20.158376693725582,1.0,9.677711432232174e-08,0.3417912423610687,8.0,0.9756879210472107,0.05615754798054695,43.187057495117195,0.0003702575922943652,0.0012683206005021928,1.006703223538352e-05,63.345436096191406,9.999999747378752e-06,0.0010554859181866048,5236.6513671875,-1922.3944091796875,5578.36181640625,-20.158376693725582
18.0,1580.6685791015625,5443.43994140625,2213.858154296875,-2213.858154296875,5876.4111328125,-22.131675720214844,1.0,9.486974761330201e-08,0.3479469120502472,8.0,0.9815821051597596,0.059119105339050286,99.87815856933592,9.999999747378752e-06,0.0015845160232856868,1.0060410204459911e-05,122.00982666015624,9.999999747378752e-06,0.0010082351509481668,5443.43994140625,-2213.858154296875,5876.4111328125,-22.131675720214844
19.0,1253.6336669921875,5678.13134765625,2551.962890625,-2551.962890625,6225.24658203125,-24.20092010498047,1.0,1.0040278652923008e-07,0.3509608805179596,8.0,0.9849300384521484,0.06246478855609894,134.70132446289062,0.0002862802648451179,0.002315280959010124,1.003410761768464e-05,158.90223693847656,9.999999747378752e-06,0.0011496833758428693,5678.13134765625,-2551.962890625,6225.24658203125,-24.20092010498047
20.0,1000.7022705078124,5933.89990234375,2931.097900390625,-2931.097900390625,6618.34619140625,-26.28744125366211,1.0,8.863578671025607e-08,0.35439130663871765,8.0,0.9873644709587096,0.06634704768657684,16.073999404907227,0.00038909612339921296,0.0035637808032333847,1.0024717084888835e-05,42.3614387512207,9.999999747378752e-06,0.002989452797919512,5933.89990234375,-2931.097900390625,6618.34619140625,-26.28744125366211
21.0,790.028076171875,6240.42578125,3399.580078125,-3399.580078125,7106.33935546875,-28.580104827880856,1.0,8.525158534666843e-08,0.355103075504303,8.0,0.9905373454093933,0.07129175961017609,-145.37828063964844,0.0004824480565730482,0.004255138337612152,1.0032134923676495e-05,-116.79817962646484,9.999999747378752e-06,0.0013354804832488298,6240.42578125,-3399.580078125,7106.33935546875,-28.580104827880856
22.0,628.8109741210938,6579.50048828125,3929.4819335937505,-3929.4819335937505,7663.592773437501,-30.846961975097656,1.0,8.167137366399402e-08,0.35569906234741205,8.0,0.9916287064552307,0.07672036439180374,67.59883880615233,0.000633473158814013,0.005729500204324721,1.0011017366196027e-05,98.44580078125,9.999999747378752e-06,0.0013957726769149303,6579.50048828125,-3929.4819335937505,7663.592773437501,-30.846961975097656
23.0,502.2321472167969,6606.29345703125,4718.61669921875,-4718.61669921875,8118.40234375,-35.5367317199707,1.0,8.86128077581816e-08,0.36368572711944575,8.0,0.9637530446052552,0.07890185713768005,140.1462860107422,0.000491444836370647,0.004924416076391935,9.718890396470668e-06,175.68301391601562,9.999999747378752e-06,0.0003520056779962033,6606.29345703125,-4718.61669921875,8118.40234375,-35.5367317199707
24.0,400.1524353027344,7091.24951171875,5393.2724609375,-5393.2724609375,8909.1640625,-37.25491714477539,1.0,9.532305966786224e-08,0.3705792427062988,8.0,0.9858145713806152,0.0911310538649559,95.56448364257811,0.0008539339760318398,0.008240863680839537,1.0228912287857383e-05,132.81939697265625,9.999999747378752e-06,0.0005990694044157863,7091.24951171875,-5393.2724609375,8909.1640625,-37.25491714477539
25.0,315.5048217773437,7683.8984375,6323.828125,-6323.828125,9951.5380859375,-39.45429229736328,1.0,9.714865711885069e-08,0.3596649467945099,8.0,0.9946488142013549,0.100407175719738,-175.06326293945312,0.001259349170140922,0.012011836282908916,1.008961407933384e-05,-135.60897827148435,9.999999747378752e-06,0.0009432464139536024,7683.8984375,-6323.828125,9951.5380859375,-39.45429229736328
26.0,252.01612854003903,8282.87109375,7223.66650390625,-7223.66650390625,10990.328125,-41.09236907958984,1.0,9.882478479994462e-08,0.36896756291389465,8.0,0.9959834814071656,0.1100507527589798,68.50413513183594,0.0017905763816088438,0.016105713322758675,1.0013418432208708e-05,109.59649658203124,9.999999747378752e-06,0.0010265992023050785,8282.87109375,-7223.66650390625,10990.328125,-41.09236907958984
27.0,200.3205108642578,9048.50390625,8511.474609375,-8511.474609375,12422.5849609375,-43.248294830322266,1.0,9.491213859291747e-08,0.35204681754112244,8.0,0.9972006678581236,0.12437766790390015,44.690223693847656,0.002625891007483005,0.020763924345374107,1.0012220627686474e-05,87.93852233886719,9.999999747378752e-06,0.0014983369037508965,9048.50390625,-8511.474609375,12422.5849609375,-43.248294830322266
28.0,158.005615234375,9981.5595703125,10101.9482421875,-10101.9482421875,14201.439453125,-45.34345245361328,1.0,9.8152938221574e-08,0.3351919949054718,8.0,0.993121325969696,0.141433447599411,88.24623107910156,0.003753091441467404,0.0260922946035862,9.959092494682409e-06,133.5896759033203,9.999999747378752e-06,0.0013582099927589295,9981.5595703125,-10101.9482421875,14201.439453125,-45.34345245361328
29.0,125.5580368041992,10893.2421875,11579.326171875,-11579.326171875,15897.9091796875,-46.74868774414063,1.0,1.0074147382965749e-07,0.3485984802246094,8.0,0.9856065511703491,0.1577761173248291,-148.14794921875,0.005269822664558888,0.033026073127985,9.924331607180648e-06,-101.39926147460936,9.999999747378752e-06,0.001488153007812798,10893.2421875,-11579.326171875,15897.9091796875,-46.74868774414063
30.0,99.73403930664062,11912.0478515625,13137.0849609375,-13137.0849609375,17733.580078125,-47.79983901977539,1.0,9.604006834251776e-08,0.37619322538375854,8.0,0.9669369459152221,0.17397667467594147,28.056724548339844,0.007080981507897377,0.0401531308889389,9.8105774668511e-06,75.8565673828125,9.999999747378752e-06,0.0016323517775163054,11912.0478515625,-13137.0849609375,17733.580078125,-47.79983901977539
31.0,79.44915008544922,13089.3212890625,14454.83203125,-14454.83203125,19500.578125,-47.838134765625,1.0,1.0548203732696493e-07,0.42175632715225214,8.0,0.9900305867195128,0.1996631473302841,-142.88502502441406,0.010787812992930412,0.0526701882481575,1.0238833056064323e-05,-95.0468978881836,9.999999747378752e-06,0.0013797869905829427,13089.3212890625,-14454.83203125,19500.578125,-47.838134765625
32.0,62.919464111328125,14670.875,16900.28125,-16900.28125,22379.76953125,-49.03925323486328,1.0,1.0224754021237459e-07,0.4155903458595276,8.0,0.9909716844558717,0.2240104228258133,-142.4771270751953,0.014075064100325108,0.061276741325855255,1.0009505786001682e-05,-93.43788146972656,9.999999747378752e-06,0.0014557988615706563,14670.875,-16900.28125,22379.76953125,-49.03925323486328
33.0,49.86701965332031,16496.3828125,19717.1328125,-19717.1328125,25707.8984375,-50.082386016845696,1.0,1.1167350066898508e-07,0.4115018248558045,8.0,0.9918645620346067,0.2573105990886688,-143.7012481689453,0.01871725171804428,0.07181409746408463,1.0009010111389216e-05,-93.61887359619139,9.999999747378752e-06,0.0013858390739187598,16496.3828125,-19717.1328125,25707.8984375,-50.082386016845696
34.0,39.72457504272461,18581.318359375,22910.947265625,-22910.947265625,29498.76171875,-50.957130432128906,1.0,1.0897473146087577e-07,0.40449175238609314,8.0,0.9924538135528563,0.2951628565788269,-143.57936096191406,0.024622783064842224,0.08237764984369278,1.0005940566770732e-05,-92.62223052978516,9.999999747378752e-06,0.0015607207315042615,18581.318359375,-22910.947265625,29498.76171875,-50.957130432128906
35.0,31.672296524047848,21057.0,26666.380859375,-26666.380859375,33977.83203125,-51.70375823974609,1.0,1.1421597889693656e-07,0.39053946733474726,8.0,0.9931278824806211,0.34000909328460693,-143.54669189453125,0.031960755586624146,0.092843197286129,1.0006791853811592e-05,-91.84292602539062,9.999999747378752e-06,0.0017990183550864458,21057.0,-26666.380859375,33977.83203125,-51.70375823974609
36.0,25.201612472534176,23943.208984375,30706.9140625,-30706.9140625,38938.30859375,-52.055267333984375,1.0,1.1456596382686257e-07,0.3802866935729981,8.0,0.9934555292129517,0.3895115852355957,-143.26974487304688,0.04109236598014832,0.10418429970741272,1.0003299394156784e-05,-91.2144775390625,9.999999747378752e-06,0.001944279647432268,23943.208984375,-30706.9140625,38938.30859375,-52.055267333984375
37.0,20.03205108642578,27287.51953125,35536.28125,-35536.28125,44804.41796875,-52.480144500732415,1.0,1.1688282341992817e-07,0.35612937808036804,8.0,0.9943039417266845,0.44842684268951416,-143.1923828125,0.051198214292526245,0.1127677485346794,1.00085399026284e-05,-90.71223449707033,9.999999747378752e-06,0.001829343731515109,27287.51953125,-35536.28125,44804.41796875,-52.480144500732415
38.0,15.782828330993652,31317.3046875,41103.140625,-41103.140625,51674.3828125,-52.695499420166016,1.0,1.2194685439226305e-07,0.3219304978847504,8.0,0.9946945905685424,0.5169468522071838,-142.99488830566406,0.06180968508124352,0.11811204999685287,1.000392876449041e-05,-90.29939270019533,9.999999747378752e-06,0.0015920506557449698,31317.3046875,-41103.140625,51674.3828125,-52.695499420166016
39.0,12.600806236267088,35514.46484375,46387.71875,-46387.71875,58421.72265625,-52.562313079833984,1.0,1.1910825747918353e-07,0.2856801450252533,8.0,0.9953348040580748,0.5845932960510254,-142.55014038085935,0.06934584677219391,0.11719459295272829,1.0006436241383199e-05,-89.98782348632812,9.999999747378752e-06,0.0016148315044119954,35514.46484375,-46387.71875,58421.72265625,-52.562313079833984
40.0,9.973403930664062,40152.984375,51395.421875,-51395.421875,65220.7890625,-52.00105285644531,1.0,1.0111507009469278e-07,0.24284544587135315,8.0,0.9960697293281555,0.652689516544342,-141.72560119628906,0.07244934886693953,0.10967251658439636,1.0007383934862446e-05,-89.72456359863281,9.999999747378752e-06,0.001338990405201912,40152.984375,-51395.421875,65220.7890625,-52.00105285644531
41.0,7.971938610076904,44629.49609375,55509.1796875,-55509.1796875,71225.421875,-51.200645446777344,1.0,9.730515415640184e-08,0.20278407633304596,8.0,0.9965910911560057,0.7126270532608032,-140.7175140380859,0.07266347855329514,0.10075146704912184,1.0005233889387455e-05,-89.5168685913086,9.999999747378752e-06,0.0011695760767906904,44629.49609375,-55509.1796875,71225.421875,-51.200645446777344
42.0,6.275100231170654,49289.1953125,59196.14453125,-59196.14453125,77029.921875,-50.21781539916992,1.0,9.088349628427747e-08,0.16820281744003296,8.0,0.9971851110458374,0.7707583308219909,-139.5589599609375,0.07429853081703186,0.0952499583363533,1.0005960575654171e-05,-89.34114837646483,9.999999747378752e-06,0.0009562963969074189,49289.1953125,-59196.14453125,77029.921875,-50.21781539916992
43.0,5.013369083404541,53515.82421875,62283.80859375,-62283.80859375,82117.0859375,-49.32999420166016,1.0,9.65481632420051e-08,0.14419446885585785,8.0,0.9976584911346436,0.8215607404708862,-138.53387451171875,0.07768899947404861,0.09344031661748886,1.0004747309722006e-05,-89.2038803100586,9.999999747378752e-06,0.0008738995529711246,53515.82421875,-62283.80859375,82117.0859375,-49.32999420166016
44.0,3.985969305038452,57691.71484375,65245.09765625,-65245.09765625,87093.3828125,-48.515899658203125,1.0,1.0866249056107337e-07,0.13140812516212463,8.0,0.9982457756996154,0.8714464902877807,-137.61378479003906,0.08372671157121657,0.09493960440158847,1.0005886906583328e-05,-89.09786987304686,9.999999747378752e-06,0.0007913366425782442,57691.71484375,-65245.09765625,87093.3828125,-48.515899658203125
45.0,3.1758129596710205,61724.88671875,68197.625,-68197.625,91983.03125,-47.85211944580078,1.0,1.1102024188858195e-07,0.12452000379562377,8.0,0.9986766576766968,0.9202273488044738,-136.8463134765625,0.0906565859913826,0.0973508805036545,1.0004316209233364e-05,-88.99419403076173,9.999999747378752e-06,0.0007680119597353041,61724.88671875,-68197.625,91983.03125,-47.85211944580078
46.0,2.516103029251098,64969.09765625,71669.375,-71669.375,96734.0859375,-47.80733871459961,1.0,1.0395010718866617e-07,0.11977831274271011,8.0,0.9677038788795472,0.9373399019241331,179.32040405273435,0.04135500639677048,0.04359248653054237,9.689862054074185e-06,-132.8722686767578,9.999999747378752e-06,0.00025308289332315326,64969.09765625,-71669.375,96734.0859375,-47.80733871459961
47.0,1.9955300092697144,68001.4453125,73189.4140625,-73189.4140625,99904.390625,-47.104351043701165,1.0,9.707155612659336e-08,0.11349989473819733,8.0,0.9865233302116394,1.0184727907180786,-170.06619262695312,0.06217893213033676,0.06032899022102356,1.0194475180469452e-05,-122.9618453979492,9.999999747378752e-06,0.0003170706331729889,68001.4453125,-73189.4140625,99904.390625,-47.104351043701165
