# point,freq,zreal,reflected_zimag,zimag,zmod,zphz,zsig,Idc,Vdc,ie_range,gain,vmod,vphz,vsig,vthd,imod,iphz,isig,ithd,zreal_drift,zimag_drift,zmod_drift,zphz_drift
0.0,100019.53125,4057.2387695312495,100.13211822509764,-100.13211822509764,4058.4741210937505,-1.41376531124115,1.0,1.533868072556288e-07,0.13920365273952484,8.0,0.21382765471935272,0.008678140118718147,39.21443939208984,0.00039997359272092575,0.04173484444618225,2.1382766135502607e-06,40.628204345703125,9.999999747378752e-06,0.02894635312259197,4057.2387695312495,-100.13211822509764,4058.4741210937505,-1.41376531124115
1.0,79511.71875,4093.4008789062495,170.6531219482422,-170.6531219482422,4096.95654296875,-2.38726806640625,1.0,1.947121006651287e-07,0.19283029437065125,8.0,0.1989721655845642,0.0381232425570488,3.3011419773101807,0.0015210959827527404,0.03738466650247574,9.305258572567254e-06,5.688409805297852,9.999999747378752e-06,0.03779266774654389,4093.4008789062495,-170.6531219482422,4096.95654296875,-2.38726806640625
2.0,63105.46875,4142.0224609375,236.0884246826172,-236.0884246826172,4148.7451171875,-3.262234926223755,1.0,2.112049060087884e-07,0.22849550843238833,8.0,0.2353018224239349,0.04906250536441802,-84.6301498413086,0.0023915721103549004,0.0465773269534111,1.1825865840364712e-05,-81.36791229248048,9.999999747378752e-06,0.04861888289451599,4142.0224609375,-236.0884246826172,4148.7451171875,-3.262234926223755
3.0,50214.84375,4198.94189453125,300.6081237792969,-300.6081237792969,4209.68896484375,-4.094898700714111,1.0,1.895411827490534e-07,0.255979597568512,8.0,0.32181385159492487,0.05757440254092216,124.27384185791016,0.0022236239165067673,0.03729457035660744,1.3676641174242832e-05,128.36874389648435,9.999999747378752e-06,0.038932111114263535,4198.94189453125,-300.6081237792969,4209.68896484375,-4.094898700714111
4.0,39902.34375,4291.27783203125,341.16311645507807,-341.16311645507807,4304.81787109375,-4.545540809631348,1.0,1.7023671716742686e-07,0.2520270049571991,8.0,0.44414544105529785,0.059412151575088494,-152.8456878662109,0.0007460982888005674,0.009972136467695234,1.3801315617456567e-05,-148.30014038085935,9.999999747378752e-06,0.01151528302580118,4291.27783203125,-341.16311645507807,4304.81787109375,-4.545540809631348
5.0,31699.21875,4315.38623046875,426.20025634765625,-426.20025634765625,4336.38134765625,-5.640408039093018,1.0,1.5698110189532602e-07,0.2531074285507202,8.0,0.5410021543502808,0.052820343524217606,123.53578948974608,0.000489226367790252,0.003693289123475552,1.2180742487544192e-05,129.1761932373047,9.999999747378752e-06,0.00950607005506754,4315.38623046875,-426.20025634765625,4336.38134765625,-5.640408039093018
6.0,25136.71875,4367.88623046875,493.64065551757807,-493.64065551757807,4395.6923828125,-6.447975158691406,1.0,1.6125737545280574e-07,0.2629231810569763,8.0,0.6214552521705627,0.05049381405115128,-62.97282791137695,0.0005777679616585374,0.0012256744084879756,1.1487112715258265e-05,-56.52486038208008,9.999999747378752e-06,0.0022615932393819094,4367.88623046875,-493.64065551757807,4395.6923828125,-6.447975158691406
7.0,19980.46875,4441.0634765625,564.3060913085938,-564.3060913085938,4476.77197265625,-7.241511821746825,1.0,1.4802647285705461e-07,0.26598864793777466,8.0,0.6950417160987854,0.05006866157054901,-55.710914611816406,0.000669631059281528,0.01266735792160034,1.118409909395268e-05,-48.469402313232415,9.999999747378752e-06,0.018615690991282463,4441.0634765625,-564.3060913085938,4476.77197265625,-7.241511821746825
8.0,15878.90625,4506.65771484375,644.7025756835938,-644.7025756835938,4552.53857421875,-8.141244888305664,1.0,1.3373927743032255e-07,0.27131709456443787,8.0,0.76114821434021,0.049855370074510574,88.53321838378906,0.0005730288103222847,0.0014946621377021074,1.0951115655188914e-05,96.67446899414062,9.999999747378752e-06,0.0022379709407687187,4506.65771484375,-644.7025756835938,4552.53857421875,-8.141244888305664
9.0,12597.65625,4544.919921875,691.1551513671875,-691.1551513671875,4597.17236328125,-8.646836280822756,1.0,1.3767149198429254e-07,0.2811669111251831,8.0,0.8207793831825256,0.04957331717014313,-33.736881256103516,0.0006318008527159691,0.001697633066214621,1.0783436664496548e-05,-25.09004211425781,9.999999747378752e-06,0.003474540077149868,4544.919921875,-691.1551513671875,4597.17236328125,-8.646836280822756
10.0,10019.53125,4672.64794921875,827.0737304687501,-827.0737304687501,4745.28076171875,-10.037572860717772,1.0,1.2329604714977904e-07,0.2885632514953613,8.0,0.8586635589599609,0.049643054604530334,-162.54005432128906,0.0006020677974447608,0.011195288971066473,1.0461563761055004e-05,-152.5024871826172,9.999999747378752e-06,0.019939370453357697,4672.64794921875,-827.0737304687501,4745.28076171875,-10.037572860717772
11.0,7928.24072265625,4770.9306640625,941.1148071289062,-941.1148071289062,4862.8671875,-11.158912658691406,1.0,1.1383414033616646e-07,0.29696327447891235,8.0,0.891608476638794,0.05049443989992142,128.72366333007812,0.0005700304755009711,0.004557144828140736,1.0383676453784572e-05,139.88258361816406,9.999999747378752e-06,0.016165299341082573,4770.9306640625,-941.1148071289062,4862.8671875,-11.158912658691406
12.0,6307.87060546875,4876.97900390625,1066.088134765625,-1066.088134765625,4992.140625,-12.330666542053223,1.0,1.205964963446604e-07,0.30096796154975886,8.0,0.9170708656311036,0.05134705081582069,62.81601333618164,0.0005777679616585374,0.0011117503745481372,1.0285578355251344e-05,75.14668273925781,9.999999747378752e-06,0.002237863140180707,4876.97900390625,-1066.088134765625,4992.140625,-12.330666542053223
13.0,5034.72216796875,4994.51611328125,1219.10302734375,-1219.10302734375,5141.14794921875,-13.717012405395508,1.0,1.06711794956027e-07,0.3046146333217621,8.0,0.9058627486228944,0.050783153623342514,50.36055755615234,0.0005560299614444375,0.0005519246333278716,9.877783668343907e-06,64.07756805419922,9.999999747378752e-06,0.0004205345176160336,4994.51611328125,-1219.10302734375,5141.14794921875,-13.717012405395508
14.0,3993.0556640625,5127.10986328125,1389.25537109375,-1389.25537109375,5311.99462890625,-15.160972595214844,1.0,9.624240959738016e-08,0.30595117807388306,8.0,0.9358080625534057,0.054875943809747696,73.61090087890625,0.0003987796371802688,0.0005750675918534398,1.0330571967642754e-05,88.7718734741211,9.999999747378752e-06,0.0006453880923800169,5127.10986328125,-1389.25537109375,5311.99462890625,-15.160972595214844
15.0,3144.054931640625,5278.9736328125,1593.104248046875,-1593.104248046875,5514.1220703125,-16.792919158935547,1.0,9.681959056706546e-08,0.31146210432052607,8.0,0.953570246696472,0.05618783459067345,104.50326538085936,0.00044256169348955154,0.0070002730935812,1.0189805834670553e-05,121.29618072509764,9.999999747378752e-06,0.0006402386934496462,5278.9736328125,-1593.104248046875,5514.1220703125,-16.792919158935547
16.0,2519.53125,5439.78515625,1820.1396484375,-1820.1396484375,5736.2158203125,-18.5001220703125,1.0,9.193543348828824e-08,0.3104866147041321,8.0,0.9647940993309022,0.05803732946515083,32.295364379882805,0.0005179004510864617,0.008340058848261833,1.0117703823198099e-05,50.79549026489258,9.999999747378752e-06,0.0009375420631840824,5439.78515625,-1820.1396484375,5736.2158203125,-18.5001220703125
17.0,2000.76220703125,5630.78662109375,2090.451416015625,-2090.451416015625,6006.30859375,-20.367639541625977,1.0,8.620354918775774e-08,0.31096819043159485,8.0,0.9718277454376221,0.06050096824765205,53.34578323364258,0.0003243029350414872,0.0013963918900117278,1.0072903023683466e-05,73.71342468261719,9.999999747378752e-06,0.000997517490759492,5630.78662109375,-2090.451416015625,6006.30859375,-20.367639541625977
18.0,1580.6685791015625,5851.66748046875,2416.005859375,-2416.005859375,6330.80517578125,-22.43449592590332,1.0,8.100639803387821e-08,0.311331182718277,8.0,0.9785904884338379,0.06374859809875488,107.91669464111328,8.785670797806233e-05,0.0017961097182705998,1.0069587915495504e-05,130.3511962890625,9.999999747378752e-06,0.0011425409466028211,5851.66748046875,-2416.005859375,6330.80517578125,-22.43449592590332
19.0,1253.6336669921875,6101.6083984375,2785.815673828125,-2785.815673828125,6707.48779296875,-24.5400505065918,1.0,7.801321544320672e-08,0.31377023458480835,8.0,0.9815768003463744,0.06727956980466843,140.12477111816406,0.00018407944298814985,0.0022418380249291654,1.0030516023107339e-05,164.66482543945312,9.999999747378752e-06,0.0011216616258025167,6101.6083984375,-2785.815673828125,6707.48779296875,-24.5400505065918
20.0,1000.7022705078124,6383.830078125,3221.600830078125,-3221.600830078125,7150.6640625,-26.777801513671875,1.0,7.914783850537788e-08,0.30986636877059937,8.0,0.98550683259964,0.07179294526576996,20.02836799621582,0.0005239078309386969,0.0031340597197413445,1.00400384326349e-05,46.806175231933594,9.999999747378752e-06,0.0030395060312002897,6383.830078125,-3221.600830078125,7150.6640625,-26.777801513671875
21.0,790.028076171875,6705.80615234375,3710.886474609375,-3710.886474609375,7664.10546875,-28.95944595336914,1.0,8.121490679968701e-08,0.318888783454895,8.0,0.9884514808654784,0.07687005400657654,-142.48175048828125,0.0005029829917475581,0.0043443036265671245,1.0029879376816096e-05,-113.52230834960936,9.999999747378752e-06,0.0012464276514947414,6705.80615234375,-3710.886474609375,7664.10546875,-28.95944595336914
22.0,628.8109741210938,7072.302734375,4279.90869140625,-4279.90869140625,8266.50390625,-31.18085289001465,1.0,8.31125532840815e-08,0.32050156593322754,8.0,0.9895185828208924,0.08275427669286728,71.70419311523438,0.0006724955164827406,0.0057233585976064205,1.0010795449488796e-05,102.88504028320312,9.999999747378752e-06,0.0014596765395253897,7072.302734375,-4279.90869140625,8266.50390625,-31.18085289001465
23.0,502.2321472167969,7097.615234375,5132.67919921875,-5132.67919921875,8759.0263671875,-35.872779846191406,1.0,8.164838050106482e-08,0.3291425406932831,8.0,0.9621414542198179,0.08516688644886015,142.9084930419922,0.0006341079715639353,0.00486052455380559,9.72332873061532e-06,178.78126525878906,9.999999747378752e-06,0.0004147655854467303,7097.615234375,-5132.67919921875,8759.0263671875,-35.872779846191406
24.0,400.1524353027344,7630.61669921875,5875.79150390625,-5875.79150390625,9630.744140625,-37.597293853759766,1.0,8.357876879472313e-08,0.3338429629802704,8.0,0.9827209711074829,0.09836740046739578,97.52515411376952,0.0009596155141480269,0.008065375499427319,1.0213892892352304e-05,135.12245178222656,9.999999747378752e-06,0.000703858386259526,7630.61669921875,-5875.79150390625,9630.744140625,-37.597293853759766
25.0,315.5048217773437,8246.8125,6786.93701171875,-6786.93701171875,10680.4697265625,-39.45359420776367,1.0,9.553814095397684e-08,0.3378574848175049,8.0,0.992310643196106,0.10784691572189332,-174.08270263671875,0.0013412522384896874,0.011768294498324394,1.0097583071910776e-05,-134.6291046142578,9.999999747378752e-06,0.0008203294710256158,8246.8125,-6786.93701171875,10680.4697265625,-39.45359420776367
26.0,252.01612854003903,8922.486328125,7863.28955078125,-7863.28955078125,11892.9423828125,-41.38937759399414,1.0,9.56553236619584e-08,0.33155104517936707,8.0,0.9945024251937865,0.11919212341308592,69.381103515625,0.001956951105967164,0.01608658581972122,1.0022087735706007e-05,110.77047729492188,9.999999747378752e-06,0.0010189402382820845,8922.486328125,-7863.28955078125,11892.9423828125,-41.38937759399414
27.0,200.3205108642578,9726.623046875,9183.0009765625,-9183.0009765625,13376.6474609375,-43.35329055786133,1.0,9.384915955479299e-08,0.3225092589855194,8.0,0.9945834279060365,0.13377736508846283,45.47719573974609,0.0028456682339310646,0.020951859652996063,1.000081465463154e-05,88.83048248291014,9.999999747378752e-06,0.0014101570704951882,9726.623046875,-9183.0009765625,13376.6474609375,-43.35329055786133
28.0,158.005615234375,10604.1259765625,10552.60546875,-10552.60546875,14960.1123046875,-44.86047363281249,1.0,9.487971652788474e-08,0.3366595804691314,8.0,0.9920085668563842,0.14921382069587708,89.77814483642578,0.0041112350299954414,0.02709674835205078,9.974110980692784e-06,134.63861083984375,9.999999747378752e-06,0.0014471972826868296,10604.1259765625,-10552.60546875,14960.1123046875,-44.86047363281249
29.0,125.5580368041992,11654.228515625,12260.8505859375,-12260.8505859375,16915.955078125,-46.45303726196289,1.0,9.449466631394898e-08,0.337816059589386,8.0,0.9857283234596252,0.1680886149406433,-147.151611328125,0.00568646052852273,0.033444590866565704,9.936691640177742e-06,-100.69859313964844,9.999999747378752e-06,0.0015726278070360422,11654.228515625,-12260.8505859375,16915.955078125,-46.45303726196289
30.0,99.73403930664062,12793.2861328125,14070.26953125,-14070.26953125,19016.8515625,-47.72155761718751,1.0,9.583150983871745e-08,0.35552144050598145,8.0,0.966049075126648,0.18637195229530332,28.598676681518555,0.0076300338841974735,0.04039714112877846,9.800358384381981e-06,76.32023620605469,9.999999747378752e-06,0.0016191717004403472,12793.2861328125,-14070.26953125,19016.8515625,-47.72155761718751
31.0,79.44915008544922,14084.2587890625,15516.0673828125,-15516.0673828125,20955.064453125,-47.769317626953125,1.0,1.0032592712150291e-07,0.39975836873054493,8.0,0.9894188642501832,0.2146198898553848,-142.84030151367188,0.011640310287475584,0.05286739394068717,1.0241910786135122e-05,-95.07097625732419,9.999999747378752e-06,0.0012749782763421535,14084.2587890625,-15516.0673828125,20955.064453125,-47.769317626953125
32.0,62.919464111328125,15762.1484375,18190.3828125,-18190.3828125,24069.38671875,-49.09074401855469,1.0,1.002274387928992e-07,0.390595257282257,8.0,0.9903635978698729,0.24092368781566617,-142.57264709472656,0.015228199772536755,0.06162949651479721,1.0009548532252664e-05,-93.48189544677734,9.999999747378752e-06,0.0015502382302656768,15762.1484375,-18190.3828125,24069.38671875,-49.09074401855469
33.0,49.86701965332031,17791.556640625,21227.552734375,-21227.552734375,27697.4453125,-50.032447814941406,1.0,1.0965307239985123e-07,0.38255631923675537,8.0,0.991320550441742,0.2772420942783356,-143.66265869140625,0.020315766334533688,0.07235136628150941,1.0009662219090387e-05,-93.63021850585936,9.999999747378752e-06,0.0017972780624404547,17791.556640625,-21227.552734375,27697.4453125,-50.032447814941406
34.0,39.72457504272461,20085.966796875,24649.83203125,-24649.83203125,31797.173828125,-50.825061798095696,1.0,1.0723371701715224e-07,0.37318888306617737,8.0,0.9919601678848265,0.3181769251823425,-143.47950744628906,0.026733778417110443,0.08297162503004074,1.000645261228783e-05,-92.65444183349608,9.999999747378752e-06,0.0016476453747600317,20085.966796875,-24649.83203125,31797.173828125,-50.825061798095696
35.0,31.672296524047848,22765.509765625,28653.689453125,-28653.689453125,36596.48046875,-51.53267288208008,1.0,1.1245791853298215e-07,0.3574313819408417,8.0,0.9925130009651184,0.36616876721382147,-143.39764404296875,0.03463134169578552,0.09341812133789062,1.0005573130911216e-05,-91.86496734619139,9.999999747378752e-06,0.0017666565254330635,22765.509765625,-28653.689453125,36596.48046875,-51.53267288208008
36.0,25.201612472534176,25842.861328125,32877.875,-32877.875,41818.75390625,-51.831737518310554,1.0,1.2549544692319614e-07,0.34777677059173584,8.0,0.9931925535202025,0.41847383975982666,-143.0808868408203,0.04445329308509827,0.10490964353084564,1.0006846423493698e-05,-91.24915313720705,9.999999747378752e-06,0.0018362661357969043,25842.861328125,-32877.875,41818.75390625,-51.831737518310554
37.0,20.03205108642578,29395.9765625,37792.703125,-37792.703125,47879.13671875,-52.12345504760742,1.0,1.2446200514659722e-07,0.3266543447971344,8.0,0.9938648343086242,0.47911548614501953,-142.8611602783203,0.05516783148050308,0.1137336567044258,1.0006769116444048e-05,-90.73771667480467,9.999999747378752e-06,0.0017901306273415685,29395.9765625,-37792.703125,47879.13671875,-52.12345504760742
38.0,15.782828330993652,33668.21484375,43429.171875,-43429.171875,54951.265625,-52.21557235717773,1.0,1.2586711761741753e-07,0.2930123209953308,8.0,0.9944315552711488,0.5498260259628296,-142.53016662597656,0.06588122248649597,0.1183723136782646,1.0005702279158868e-05,-90.31458282470705,9.999999747378752e-06,0.001726834918372333,33668.21484375,-43429.171875,54951.265625,-52.21557235717773
39.0,12.600806236267088,38116.55078125,48724.75390625,-48724.75390625,61862.53515625,-51.96453094482422,1.0,1.1792761966944453e-07,0.2541065812110901,8.0,0.9950196743011473,0.6189912557601929,-141.9612274169922,0.07221380621194838,0.11526260524988174,1.000591419142438e-05,-89.99668121337889,9.999999747378752e-06,0.0015885928878560662,38116.55078125,-48724.75390625,61862.53515625,-51.96453094482422
40.0,9.973403930664062,42832.9453125,53409.7421875,-53409.7421875,68463.578125,-51.27147674560546,1.0,1.1310110892281955e-07,0.2167503088712692,8.0,0.9958396553993224,0.685200035572052,-141.0055694580078,0.07481256127357483,0.1078771874308586,1.0008240678871516e-05,-89.73409271240233,9.999999747378752e-06,0.0014330752892419696,42832.9453125,-53409.7421875,68463.578125,-51.27147674560546
41.0,7.971938610076904,47359.86328125,57257.765625,-57257.765625,74306.1796875,-50.404682159423835,1.0,1.0977910136489301e-07,0.1805259734392166,8.0,0.9965391755104066,0.7435837984085083,-139.9346466064453,0.07498108595609665,0.09963738173246384,1.0007024684455244e-05,-89.52995300292967,9.999999747378752e-06,0.0012000268325209615,47359.86328125,-57257.765625,74306.1796875,-50.404682159423835
42.0,6.275100231170654,52038.83984375,60761.6640625,-60761.6640625,80000.125,-49.4218635559082,1.0,1.048571007800092e-07,0.14950484037399292,8.0,0.9972102046012878,0.8005399703979491,-138.77316284179688,0.0770280584692955,0.09507633745670319,1.0006733646150678e-05,-89.35129547119139,9.999999747378752e-06,0.0011297648306936023,52038.83984375,-60761.6640625,80000.125,-49.4218635559082
43.0,5.013369083404541,56247.609375,63800.06640625,-63800.06640625,85054.34375,-48.599857330322266,1.0,1.052300646620097e-07,0.12722125649452207,8.0,0.9977153539657592,0.8509743213653564,-137.81024169921875,0.0809696614742279,0.09402257949113843,1.0005065632867627e-05,-89.21038818359375,9.999999747378752e-06,0.0009853758383542301,56247.609375,-63800.06640625,85054.34375,-48.599857330322266
44.0,3.985969305038452,60397.25,66797.8046875,-66797.8046875,90054.2890625,-47.880741119384766,1.0,1.0912344805547038e-07,0.1140269711613655,8.0,0.9982178807258606,0.900996446609497,-136.98199462890625,0.08747267723083496,0.09593607485294342,1.000503652903717e-05,-89.10124969482422,9.999999747378752e-06,0.0009177810861729084,60397.25,-66797.8046875,90054.2890625,-47.880741119384766
45.0,3.1758129596710205,64297.8984375,69820.0703125,-69820.0703125,94916.078125,-47.35776519775391,1.0,1.1752486273053365e-07,0.11004788428544998,8.0,0.998601257801056,0.9495252966880798,-136.3590545654297,0.09531684219837187,0.099195696413517,1.0003840543504339e-05,-89.0012969970703,9.999999747378752e-06,0.0007918894989416003,64297.8984375,-69820.0703125,94916.078125,-47.35776519775391
46.0,2.516103029251098,67307.5,73498.4609375,-73498.4609375,99661.0390625,-47.51756286621094,1.0,1.0564949803892887e-07,0.10312560200691225,8.0,0.9677833318710328,0.9658539891242981,179.6151123046875,0.04185539111495017,0.04282002151012421,9.691389095678462e-06,-132.86732482910156,9.999999747378752e-06,0.0002764322853181511,67307.5,-73498.4609375,99661.0390625,-47.51756286621094
47.0,1.9955300092697144,69990.296875,75251.640625,-75251.640625,102768.921875,-47.074615478515625,1.0,9.490982222359888e-08,0.09463737905025482,8.0,0.9865314364433287,1.047597885131836,-170.04144287109375,0.0650453045964241,0.06135470792651176,1.0193722118856384e-05,-122.96683502197264,9.999999747378752e-06,0.0003346580488141626,69990.296875,-75251.640625,102768.921875,-47.074615478515625
