# point,freq,zreal,reflected_zimag,zimag,zmod,zphz,zsig,Idc,Vdc,ie_range,gain,vmod,vphz,vsig,vthd,imod,iphz,isig,ithd,zreal_drift,zimag_drift,zmod_drift,zphz_drift
0.0,100019.53125,4737.537109375,70.65287780761719,-70.65287780761719,4738.06396484375,-0.8544126749038696,1.0,5.8185666063081953e-08,-0.20593152940273285,8.0,0.19023713469505313,0.009013556875288486,31.919591903686523,0.00033581542083993554,0.034996144473552704,1.9023713093702095e-06,32.77400588989258,9.999999747378752e-06,0.08509202301502228,4737.537109375,-70.65287780761719,4738.06396484375,-0.8544126749038696
1.0,79511.71875,4796.39111328125,139.99972534179688,-139.99972534179688,4798.43408203125,-1.6719063520431519,1.0,1.421082203023616e-07,-0.1547484993934631,8.0,0.16150008141994476,0.040735870599746704,23.51013374328613,0.0020344676449894905,0.04535619169473648,8.489409083267674e-06,25.182041168212887,9.999999747378752e-06,0.042973492294549935,4796.39111328125,-139.99972534179688,4798.43408203125,-1.6719063520431519
2.0,63105.46875,4852.76708984375,197.90689086914065,-197.90689086914065,4856.80078125,-2.335358142852783,1.0,1.655678119050208e-07,-0.1138160303235054,8.0,0.17816559970378876,0.05357984080910683,127.026123046875,0.00317023741081357,0.05726184695959091,1.103191971196793e-05,129.3614959716797,9.999999747378752e-06,0.061468631029129035,4852.76708984375,-197.90689086914065,4856.80078125,-2.335358142852783
3.0,50214.84375,4894.2890625,256.48394775390625,-256.48394775390625,4901.0048828125,-2.999826431274414,1.0,1.426036817520071e-07,-0.09321692585945128,8.0,0.23757131397724152,0.0653514713048935,-176.67762756347656,0.003801825921982527,0.056951094418764114,1.3334298273548484e-05,-173.67779541015625,9.999999747378752e-06,0.05924297869205474,4894.2890625,-256.48394775390625,4901.0048828125,-2.999826431274414
4.0,39902.34375,4956.16943359375,307.1604919433594,-307.1604919433594,4965.6787109375,-3.54639196395874,1.0,1.1450499926013437e-07,-0.08738248795270918,8.0,0.3529140055179596,0.07376553118228912,154.31581115722656,0.0027487962506711483,0.036406029015779495,1.485507618781412e-05,157.86219787597656,9.999999747378752e-06,0.03810973092913628,4956.16943359375,-307.1604919433594,4965.6787109375,-3.54639196395874
5.0,31699.21875,5006.72998046875,376.6634216308594,-376.6634216308594,5020.87841796875,-4.302338123321533,1.0,1.014151749245684e-07,-0.08892187476158142,8.0,0.48988723754882807,0.0696958526968956,112.4278564453125,0.000680137425661087,0.006827151868492365,1.3881207451049704e-05,116.7302017211914,9.999999747378752e-06,0.0031998169142752886,5006.72998046875,-376.6634216308594,5020.87841796875,-4.302338123321533
6.0,25136.71875,5053.111328125,424.3016662597656,-424.3016662597656,5070.89404296875,-4.79977560043335,1.0,1.0062947808364697e-07,-0.09338039904832841,8.0,0.5825977325439453,0.06030553579330444,-40.32806396484375,0.0006399268168024719,0.001806171610951424,1.189248632726958e-05,-35.528289794921875,9.999999747378752e-06,0.0033809363376349206,5053.111328125,-424.3016662597656,5070.89404296875,-4.79977560043335
7.0,19980.46875,5121.07568359375,484.65765380859375,-484.65765380859375,5143.95849609375,-5.406359672546387,1.0,1.1082159545594549e-07,-0.09378868341445923,8.0,0.6625648736953735,0.05850015580654144,-7.814165115356444,0.0006065160850994289,0.009491929784417152,1.137259641836863e-05,-2.4078049659729004,9.999999747378752e-06,0.019811023026704788,5121.07568359375,-484.65765380859375,5143.95849609375,-5.406359672546387
8.0,15878.90625,5175.0771484375,547.0853271484375,-547.0853271484375,5203.91455078125,-6.034632205963135,1.0,1.0144468376438452e-07,-0.08919661492109297,8.0,0.7353459000587462,0.05775551125407218,74.28292083740233,0.00059904670342803,0.0011519098188728094,1.1098473805759568e-05,80.3175582885742,9.999999747378752e-06,0.0015883930027484892,5175.0771484375,-547.0853271484375,5203.91455078125,-6.034632205963135
9.0,12597.65625,5241.2197265625,567.5196533203125,-567.5196533203125,5271.85546875,-6.179913997650146,1.0,1.0621143076150474e-07,-0.08813651651144028,8.0,0.7974085807800293,0.057167962193489075,-8.573468208312988,0.0005837156786583364,0.0013507051626220343,1.0843992640729992e-05,-2.393554210662842,9.999999747378752e-06,0.0023516127839684486,5241.2197265625,-567.5196533203125,5271.85546875,-6.179913997650146
10.0,10019.53125,5312.1494140625,708.434814453125,-708.434814453125,5359.18017578125,-7.596214771270752,1.0,1.197128085550503e-07,-0.08786241710186003,8.0,0.8479120731353759,0.0569860115647316,-174.59771728515625,0.0006136579322628677,0.0090189091861248,1.0633345482347067e-05,-167.0015106201172,9.999999747378752e-06,0.021064056083559986,5312.1494140625,-708.434814453125,5359.18017578125,-7.596214771270752
11.0,7928.24072265625,5394.8583984375,810.0934448242188,-810.0934448242188,5455.34130859375,-8.539746284484863,1.0,1.0578750675449557e-07,-0.08463557809591293,8.0,0.8861287236213683,0.05701221153140068,143.66696166992188,0.0004769782535731792,0.002952353795990348,1.0450714398757555e-05,152.2067108154297,9.999999747378752e-06,0.013756662607192991,5394.8583984375,-810.0934448242188,5455.34130859375,-8.539746284484863
12.0,6307.87060546875,5481.39453125,923.3006591796877,-923.3006591796877,5558.6123046875,-9.561300277709961,1.0,1.2617175570994732e-07,-0.08196165412664413,8.0,0.9143919944763184,0.05735905468463898,59.9659538269043,0.0004541708331089466,0.0017010284354910254,1.0318952263332903e-05,69.52725219726562,9.999999747378752e-06,0.0023342345375567675,5481.39453125,-923.3006591796877,5558.6123046875,-9.561300277709961
13.0,5034.72216796875,5582.634765625,1060.5386962890625,-1060.5386962890625,5682.4775390625,-10.756362915039062,1.0,1.1647370001810486e-07,-0.07641506195068358,8.0,0.9051440358161926,0.056250065565109246,59.41318130493164,0.0004481635114643722,0.000467739620944485,9.898862117552198e-06,70.16954040527344,9.999999747378752e-06,0.0004526472184807062,5582.634765625,-1060.5386962890625,5682.4775390625,-10.756362915039062
14.0,3993.0556640625,5690.29541015625,1213.11767578125,-1213.11767578125,5818.17138671875,-12.034754753112791,1.0,1.152966149220447e-07,-0.07669714093208313,8.0,0.938388705253601,0.06031864881515503,64.52798461914062,0.00041994859930127854,0.0006651660078205168,1.0367286449763924e-05,76.56273651123047,9.999999747378752e-06,0.0005243345513008535,5690.29541015625,-1213.11767578125,5818.17138671875,-12.034754753112791
15.0,3144.054931640625,5813.79443359375,1399.911865234375,-1399.911865234375,5979.962890625,-13.53860092163086,1.0,1.207351090215525e-07,-0.07539079338312149,8.0,0.9566840529441832,0.060965511947870255,103.83413696289062,0.0003710898454301059,0.005828254856169224,1.0194965398113707e-05,117.3727340698242,9.999999747378752e-06,0.0007976919878274201,5813.79443359375,-1399.911865234375,5979.962890625,-13.53860092163086
16.0,2519.53125,5944.5810546875,1605.0565185546875,-1605.0565185546875,6157.455078125,-15.10975170135498,1.0,1.2406070482029466e-07,-0.07418306916952133,8.0,0.9670064449310303,0.06223892420530319,33.40483856201172,0.0004093654279131442,0.006339616142213345,1.0107897651323581e-05,48.514591217041016,9.999999747378752e-06,0.0008394606411457061,5944.5810546875,-1605.0565185546875,6157.455078125,-15.10975170135498
17.0,2000.76220703125,6098.4853515625,1858.8072509765625,-1858.8072509765625,6375.4755859375,-16.951126098632812,1.0,1.2341516253400187e-07,-0.07135260850191116,8.0,0.974770188331604,0.0642666220664978,59.60054397583008,0.00040539429755881434,0.0009061398450285196,1.0080286301672459e-05,76.55166625976561,9.999999747378752e-06,0.0008474366622976959,6098.4853515625,-1858.8072509765625,6375.4755859375,-16.951126098632812
18.0,1580.6685791015625,6276.6103515625,2159.7724609375,-2159.7724609375,6637.8046875,-18.988265991210938,1.0,1.2531594961728842e-07,-0.0669105127453804,8.0,0.9803389310836793,0.06675726175308228,110.86930847167967,0.0001852097338996828,0.0010037553729489444,1.0057128747575916e-05,129.85757446289062,9.999999747378752e-06,0.0011639362201094627,6276.6103515625,-2159.7724609375,6637.8046875,-18.988265991210938
19.0,1253.6336669921875,6479.46923828125,2519.210693359375,-2519.210693359375,6951.97412109375,-21.246026992797848,1.0,1.2947300831456232e-07,-0.06779111176729202,8.0,0.9836162328720093,0.06975214928388596,144.8051300048828,0.0002538446278776973,0.0011221537133678792,1.003343004413182e-05,166.05116271972656,9.999999747378752e-06,0.0010643282439559698,6479.46923828125,-2519.210693359375,6951.97412109375,-21.246026992797848
20.0,1000.7022705078124,6707.40771484375,2929.259521484375,-2929.259521484375,7319.14453125,-23.59185981750488,1.0,1.3325842473932425e-07,-0.06717244535684586,8.0,0.9876527786254883,0.07349181175231932,22.21574211120605,0.0004546671116258949,0.002009162213653326,1.0041037967312148e-05,45.80760192871094,9.999999747378752e-06,0.0021456850226968527,6707.40771484375,-2929.259521484375,7319.14453125,-23.59185981750488
21.0,790.028076171875,6988.12255859375,3425.30859375,-3425.30859375,7782.45458984375,-26.1123161315918,1.0,1.2845249841575426e-07,-0.05900488048791885,8.0,0.9899404644966124,0.07800480723381041,-139.845458984375,0.00032509994343854487,0.001747950562275946,1.0023162758443505e-05,-113.73314666748045,9.999999747378752e-06,0.0012851424980908632,6988.12255859375,-3425.30859375,7782.45458984375,-26.1123161315918
22.0,628.8109741210938,7306.58837890625,3995.6333007812495,-3995.6333007812495,8327.744140625,-28.672199249267575,1.0,1.2777442748301837e-07,-0.05669157952070236,8.0,0.9925295710563661,0.08349524438381195,72.63502502441406,0.0004959924262948334,0.002208269434049725,1.0026154086517636e-05,101.3072280883789,9.999999747378752e-06,0.0011956592788919806,7306.58837890625,-3995.6333007812495,8327.744140625,-28.672199249267575
23.0,502.2321472167969,7305.19580078125,4877.66259765625,-4877.66259765625,8783.9326171875,-33.73094940185547,1.0,1.300402345805196e-07,-0.0486455112695694,8.0,0.9621898531913757,0.08515425026416777,145.12136840820312,0.0005553289665840566,0.0019611346069723368,9.69431948760757e-06,178.85231018066406,9.999999747378752e-06,0.00040158643969334657,7305.19580078125,-4877.66259765625,8783.9326171875,-33.73094940185547
24.0,400.1524353027344,7806.01318359375,5622.54052734375,-5622.54052734375,9620.125,-35.76457595825195,1.0,1.274839291909302e-07,-0.043306447565555566,8.0,0.983547568321228,0.09833662211894989,99.76657104492189,0.0004798958252649754,0.003659918205812573,1.022197011479875e-05,135.53114318847656,9.999999747378752e-06,0.0004034519952256233,7806.01318359375,-5622.54052734375,9620.125,-35.76457595825195
25.0,315.5048217773437,8409.763671875,6536.03173828125,-6536.03173828125,10651.001953125,-37.85419464111328,1.0,1.260231101696263e-07,-0.041826032102108,8.0,0.9939873814582824,0.10764055699110033,-171.6162567138672,0.0006494973204098642,0.005286084953695536,1.0106144145538565e-05,-133.76206970214844,9.999999747378752e-06,0.000706996361259371,8409.763671875,-6536.03173828125,10651.001953125,-37.85419464111328
26.0,252.01612854003903,9051.5341796875,7514.90966796875,-7514.90966796875,11764.529296875,-39.700679779052734,1.0,1.2101492075089482e-07,-0.03608480840921401,8.0,0.9969642162322998,0.11799762398004532,70.98114776611328,0.001012881170026958,0.007951810956001282,1.0029948498413432e-05,110.68182373046876,9.999999747378752e-06,0.0008581823203712701,9051.5341796875,-7514.90966796875,11764.529296875,-39.700679779052734
27.0,200.3205108642578,9845.2421875,8754.8271484375,-8754.8271484375,13174.81640625,-41.644916534423835,1.0,1.181786544179886e-07,-0.04813802987337112,8.0,0.9955320954322816,0.13155891001224515,47.51403808593751,0.001310409978032112,0.009825957007706164,9.98563518805895e-06,89.15895080566406,9.999999747378752e-06,0.001095177954994142,9845.2421875,-8754.8271484375,13174.81640625,-41.644916534423835
28.0,158.005615234375,10754.80859375,10082.1884765625,-10082.1884765625,14741.65625,-43.15113067626953,1.0,1.1680261025048821e-07,-0.0393906868994236,8.0,0.9936194419860842,0.14713335037231445,91.40613555908205,0.00200300756841898,0.013347281143069267,9.980787581298499e-06,134.5572509765625,9.999999747378752e-06,0.001167617621831596,10754.80859375,-10082.1884765625,14741.65625,-43.15113067626953
29.0,125.5580368041992,11858.1220703125,11825.427734375,-11825.427734375,16746.814453125,-44.92090606689453,1.0,1.1250556042341486e-07,-0.06798992305994034,8.0,0.9852660298347472,0.16606025397777557,-145.19073486328125,0.0025068479590117927,0.014811569824814796,9.915929695125668e-06,-100.26982879638672,9.999999747378752e-06,0.001499289646744728,11858.1220703125,-11825.427734375,16746.814453125,-44.92090606689453
30.0,99.73403930664062,13160.984375,13749.2177734375,-13749.2177734375,19032.931640625,-46.252235412597656,1.0,1.1440935310247369e-07,-0.09057000279426575,8.0,0.9643134474754332,0.18628180027008057,30.386320114135746,0.003232420422136784,0.01661895401775837,9.787340786715504e-06,76.63856506347656,9.999999747378752e-06,0.0013883095234632492,13160.984375,-13749.2177734375,19032.931640625,-46.252235412597656
31.0,79.44915008544922,14520.89453125,14927.685546875,-14927.685546875,20825.27734375,-45.791412353515625,1.0,1.195295169509336e-07,-0.01911867782473564,8.0,0.9900978207588195,0.2138211578130722,-140.88446044921875,0.006884019821882248,0.03123304806649685,1.026738573273178e-05,-95.09304046630861,9.999999747378752e-06,0.0008589507197029888,14520.89453125,-14927.685546875,20825.27734375,-45.791412353515625
32.0,62.919464111328125,16083.869140625,17277.3046875,-17277.3046875,23605.001953125,-47.04877853393555,1.0,1.1468380023416103e-07,-0.029106035828590397,8.0,0.9908882379531859,0.2362384647130966,-140.51922607421875,0.007994293235242367,0.032957307994365685,1.0007983291870914e-05,-93.47045135498048,9.999999747378752e-06,0.0009902138262987137,16083.869140625,-17277.3046875,23605.001953125,-47.04877853393555
33.0,49.86701965332031,17893.978515625,19874.595703125,-19874.595703125,26743.111328125,-48.00189208984375,1.0,9.205272277768016e-08,-0.03721669316291809,8.0,0.9918025732040403,0.267677903175354,-141.63563537597656,0.010115059092640877,0.03726501390337944,1.000922748062294e-05,-93.63375091552734,9.999999747378752e-06,0.0009555735159665345,17893.978515625,-19874.595703125,26743.111328125,-48.00189208984375
34.0,39.72457504272461,19945.3125,22835.150390625,-22835.150390625,30319.29296875,-48.86448287963867,1.0,7.911108212965699e-08,-0.051757361739873886,8.0,0.9927245378494263,0.3034747838973999,-141.5166778564453,0.012518934905529022,0.04069189727306365,1.0009295692725573e-05,-92.6521987915039,9.999999747378752e-06,0.0009872122900560498,19945.3125,-22835.150390625,30319.29296875,-48.86448287963867
35.0,31.672296524047848,22263.9765625,26154.888671875,-26154.888671875,34347.67578125,-49.59438323974609,1.0,8.746259538838785e-08,-0.06576106697320938,8.0,0.9932990074157715,0.34367555379867554,-141.4571990966797,0.015356342308223248,0.04409973323345184,1.0005786862166133e-05,-91.8628158569336,9.999999747378752e-06,0.0009179592016153036,22263.9765625,-26154.888671875,34347.67578125,-49.59438323974609
36.0,25.201612472534176,25012.712890625,29771.888671875,-29771.888671875,38884.4609375,-49.964859008789055,1.0,8.51025419024154e-08,-0.0761185511946678,8.0,0.9939227104187012,0.38908874988555914,-141.2038421630859,0.019010091200470924,0.04821789637207985,1.0006278898799792e-05,-91.23897552490233,9.999999747378752e-06,0.0008554874220862984,25012.712890625,-29771.888671875,38884.4609375,-49.964859008789055
37.0,20.03205108642578,28116.49609375,33897.16015625,-33897.16015625,44040.37890625,-50.32549285888672,1.0,7.671452806334854e-08,-0.09655719995498656,8.0,0.9944526553153992,0.44063860177993774,-141.0391387939453,0.022170446813106537,0.04966348409652709,1.0005332114815246e-05,-90.71366119384764,9.999999747378752e-06,0.0009851653594523666,28116.49609375,-33897.16015625,44040.37890625,-50.32549285888672
38.0,15.782828330993652,31772.794921875,38390.48046875,-38390.48046875,49833.1171875,-50.38810729980469,1.0,6.389427653630264e-08,-0.11999615281820296,8.0,0.9952290058135985,0.4987202286720276,-140.69451904296875,0.024894095957279205,0.04928066208958626,1.000780684989877e-05,-90.30641174316406,9.999999747378752e-06,0.0007703817100264131,31772.794921875,-38390.48046875,49833.1171875,-50.38810729980469
39.0,12.600806236267088,35591.515625,42656.87109375,-42656.87109375,55555.05859375,-50.159473419189446,1.0,6.935344032399371e-08,-0.14364692568778992,8.0,0.9958443045616149,0.5558940768241881,-140.146240234375,0.026678353548049927,0.047394812107086175,1.0006182492361404e-05,-89.98676300048828,9.999999747378752e-06,0.0007544794934801757,35591.515625,-42656.87109375,55555.05859375,-50.159473419189446
40.0,9.973403930664062,39879.59375,46780.14453125,-46780.14453125,61471.6484375,-49.552749633789055,1.0,7.226786635783355e-08,-0.16459619998931885,8.0,0.9964243769645691,0.6150745153427124,-139.27723693847656,0.028856942430138588,0.04634393751621246,1.0005825060943607e-05,-89.72447967529295,9.999999747378752e-06,0.0007144491537474096,39879.59375,-46780.14453125,61471.6484375,-49.552749633789055
41.0,7.971938610076904,44139.234375,50432.61328125,-50432.61328125,67020.296875,-48.80719375610352,1.0,6.613083058937264e-08,-0.1871648281812668,8.0,0.9969915747642515,0.670584499835968,-138.3192901611328,0.032548725605010986,0.04795238003134728,1.0005692274717148e-05,-89.51209259033203,9.999999747378752e-06,0.0007294064853340387,44139.234375,-50432.61328125,67020.296875,-48.80719375610352
42.0,6.275100231170654,48728.421875,53896.3515625,-53896.3515625,72658.625,-47.88283920288086,1.0,6.826574150409215e-08,-0.20547991991043088,8.0,0.9976252317428589,0.7270479798316956,-137.21826171875,0.04083564132452011,0.05549560487270355,1.000635529635474e-05,-89.33541107177734,9.999999747378752e-06,0.0006377160898409784,48728.421875,-53896.3515625,72658.625,-47.88283920288086
43.0,5.013369083404541,52933.52734375,56873.4609375,-56873.4609375,77695.2265625,-47.05492401123047,1.0,7.072914343098091e-08,-0.22363644838333127,8.0,0.9980571866035459,0.7772886753082275,-136.25674438476562,0.05243266373872757,0.06665417551994324,1.0004329851653893e-05,-89.20181274414062,9.999999747378752e-06,0.0006761984550394118,52933.52734375,-56873.4609375,77695.2265625,-47.05492401123047
44.0,3.985969305038452,57191.14453125,59678.19921875,-59678.19921875,82657.8125,-46.21910858154297,1.0,7.876312224652793e-08,-0.2340223640203476,8.0,0.9983838200569152,0.8268487453460692,-135.30357360839844,0.06677914410829544,0.07980850338935853,1.0003273018810432e-05,-89.08447265625,9.999999747378752e-06,0.0007256538956426083,57191.14453125,-59678.19921875,82657.8125,-46.21910858154297
45.0,3.1758129596710205,61376.98828125,62290.33984375,-62290.33984375,87448.390625,-45.423152923583984,1.0,9.745285467488429e-08,-0.2386514246463776,8.0,0.9986803531646729,0.8747436404228209,-134.4154510498047,0.08280313014984131,0.09354157745838163,1.0002970157074742e-05,-88.99229431152342,9.999999747378752e-06,0.000721135817002505,61376.98828125,-62290.33984375,87448.390625,-45.423152923583984
46.0,2.516103029251098,64841.47265625,65215.51953125,-65215.51953125,91964.5625,-45.1647834777832,1.0,1.0008585604737165e-07,-0.23891215026378632,8.0,0.9678810834884644,0.8912837505340576,-178.03125,0.04591253399848937,0.05090219900012016,9.691600098449271e-06,-132.866455078125,9.999999747378752e-06,0.00028464687056839466,64841.47265625,-65215.51953125,91964.5625,-45.1647834777832
47.0,1.9955300092697144,67809.0625,66237.0234375,-66237.0234375,94791.4140625,-44.328086853027344,1.0,8.163474518596558e-08,-0.24618591368198395,8.0,0.9867729544639587,0.9664162993431091,-167.28773498535156,0.07717642933130264,0.07891961932182312,1.0195188224315643e-05,-122.9596481323242,9.999999747378752e-06,0.000383288599550724,67809.0625,-66237.0234375,94791.4140625,-44.328086853027344
