# point,freq,zreal,reflected_zimag,zimag,zmod,zphz,zsig,Idc,Vdc,ie_range,gain,vmod,vphz,vsig,vthd,imod,iphz,isig,ithd,zreal_drift,zimag_drift,zmod_drift,zphz_drift
0.0,250019.53125,4238.453125,-574.55224609375,574.55224609375,4277.21826171875,7.719791412353516,1.0,5.40735413778748e-07,0.49486222863197327,8.0,0.04143739491701126,0.016672292724251747,98.9862823486328,0.00318838213570416,0.1862859278917313,3.897928763763048e-06,91.26649475097656,9.999999747378752e-06,0.15713925659656525,4238.453125,574.55224609375,4277.21826171875,7.719791412353516
1.0,198691.40625,4203.8486328125,-365.03070068359375,365.03070068359375,4219.66748046875,4.962688446044922,1.0,5.261492788122268e-07,0.5474392771720886,8.0,0.04981653392314911,0.0197739377617836,18.199323654174805,0.003607003251090646,0.17584246397018433,4.6861368900863445e-06,13.236635208129883,9.999999747378752e-06,0.14659886062145233,4203.8486328125,365.03070068359375,4219.66748046875,4.962688446044922
2.0,157792.96875,4222.38427734375,-337.9421081542969,337.9421081542969,4235.88623046875,4.5759620666503915,1.0,4.862125706495135e-07,0.6084683537483215,8.0,0.060361430048942566,0.02405167371034622,96.07920074462889,0.003784864908084273,0.15116801857948303,5.678073193848832e-06,91.50324249267578,9.999999747378752e-06,0.1370597332715988,4222.38427734375,337.9421081542969,4235.88623046875,4.5759620666503915
3.0,125332.03125,4203.89453125,-234.0271759033203,234.0271759033203,4210.4033203125,3.1863179206848145,1.0,4.889399178864552e-07,0.6584495306015015,8.0,0.07414346188306808,0.029365545138716698,-85.28060913085938,0.004003831651061772,0.13164429366588593,6.974520147196017e-06,-88.46692657470702,9.066935149348865e-07,0.12593111395835876,4203.89453125,234.0271759033203,4210.4033203125,3.1863179206848145
4.0,99550.78125,4180.642578125,-145.26934814453125,145.26934814453125,4183.166015625,1.990118265151977,1.0,3.4725522368717066e-07,0.702298641204834,8.0,0.08969549089670181,0.03529531881213188,-44.623626708984375,0.0017458358779549599,0.04721563681960106,8.43746693135472e-06,-46.613746643066406,9.999999747378752e-06,0.04568083956837654,4180.642578125,145.26934814453125,4183.166015625,1.990118265151977
5.0,79160.15625,4189.6484375,-79.30176544189453,79.30176544189453,4190.39892578125,1.0843664407730103,1.0,3.0456564559244725e-07,0.7283112406730653,8.0,0.11304520815610884,0.04456039145588874,61.268718719482415,0.0028042821213603015,0.06074830517172813,1.0633925739966799e-05,60.184356689453125,9.999999747378752e-06,0.058331049978733056,4189.6484375,79.30176544189453,4190.39892578125,1.0843664407730103
6.0,62871.09375,4195.12353515625,-23.69513511657715,23.69513511657715,4195.1904296875,0.3236178457736969,1.0,2.8949085617568926e-07,0.7506660819053651,8.0,0.15088115632534027,0.05599309876561165,-37.30714797973633,0.004014966543763876,0.07047030329704285,1.3346974810701793e-05,-37.63076400756836,9.590035006112885e-07,0.07012150436639786,4195.12353515625,23.69513511657715,4195.1904296875,0.3236178457736969
7.0,49980.46875,4207.60498046875,26.65768051147461,-26.65768051147461,4207.689453125,-0.36299797892570496,1.0,2.3553559458378007e-07,0.7453259825706483,8.0,0.2387038618326187,0.06656840443611145,-156.87911987304688,0.0043821712024509915,0.06454785168170929,1.5820654880371876e-05,-156.51612854003906,1.082882135960972e-06,0.06755096465349197,4207.60498046875,-26.65768051147461,4207.689453125,-0.36299797892570496
8.0,39667.96875,4218.19384765625,75.41378021240233,-75.41378021240233,4218.8681640625,-1.024237275123596,1.0,1.8044448779619413e-07,0.7469016909599304,8.0,0.4047792553901672,0.0715409591794014,-70.63268280029297,0.002598096849396825,0.036496344953775406,1.695738137641456e-05,-69.60844421386719,9.999999747378752e-06,0.03780538216233253,4218.19384765625,-75.41378021240233,4218.8681640625,-1.024237275123596
9.0,31582.03125,4232.55810546875,122.63795471191406,-122.63795471191406,4234.33447265625,-1.6596752405166624,1.0,1.51052418573272e-07,0.7308228015899657,8.0,0.5597652196884155,0.05855618789792061,-11.120619773864746,0.0005217988509684801,0.0033790932502597566,1.382890059176134e-05,-9.460943222045898,9.999999747378752e-06,0.010048672556877136,4232.55810546875,-122.63795471191406,4234.33447265625,-1.6596752405166624
10.0,25019.53125,4253.54443359375,181.77772521972656,-181.77772521972656,4257.4267578125,-2.44707989692688,1.0,1.6155102855464065e-07,0.7370955944061278,8.0,0.6476045250892639,0.049255095422267914,-173.34620666503906,0.0007569146691821516,0.01398442406207323,1.1569217349460814e-05,-170.8991241455078,9.999999747378752e-06,0.012361343950033188,4253.54443359375,-181.77772521972656,4257.4267578125,-2.44707989692688
11.0,19863.28125,4272.40869140625,231.89366149902344,-231.89366149902344,4278.697265625,-3.106796264648437,1.0,1.5270856579263636e-07,0.7371073365211488,8.0,0.7269158363342285,0.048027034848928445,167.63629150390625,0.000779569731093943,0.0018666428513824935,1.1224687114008702e-05,170.74310302734375,9.999999747378752e-06,0.0019498084438964725,4272.40869140625,-231.89366149902344,4278.697265625,-3.106796264648437
12.0,15682.8701171875,4295.7275390625,291.27703857421875,-291.27703857421875,4305.59130859375,-3.879072427749634,1.0,1.3020176936606734e-07,0.737723469734192,8.0,0.7955637574195863,0.04712199792265892,100.4073257446289,0.0005742237553931773,0.000860777567140758,1.0944372661469968e-05,104.2863998413086,9.999999747378752e-06,0.0021613461431115866,4295.7275390625,-291.27703857421875,4305.59130859375,-3.879072427749634
13.0,12597.65625,4321.48388671875,351.001220703125,-351.001220703125,4335.71484375,-4.643506526947021,1.0,1.1810537614564966e-07,0.7446666955947877,8.0,0.8478478193283081,0.04620656371116638,3.278900146484375,0.0006889785290695727,0.0010444525396451354,1.0657195161911657e-05,7.922406673431396,9.999999747378752e-06,0.0013702920405194163,4321.48388671875,-351.001220703125,4335.71484375,-4.643506526947021
14.0,9895.8330078125,4362.84130859375,436.8245849609375,-436.8245849609375,4384.6552734375,-5.717620372772217,1.0,1.2893001155589445e-07,0.7476090788841246,8.0,0.8902674913406371,0.04604028910398483,3.446476697921753,0.0006979177123866975,0.012544994242489336,1.0500321877771055e-05,9.16409683227539,9.999999747378752e-06,0.003438466694206,4362.84130859375,-436.8245849609375,4384.6552734375,-5.717620372772217
15.0,7910.15625,4393.49609375,510.48187255859375,-510.48187255859375,4423.05322265625,-6.627499580383301,1.0,1.2551322470244486e-07,0.7525272369384765,8.0,0.9206307530403136,0.045739050954580314,14.039555549621582,0.000526348187122494,0.0017026151763275264,1.0341057532059494e-05,20.66705513000488,9.999999747378752e-06,0.0025153155438601966,4393.49609375,-510.48187255859375,4423.05322265625,-6.627499580383301
16.0,6307.87060546875,4436.97900390625,610.2476196289064,-610.2476196289064,4478.748046875,-7.8311424255371085,1.0,1.283596162693357e-07,0.7541255950927734,8.0,0.9429982900619507,0.04587562754750252,78.49346923828125,0.0005176702397875488,0.0010228062747046351,1.0242958524031565e-05,86.3246078491211,9.999999747378752e-06,0.002756979549303651,4436.97900390625,-610.2476196289064,4478.748046875,-7.8311424255371085
17.0,4973.3232421875,4499.734375,734.3955688476561,-734.3955688476561,4559.2705078125,-9.26944065093994,1.0,1.3323244729690487e-07,0.7587831616401672,8.0,0.9300920367240904,0.044968705624341965,-35.202667236328125,0.00047239792183972895,0.0008187848725356162,9.863136256171856e-06,-25.93322944641113,9.999999747378752e-06,0.000633985036984086,4499.734375,-734.3955688476561,4559.2705078125,-9.26944065093994
18.0,3944.3598632812495,4565.74267578125,857.4978637695312,-857.4978637695312,4645.56884765625,-10.63688278198242,1.0,1.267701748020045e-07,0.7634098529815674,8.0,0.957405149936676,0.04781990870833397,82.20779418945312,0.0004926561960019171,0.0007916406611911952,1.02936601251713e-05,92.84467315673827,9.999999747378752e-06,0.0008064472931437193,4565.74267578125,-857.4978637695312,4645.56884765625,-10.63688278198242
19.0,3144.054931640625,4637.8203125,1000.492431640625,-1000.492431640625,4744.5087890625,-12.173562049865723,1.0,1.1378056541389014e-07,0.7684068083763121,8.0,0.9713567495346067,0.04813646897673607,110.42279815673828,0.00029620606801472604,0.01128327753394842,1.014572353597032e-05,122.59635162353516,9.999999747378752e-06,0.0008563431911170482,4637.8203125,-1000.492431640625,4744.5087890625,-12.173562049865723
20.0,2488.426025390625,4727.14599609375,1172.5828857421875,-1172.5828857421875,4870.40673828125,-13.931203842163084,1.0,1.2839716134749324e-07,0.7716111540794371,8.0,0.9804528951644896,0.049160148948431015,170.8127288818359,0.0009291467722505331,0.010684361681342123,1.0093643140862696e-05,-175.2560577392578,9.999999747378752e-06,0.0008158547570928931,4727.14599609375,-1172.5828857421875,4870.40673828125,-13.931203842163084
21.0,1976.6566162109373,4830.6943359375,1372.7708740234375,-1372.7708740234375,5021.96240234375,-15.86391544342041,1.0,1.2315769026827186e-07,0.7733344435691833,8.0,0.9849943518638611,0.05045224726200104,-119.28156280517578,0.00042651305557228625,0.0014078695094212888,1.0046320312540045e-05,-103.4176559448242,9.999999747378752e-06,0.0009449669159948826,4830.6943359375,-1372.7708740234375,5021.96240234375,-15.86391544342041
22.0,1582.03125,4946.98095703125,1597.6094970703125,-1597.6094970703125,5198.55517578125,-17.897674560546875,1.0,1.7298397381182443e-07,0.7746654152870177,8.0,0.9891327023506163,0.05220396444201469,120.13291931152344,0.0005863442784175277,0.002168740378692746,1.0042013855127152e-05,138.0305938720703,9.999999747378752e-06,0.0012452882947400212,4946.98095703125,-1597.6094970703125,5198.55517578125,-17.897674560546875
23.0,1253.6336669921875,5083.36083984375,1855.890625,-1855.890625,5411.55126953125,-20.056697845458984,1.0,2.1004241546052074e-07,0.7812658548355103,8.0,0.9924318194389344,0.05429600551724434,147.51168823242188,8.59707870404236e-05,0.0028904357459396124,1.003335364657687e-05,167.56838989257812,9.999999747378752e-06,0.0011539686238393188,5083.36083984375,-1855.890625,5411.55126953125,-20.056697845458984
24.0,996.09375,5236.9853515625,2133.133056640625,-2133.133056640625,5654.75634765625,-22.16208839416504,1.0,2.2232788410292414e-07,0.7919771671295166,8.0,0.9935706257820128,0.05661245435476303,-13.815279006958008,0.0006375763914547861,0.004065890330821276,1.001147484203102e-05,8.346809387207031,9.999999747378752e-06,0.0015050790971145032,5236.9853515625,-2133.133056640625,5654.75634765625,-22.16208839416504
25.0,790.028076171875,5418.84716796875,2498.95458984375,-2498.95458984375,5967.30078125,-24.757253646850582,1.0,2.1921087522969174e-07,0.7918776869773864,8.0,0.9968293309211731,0.059868719428777695,-136.24781799316406,0.0007421232294291258,0.005330914631485939,1.0032797945314085e-05,-111.49057006835936,9.999999747378752e-06,0.001679471810348332,5418.84716796875,-2498.95458984375,5967.30078125,-24.757253646850582
26.0,628.8109741210938,5623.1455078125,2916.217529296875,-2916.217529296875,6334.35791015625,-27.41169166564941,1.0,1.8573882698547092e-07,0.7941423058509826,8.0,0.9974173903465272,0.06338095664978027,75.96600341796875,0.0008393609896302222,0.007185600697994232,1.0005899639509153e-05,103.37770080566406,9.999999747378752e-06,0.001437787665054202,5623.1455078125,-2916.217529296875,6334.35791015625,-27.41169166564941
27.0,496.3235168457031,5585.41357421875,3560.14306640625,-3560.14306640625,6623.5537109375,-32.5134391784668,1.0,1.557261413154265e-07,0.803641378879547,8.0,0.9697240591049193,0.06439650803804398,104.9289779663086,0.0006233957828953862,0.006658701226115227,9.722349204821512e-06,137.4424285888672,9.999999747378752e-06,0.0004464959492906928,5585.41357421875,-3560.14306640625,6623.5537109375,-32.5134391784668
28.0,395.3313293457031,5915.78271484375,4170.88623046875,-4170.88623046875,7238.28564453125,-35.185516357421875,1.0,1.344679958492634e-07,0.7975373268127441,8.0,0.9908413887023924,0.07395910471677779,65.2930908203125,0.0007993508479557931,0.010930351912975311,1.0217766430287156e-05,100.47860717773436,9.999999747378752e-06,0.0005581767181865871,5915.78271484375,-4170.88623046875,7238.28564453125,-35.185516357421875
29.0,315.5048217773437,6266.66552734375,4828.9150390625,-4828.9150390625,7911.353515625,-37.61682891845703,1.0,1.4311456197901862e-07,0.7985442876815795,8.0,0.9974191188812256,0.07963872700929642,-170.830322265625,0.0011936454102396965,0.015596745535731316,1.006638558465056e-05,-133.2135009765625,9.999999747378752e-06,0.0008833793690428138,6266.66552734375,-4828.9150390625,7911.353515625,-37.61682891845703
30.0,249.33511352539065,6655.4951171875,5618.46875,-5618.46875,8709.92578125,-40.17055130004882,1.0,1.462119882944535e-07,0.8021361827850341,8.0,0.9999911189079284,0.087323859333992,52.58907318115234,0.0018936878768727183,0.02167234942317009,1.002578665065812e-05,92.75962829589844,9.999999747378752e-06,0.00106643361505121,6655.4951171875,-5618.46875,8709.92578125,-40.17055130004882
31.0,198.6228790283203,7168.6025390625,6713.2607421875,-6713.2607421875,9821.2392578125,-43.12130355834961,1.0,1.672811293929044e-07,0.7898699045181273,8.0,0.9993757605552672,0.09815195202827452,34.94704055786133,0.002899173879995942,0.028375267982482914,9.993846106226556e-06,78.06834411621092,9.999999747378752e-06,0.00098483357578516,7168.6025390625,-6713.2607421875,9821.2392578125,-43.12130355834961
32.0,158.005615234375,7736.08447265625,7977.21630859375,-7977.21630859375,11112.2900390625,-45.87917709350586,1.0,1.677636589647591e-07,0.7823767662048339,8.0,0.994985282421112,0.11063470691442488,90.32313537597656,0.004059670493006705,0.0358867384493351,9.956067515304312e-06,136.20230102539062,9.999999747378752e-06,0.001365454401820898,7736.08447265625,-7977.21630859375,11112.2900390625,-45.87917709350586
33.0,125.5580368041992,8187.405273437501,8981.919921875,-8981.919921875,12153.5380859375,-47.64948654174805,1.0,1.9218175850710398e-07,0.8046792745590211,8.0,0.985322892665863,0.12035514414310455,-146.6354827880859,0.005412064027041197,0.04444445669651032,9.902889360091649e-06,-98.98598480224608,9.999999747378752e-06,0.0013602705439552665,8187.405273437501,-8981.919921875,12153.5380859375,-47.64948654174805
34.0,99.73403930664062,8586.072265625,9568.8115234375,-9568.8115234375,12856.2353515625,-48.098445892333984,1.0,1.7794256734759986e-07,0.8562432527542113,8.0,0.9924306273460387,0.1294897496700287,-144.9580078125,0.007192458491772412,0.05409395694732665,1.0072136319649871e-05,-96.85956573486328,9.999999747378752e-06,0.0011261433828622103,8586.072265625,-9568.8115234375,12856.2353515625,-48.098445892333984
35.0,78.78150939941406,9322.4775390625,11193.7822265625,-11193.7822265625,14567.4072265625,-50.21157455444336,1.0,1.6378608336253822e-07,0.8614453673362733,8.0,0.9923562407493592,0.14566314220428467,-145.0163116455078,0.0097342561930418,0.06517591327428818,9.999250323744489e-06,-94.80473327636719,9.999999747378752e-06,0.0012428313493728636,9322.4775390625,-11193.7822265625,14567.4072265625,-50.21157455444336
36.0,62.919464111328125,10129.7685546875,13060.3271484375,-13060.3271484375,16528.2890625,-52.20235443115234,1.0,1.6450225359676554e-07,0.8627392649650573,8.0,0.9929286837577821,0.16537824273109436,-145.49566650390625,0.013090396299958227,0.07724229246377945,1.0005768672272096e-05,-93.29331970214845,9.999999747378752e-06,0.0013830752577632663,10129.7685546875,-13060.3271484375,16528.2890625,-52.20235443115234
37.0,49.86701965332031,11157.5947265625,15152.083984375,-15152.083984375,18816.94921875,-53.63304901123047,1.0,1.7065738688870624e-07,0.8692294359207153,8.0,0.9940821528434752,0.1883880645036697,-147.11085510253906,0.017427468672394753,0.0913754478096962,1.0011616723204496e-05,-93.47779846191406,9.999999747378752e-06,0.0015383599093183875,11157.5947265625,-15152.083984375,18816.94921875,-53.63304901123047
38.0,39.72457504272461,12316.95703125,17573.26953125,-17573.26953125,21459.8984375,-54.97370910644531,1.0,1.7757355408321018e-07,0.8725626468658446,8.0,0.9941122531890867,0.2146054804325104,-147.49034118652344,0.023096978664398197,0.10625514388084412,1.0000302609114442e-05,-92.51663208007811,9.999999747378752e-06,0.001329344231635332,12316.95703125,-17573.26953125,21459.8984375,-54.97370910644531
39.0,31.459732055664062,13688.830078125,20357.201171875,-20357.201171875,24531.60546875,-56.081855773925774,1.0,1.7307226585216995e-07,0.8767973780632019,8.0,0.9946557879447936,0.24545021355152127,-147.79444885253906,0.030291635543107983,0.12193376570940016,1.000546762952581e-05,-91.71259307861328,9.999999747378752e-06,0.0017576231621205807,13688.830078125,-20357.201171875,24531.60546875,-56.081855773925774
40.0,24.93350982666016,15331.275390625,23456.201171875,-23456.201171875,28022.158203125,-56.83085250854492,1.0,1.7169627142266108e-07,0.88190358877182,8.0,0.9954273104667664,0.28043895959854126,-147.9265594482422,0.04014558345079421,0.14139430224895477,1.0007756827690171e-05,-91.095703125,9.999999747378752e-06,0.0015035186661407351,15331.275390625,-23456.201171875,28022.158203125,-56.83085250854492
41.0,19.862287521362305,17409.8984375,27286.619140625,-27286.619140625,32367.640625,-57.46057891845703,1.0,1.5042800782794075e-07,0.8759239912033081,8.0,0.9955223798751832,0.3237073123455048,-148.06509399414062,0.052851986140012734,0.16129888594150543,1.0000954716815612e-05,-90.60450744628906,9.999999747378752e-06,0.0017525049624964595,17409.8984375,-27286.619140625,32367.640625,-57.46057891845703
42.0,15.782828330993652,20089.705078125,32079.08984375,-32079.08984375,37850.55078125,-57.942920684814446,1.0,1.3796395137433137e-07,0.8592644333839417,8.0,0.9960415959358216,0.3787029385566712,-148.15631103515625,0.07018329203128815,0.18310995399951932,1.000521569949342e-05,-90.21339416503906,9.999999747378752e-06,0.001947091775946319,20089.705078125,-32079.08984375,37850.55078125,-57.942920684814446
43.0,12.466754913330078,23342.443359375,37504.265625,-37504.265625,44175.1015625,-58.102096557617195,1.0,1.5884653237208113e-07,0.8427825570106505,8.0,0.9963597059249877,0.441892147064209,-148.00009155273435,0.09124036133289336,0.20400777459144592,1.0003193892771378e-05,-89.89798736572266,9.999999747378752e-06,0.001995014026761055,23342.443359375,-37504.265625,44175.1015625,-58.102096557617195
44.0,9.973403930664062,27435.640625,43590.0,-43590.0,51505.36328125,-57.81359863281249,1.0,1.512867555675257e-07,0.8124575614929198,8.0,0.9964470267295836,0.5150988101959229,-147.4781951904297,0.11390687525272368,0.21850541234016416,1.000087650027126e-05,-89.66459655761719,9.999999747378752e-06,0.0018165120854973795,27435.640625,-43590.0,51505.36328125,-57.81359863281249
45.0,7.878151416778564,32815.60546875,50426.1640625,-50426.1640625,60163.62890625,-56.9453125,1.0,1.101500970435154e-07,0.7629085183143615,8.0,0.9966961741447448,0.6017866134643555,-146.40298461914062,0.1335601508617401,0.21930626034736636,1.0002499948313924e-05,-89.45767211914062,9.999999747378752e-06,0.0018179179169237612,32815.60546875,-50426.1640625,60163.62890625,-56.9453125
46.0,6.275100231170654,38266.55859375,56422.12890625,-56422.12890625,68174.671875,-55.8541374206543,1.0,1.1948708333875402e-07,0.7156029939651489,8.0,0.9973090291023254,0.6821659207344055,-145.15687561035156,0.14584897458553314,0.21127045154571533,1.0006148841057438e-05,-89.302734375,9.999999747378752e-06,0.0016158658545464275,38266.55859375,-56422.12890625,68174.671875,-55.8541374206543
47.0,5.013369083404541,43952.46875,62132.69140625,-62132.69140625,76107.1015625,-54.72453308105469,1.0,1.4250498736601003e-07,0.6591132879257202,8.0,0.9976820349693297,0.7613556385040283,-143.9088897705078,0.1518429070711136,0.19707438349723813,1.0003740499087144e-05,-89.1843490600586,9.999999747378752e-06,0.0013853341806679964,43952.46875,-62132.69140625,76107.1015625,-54.72453308105469
