# point,freq,zreal,reflected_zimag,zimag,zmod,zphz,zsig,Idc,Vdc,ie_range,gain,vmod,vphz,vsig,vthd,imod,iphz,isig,ithd,zreal_drift,zimag_drift,zmod_drift,zphz_drift
0.0,250019.53125,4132.2802734375,-560.447998046875,560.447998046875,4170.11279296875,7.72371530532837,1.0,2.5661569225121644e-07,0.08414661884307861,8.0,0.10247836261987686,0.004273463040590286,170.2273712158203,0.0010403665946796536,0.23220796883106232,1.0247836144117173e-06,162.503662109375,9.999999747378752e-06,0.15322647988796234,4132.2802734375,560.447998046875,4170.11279296875,7.72371530532837
1.0,198691.40625,4054.8203125,-490.50579833984375,490.50579833984375,4084.3803710937505,6.89747428894043,1.0,5.426732627711317e-07,0.2434072196483612,8.0,0.0512671135365963,0.01969729177653789,-37.76676177978516,0.003821186954155564,0.1829790025949478,4.8225897444353905e-06,-44.66423797607422,9.999999747378752e-06,0.144487127661705,4054.8203125,490.50579833984375,4084.3803710937505,6.89747428894043
2.0,157792.96875,4159.67431640625,-346.2267761230469,346.2267761230469,4174.05810546875,4.75799560546875,1.0,5.021145170758246e-07,0.3579016923904419,8.0,0.061377964913845055,0.024099746719002724,53.84345245361328,0.003839587792754173,0.15365442633628845,5.773696557298536e-06,49.08545684814453,9.999999747378752e-06,0.13828791677951813,4159.67431640625,346.2267761230469,4174.05810546875,4.75799560546875
3.0,125332.03125,4100.92626953125,-244.30453491210935,244.30453491210935,4108.19677734375,3.409252882003784,1.0,5.347089881979629e-07,0.4410456120967865,8.0,0.07579035311937331,0.029289143159985542,118.80561065673828,0.003980308305472136,0.1316787749528885,7.129439836717211e-06,115.3963623046875,9.099374551624351e-07,0.12420643121004105,4100.92626953125,244.30453491210935,4108.19677734375,3.409252882003784
4.0,99550.78125,4097.91455078125,-150.96022033691406,150.96022033691406,4100.69384765625,2.1097252368927,1.0,3.5332095649209805e-07,0.4952327907085418,8.0,0.09132349491119383,0.0352274626493454,-117.67174530029295,0.002014478202909231,0.046372804790735245,8.59060946822865e-06,-119.78147888183592,9.999999747378752e-06,0.045258134603500366,4097.91455078125,150.96022033691406,4100.69384765625,2.1097252368927
5.0,79160.15625,4101.91845703125,-85.88918304443358,85.88918304443358,4102.8173828125,1.1995285749435425,1.0,3.0202122047739977e-07,0.5422046184539795,8.0,0.11513064056634902,0.044433917850255966,35.314605712890625,0.0028674625791609287,0.06224755197763442,1.0830098290171009e-05,34.11507797241211,9.999999747378752e-06,0.05847612023353577,4101.91845703125,85.88918304443358,4102.8173828125,1.1995285749435425
6.0,62871.09375,4107.46240234375,-27.935922622680664,27.935922622680664,4107.5576171875,0.3896775245666504,1.0,2.821104203576397e-07,0.5758242011070251,8.0,0.15645548701286316,0.05581919476389885,-47.48734664916992,0.004034027457237244,0.07042232155799866,1.3589386981038842e-05,-47.87702560424805,9.6914868663589e-07,0.06971301138401031,4107.46240234375,27.935922622680664,4107.5576171875,0.3896775245666504
7.0,49980.46875,4118.15576171875,26.72953414916992,-26.72953414916992,4118.2421875,-0.37188202142715454,1.0,2.141092352303531e-07,0.5797793865203857,8.0,0.24988250434398648,0.06577441096305847,-149.45526123046875,0.004930842667818069,0.07386444509029388,1.597147638676688e-05,-149.08338928222656,1.0595495041343383e-06,0.0655103549361229,4118.15576171875,-26.72953414916992,4118.2421875,-0.37188202142715454
8.0,39667.96875,4126.05322265625,77.16088867187501,-77.16088867187501,4126.77490234375,-1.071357488632202,1.0,1.7415570141565695e-07,0.5821554064750671,8.0,0.4217555820941925,0.06965234130620956,-58.886566162109375,0.002333325333893299,0.03236903250217438,1.687815529294312e-05,-57.815208435058594,9.999999747378752e-06,0.03317713364958763,4126.05322265625,-77.16088867187501,4126.77490234375,-1.071357488632202
9.0,31582.03125,4144.1630859375,130.72003173828125,-130.72003173828125,4146.22412109375,-1.8066914081573489,1.0,1.585121083280683e-07,0.5677604079246521,8.0,0.5670299530029297,0.055743977427482605,4.525999069213867,0.0006530932732857764,0.004170170985162257,1.3444516298477536e-05,6.332690715789794,9.999999747378752e-06,0.012132039293646812,4144.1630859375,-130.72003173828125,4146.22412109375,-1.8066914081573489
10.0,25019.53125,4157.85107421875,187.31466674804688,-187.31466674804688,4162.068359375,-2.5794785022735596,1.0,1.4766466449600557e-07,0.5792769193649292,8.0,0.6539546847343445,0.048001062124967575,-153.76254272460935,0.0007636568625457584,0.016778651624917984,1.1532982171047477e-05,-151.18307495117188,9.999999747378752e-06,0.015215132385492325,4157.85107421875,-187.31466674804688,4162.068359375,-2.5794785022735596
11.0,19863.28125,4173.83349609375,243.29808044433597,-243.29808044433597,4180.91845703125,-3.336069107055664,1.0,1.2781831060237894e-07,0.5826884508132936,8.0,0.7327839136123657,0.04684896394610405,168.62008666992188,0.0008569300989620388,0.0008976579993031918,1.1205424016225152e-05,171.95616149902344,9.999999747378752e-06,0.001801546080969274,4173.83349609375,-243.29808044433597,4180.91845703125,-3.336069107055664
12.0,15682.8701171875,4194.17822265625,307.23602294921875,-307.23602294921875,4205.416015625,-4.189602851867676,1.0,1.58153454776766e-07,0.5828077793121338,8.0,0.8003255128860474,0.04593033716082573,95.26979827880861,0.0008479802054353057,0.0013817626750096679,1.0921711691480596e-05,99.4594039916992,9.999999747378752e-06,0.003655390115454793,4194.17822265625,-307.23602294921875,4205.416015625,-4.189602851867676
13.0,12597.65625,4215.60400390625,371.9752197265625,-371.9752197265625,4231.9833984375,-5.042588233947754,1.0,1.8710952076617104e-07,0.5878447890281677,8.0,0.8512266278266906,0.04501140117645264,-6.778947830200195,0.0009188254480250179,0.0016177889192476869,1.0636005754349752e-05,-1.73635995388031,9.999999747378752e-06,0.002707231091335416,4215.60400390625,-371.9752197265625,4231.9833984375,-5.042588233947754
14.0,9895.8330078125,4255.072265625,461.8320007324218,-461.8320007324218,4280.0615234375,-6.194453716278076,1.0,1.552615458422224e-07,0.5940408706665039,8.0,0.8922597765922545,0.044863805174827576,-2.5227410793304443,0.000751223531551659,0.014474916271865368,1.0482047400728332e-05,3.671712636947632,9.999999747378752e-06,0.0032379599288105965,4255.072265625,-461.8320007324218,4280.0615234375,-6.194453716278076
15.0,7910.15625,4296.080078125,555.885009765625,-555.885009765625,4331.89453125,-7.37273931503296,1.0,1.9042190047002805e-07,0.6017677187919617,8.0,0.9205612540245056,0.044692978262901306,25.39265251159668,0.0008017334039323032,0.0023712993133813143,1.0317188753106164e-05,32.7653923034668,9.999999747378752e-06,0.0025447288062423468,4296.080078125,-555.885009765625,4331.89453125,-7.37273931503296
16.0,6307.87060546875,4330.4140625,662.2921142578125,-662.2921142578125,4380.7666015625,-8.695419311523438,1.0,1.408045591233531e-07,0.6006158590316772,8.0,0.9421225190162658,0.044833723455667496,90.1964111328125,0.0006811479688622057,0.0014891992323100567,1.0234218279947527e-05,98.89183044433592,9.999999747378752e-06,0.002717146882787347,4330.4140625,-662.2921142578125,4380.7666015625,-8.695419311523438
17.0,4973.3232421875,4390.1279296875,806.4750976562499,-806.4750976562499,4463.5888671875,-10.409290313720703,1.0,1.364473547482703e-07,0.6002784371376038,8.0,0.9277814626693724,0.04395643621683121,-30.826068878173828,0.0006328848539851606,0.0006250435253605248,9.847779438132418e-06,-20.416778564453125,9.999999747378752e-06,0.0006659927894361317,4390.1279296875,-806.4750976562499,4463.5888671875,-10.409290313720703
18.0,3944.3598632812495,4454.38037109375,955.2145385742189,-955.2145385742189,4555.64892578125,-12.10342025756836,1.0,1.0942451211803929e-07,0.6087633371353148,8.0,0.9548606276512146,0.046886146068573,69.75691223144531,0.0004885253147222102,0.0009742682450450957,1.029187023959821e-05,81.86033630371092,9.999999747378752e-06,0.0006597188184969127,4454.38037109375,-955.2145385742189,4555.64892578125,-12.10342025756836
19.0,3144.054931640625,4527.732421875,1127.658203125,-1127.658203125,4666.04443359375,-13.985318183898924,1.0,9.592621097453956e-08,0.617734432220459,8.0,0.9678942561149597,0.04729735478758812,106.77932739257812,0.0005493977805599569,0.011214779689908028,1.0136497621715534e-05,120.76464080810545,9.999999747378752e-06,0.0010122290113940835,4527.732421875,-1127.658203125,4666.04443359375,-13.985318183898924
20.0,2488.426025390625,4617.91162109375,1337.5086669921875,-1337.5086669921875,4807.7060546875,-16.152864456176754,1.0,9.99202853790848e-08,0.6258310675621033,8.0,0.9778943061828611,0.04857378453016281,165.8405303955078,0.0005362208466976881,0.010641164146363735,1.0103317436005455e-05,-178.00662231445312,9.999999747378752e-06,0.0010202530538663268,4617.91162109375,-1337.5086669921875,4807.7060546875,-16.152864456176754
21.0,1976.6566162109373,4723.6103515625,1592.38623046875,-1592.38623046875,4984.7958984375,-18.62958526611328,1.0,1.1786912779143677e-07,0.6222041249275208,8.0,0.9830619692802429,0.050111379474401474,-123.34407806396484,0.0004085254040546715,0.0012280293740332127,1.0052845027530564e-05,-104.71450042724608,9.999999747378752e-06,0.0010970821604132652,4723.6103515625,-1592.38623046875,4984.7958984375,-18.62958526611328
22.0,1582.03125,4847.5703125,1876.5358886718752,-1876.5358886718752,5198.10791015625,-21.161848068237305,1.0,1.0932664906704305e-07,0.6237631440162659,8.0,0.9855411052703856,0.0521121621131897,117.08695983886717,0.0010165167041122911,0.0015723181422799823,1.0025218216469511e-05,138.24879455566406,9.999999747378752e-06,0.0012275906046852467,4847.5703125,-1876.5358886718752,5198.10791015625,-21.161848068237305
23.0,1253.6336669921875,5003.27490234375,2229.058349609375,-2229.058349609375,5477.35888671875,-24.013921737670895,1.0,1.3639498774864478e-07,0.6237027645111084,8.0,0.988715648651123,0.05495002120733261,144.98789978027344,9.999999747378752e-06,0.0019367476925253868,1.0032211321231443e-05,169.00181579589844,9.999999747378752e-06,0.0010723083978518844,5003.27490234375,-2229.058349609375,5477.35888671875,-24.013921737670895
24.0,996.09375,5181.92578125,2651.285888671875,-2651.285888671875,5820.79638671875,-27.09614944458008,1.0,1.448136401904776e-07,0.6226152181625366,8.0,0.990361750125885,0.05830486863851547,-16.66227149963379,0.0007445288356393575,0.002819556277245283,1.0016648957389405e-05,10.433877944946287,9.999999747378752e-06,0.0017944936407729983,5181.92578125,-2651.285888671875,5820.79638671875,-27.09614944458008
25.0,790.028076171875,5407.69921875,3125.71337890625,-3125.71337890625,6246.0625,-30.02841567993164,1.0,1.393294155604963e-07,0.6262750625610352,8.0,0.9913236498832703,0.06252128630876541,-141.1100921630859,0.0006816728273406625,0.0038803108036518097,1.0009712241298985e-05,-111.08168792724608,9.999999747378752e-06,0.0014641839079558847,5407.69921875,-3125.71337890625,6246.0625,-30.02841567993164
26.0,628.8109741210938,5670.4052734375,3703.2915039062495,-3703.2915039062495,6772.58154296875,-33.14820098876953,1.0,1.6650869838485963e-07,0.6252278685569763,8.0,0.9934452772140504,0.06787076592445374,69.79236602783203,0.0007715770625509322,0.005435437895357609,1.0021401976700872e-05,102.94056701660156,9.999999747378752e-06,0.0010381810134276748,5670.4052734375,-3703.2915039062495,6772.58154296875,-33.14820098876953
27.0,496.3235168457031,5681.80712890625,4533.923828125,-4533.923828125,7269.071289062499,-38.58889389038086,1.0,1.6515534184691205e-07,0.6320291757583617,8.0,0.9657507538795472,0.07066429406404495,98.91512298583984,0.0007993508479557931,0.004916576202958822,9.721227797854226e-06,137.50401306152344,9.999999747378752e-06,0.0005132305668666959,5681.80712890625,-4533.923828125,7269.071289062499,-38.58889389038086
28.0,395.3313293457031,6100.37451171875,5295.06201171875,-5295.06201171875,8077.88623046875,-40.95764160156249,1.0,1.555826258936577e-07,0.6324053406715393,8.0,0.9870882034301757,0.0825636014342308,59.45810317993164,0.0009373219800181687,0.008571921847760677,1.0220941476291044e-05,100.4157485961914,9.999999747378752e-06,0.0005737904575653374,6100.37451171875,-5295.06201171875,8077.88623046875,-40.95764160156249
29.0,315.5048217773437,6556.82080078125,6058.19921875,-6058.19921875,8927.1318359375,-42.73650360107422,1.0,1.5760430471800646e-07,0.6472209095954895,8.0,0.9943258762359619,0.08992587774991989,-175.73019409179688,0.0012058669235557316,0.013531412929296492,1.0073323210235683e-05,-132.99368286132812,9.999999747378752e-06,0.0009100258466787635,6556.82080078125,-6058.19921875,8927.1318359375,-42.73650360107422
30.0,249.33511352539065,7103.494140625,7004.6298828125,-7004.6298828125,9976.1953125,-44.598499298095696,1.0,1.5738255854103045e-07,0.6564221978187561,8.0,0.9962461590766906,0.09995462000370024,47.98152923583984,0.0020238065626472235,0.019603874534368515,1.00193128673709e-05,92.5800323486328,9.999999747378752e-06,0.001134288148023188,7103.494140625,-7004.6298828125,9976.1953125,-44.598499298095696
31.0,198.6228790283203,7665.807617187501,7924.341796875,-7924.341796875,11025.416015625,-45.950061798095696,1.0,1.5093961280854273e-07,0.6748629808425903,8.0,0.9980469942092896,0.11045345664024352,32.05120086669922,0.003114185761660337,0.02734745666384697,1.0018075954576489e-05,78.00125885009764,9.999999747378752e-06,0.0014422549866139889,7665.807617187501,-7924.341796875,11025.416015625,-45.950061798095696
32.0,158.005615234375,8380.685546875,9272.9755859375,-9272.9755859375,12498.958984375,-47.89350509643555,1.0,1.3741257021138154e-07,0.6709555387496948,8.0,0.9938250780105591,0.1244608536362648,88.55443572998048,0.004342053085565567,0.03455604612827301,9.957698239304593e-06,136.44793701171875,9.999999747378752e-06,0.0014366012765094636,8380.685546875,-9272.9755859375,12498.958984375,-47.89350509643555
33.0,125.5580368041992,9088.853515625,10536.7451171875,-10536.7451171875,13915.109375,-49.21939086914063,1.0,1.1629060736595421e-07,0.6852686405181885,8.0,0.9846141338348388,0.1378614157438278,-148.0391845703125,0.006237885914742947,0.04472832754254341,9.907318599289283e-06,-98.81979370117188,9.999999747378752e-06,0.0016462717903777957,9088.853515625,-10536.7451171875,13915.109375,-49.21939086914063
34.0,99.73403930664062,9784.615234375,11453.1328125,-11453.1328125,15063.6298828125,-49.49214553833008,1.0,9.59424255597696e-08,0.726240336894989,8.0,0.9903112053871154,0.15150791406631467,-146.3931427001953,0.00921560265123844,0.059389077126979835,1.0057860890810844e-05,-96.90098571777344,9.999999747378752e-06,0.0016076447209343314,9784.615234375,-11453.1328125,15063.6298828125,-49.49214553833008
35.0,78.78150939941406,10813.1396484375,13371.3115234375,-13371.3115234375,17196.39453125,-51.03815460205078,1.0,8.630433967482531e-08,0.7262288331985474,8.0,0.9907469749450685,0.17203959822654724,-145.92050170898435,0.012633143924176691,0.07165788859128952,1.0004399882745927e-05,-94.8823471069336,9.999999747378752e-06,0.001629265258088708,10813.1396484375,-13371.3115234375,17196.39453125,-51.03815460205078
36.0,62.919464111328125,11946.65234375,15588.9423828125,-15588.9423828125,19640.203125,-52.535099029541016,1.0,1.0295286756445421e-07,0.7222952246665953,8.0,0.9915851354599,0.19656819105148315,-145.88238525390625,0.01690932922065258,0.08391150832176208,1.0008459867094643e-05,-93.34728240966797,9.999999747378752e-06,0.0018788959132507443,11946.65234375,-15588.9423828125,19640.203125,-52.535099029541016
37.0,49.86701965332031,13432.1669921875,18127.439453125,-18127.439453125,22561.630859375,-53.46209716796875,1.0,1.185166524919623e-07,0.7178258895874025,8.0,0.99222594499588,0.22576212882995603,-147.00119018554688,0.022251339629292488,0.09735102206468582,1.000646261672955e-05,-93.53909301757811,9.999999747378752e-06,0.001959424465894699,13432.1669921875,-18127.439453125,22561.630859375,-53.46209716796875
38.0,39.72457504272461,15049.7001953125,20888.923828125,-20888.923828125,25745.69140625,-54.22863769531249,1.0,1.4568755091204366e-07,0.7147995829582214,8.0,0.9930379390716552,0.257667601108551,-146.78857421875,0.028835881501436237,0.11058100312948226,1.0008183380705304e-05,-92.55992126464845,9.999999747378752e-06,0.0021375673823058605,15049.7001953125,-20888.923828125,25745.69140625,-54.22863769531249
39.0,31.459732055664062,16837.580078125,23862.7109375,-23862.7109375,29205.01953125,-54.79312515258789,1.0,1.7072540003937322e-07,0.7170714735984801,8.0,0.9938502907752991,0.2922890782356262,-146.54867553710935,0.037108100950717926,0.12545599043369293,1.00081806522212e-05,-91.75556182861328,9.999999747378752e-06,0.002012258395552635,16837.580078125,-23862.7109375,29205.01953125,-54.79312515258789
40.0,24.93350982666016,18694.00390625,26753.94921875,-26753.94921875,32638.0078125,-55.05653381347656,1.0,1.7522586404083998e-07,0.7300763130187987,8.0,0.9945547580718994,0.3266114592552185,-146.171875,0.04649204760789871,0.14064334332942963,1.0007088349084368e-05,-91.11533355712889,9.999999747378752e-06,0.00196015858091414,18694.00390625,-26753.94921875,32638.0078125,-55.05653381347656
41.0,19.862287521362305,20800.673828125,29979.240234375,-29979.240234375,36488.66796875,-55.245697021484375,1.0,1.3524535802389437e-07,0.7364030480384826,8.0,0.9952229261398317,0.3651317954063416,-145.87632751464844,0.057106085121631615,0.15453317761421204,1.0006718184740748e-05,-90.63063049316406,9.999999747378752e-06,0.0018329395679757,20800.673828125,-29979.240234375,36488.66796875,-55.245697021484375
42.0,15.782828330993652,23332.103515625,33674.2421875,-33674.2421875,40967.56640625,-55.282806396484375,1.0,1.0362346358760989e-07,0.7365155220031737,8.0,0.9957028031349182,0.40987321734428406,-145.52442932128906,0.06951843202114105,0.167597696185112,1.0004821888287552e-05,-90.24162292480467,9.999999747378752e-06,0.0018701291410252448,23332.103515625,-33674.2421875,40967.56640625,-55.282806396484375
43.0,12.466754913330078,26553.814453125,38098.88671875,-38098.88671875,46439.53515625,-55.12462615966797,1.0,1.1590235970970753e-07,0.7259868383407592,8.0,0.9962549805641174,0.4646528661251068,-145.04205322265625,0.08423385769128798,0.17912952601909635,1.0005545846070161e-05,-89.91741943359375,9.999999747378752e-06,0.0017612472875043748,26553.814453125,-38098.88671875,46439.53515625,-55.12462615966797
44.0,9.973403930664062,29968.6328125,42662.58984375,-42662.58984375,52136.5078125,-54.913612365722656,1.0,1.3982342750296084e-07,0.7131872177124025,8.0,0.996618390083313,0.5215552449226379,-144.58485412597656,0.09874571859836577,0.18708911538124084,1.0003647730627561e-05,-89.67123413085938,9.999999747378752e-06,0.0016612643375992775,29968.6328125,-42662.58984375,52136.5078125,-54.913612365722656
45.0,7.878151416778564,33849.6796875,47535.51953125,-47535.51953125,58356.03515625,-54.54562377929688,1.0,1.4186112196057366e-07,0.703051745891571,8.0,0.9972404837608336,0.5839245319366455,-144.01113891601562,0.11432299762964249,0.1934698224067688,1.000624160951702e-05,-89.46551513671875,9.999999747378752e-06,0.001532304682768881,33849.6796875,-47535.51953125,58356.03515625,-54.54562377929688
46.0,6.275100231170654,38562.265625,52904.578125,-52904.578125,65467.11328125,-53.9116096496582,1.0,1.130333657783922e-07,0.6707678437232971,8.0,0.9973258972167968,0.6547271013259888,-143.22219848632812,0.12665298581123352,0.19115427136421204,1.000085649138782e-05,-89.31059265136719,9.999999747378752e-06,0.0014712107367813587,38562.265625,-52904.578125,65467.11328125,-53.9116096496582
47.0,5.013369083404541,43452.671875,58123.43359375,-58123.43359375,72570.4375,-53.21846771240234,1.0,1.4463431341482647e-07,0.6339595913887024,8.0,0.9979552626609801,0.7261623144149779,-142.41737365722656,0.1361195147037506,0.1852310597896576,1.0006310731114352e-05,-89.19890594482422,9.999999747378752e-06,0.0012008680496364832,43452.671875,-58123.43359375,72570.4375,-53.21846771240234
