# point,freq,zreal,reflected_zimag,zimag,zmod,zphz,zsig,Idc,Vdc,ie_range,gain,vmod,vphz,vsig,vthd,imod,iphz,isig,ithd,zreal_drift,zimag_drift,zmod_drift,zphz_drift
0.0,250019.53125,4214.341796875,-479.8015441894531,479.8015441894531,4241.56640625,6.495140552520752,1.0,3.017571827967913e-07,0.12097658962011336,8.0,0.1013214960694313,0.004297618754208088,106.23406982421876,0.0007769214571453632,0.1658273488283157,1.0132149554920031e-06,99.73892974853517,9.999999747378752e-06,0.18753209710121155,4214.341796875,479.8015441894531,4241.56640625,6.495140552520752
1.0,198691.40625,4217.87158203125,-458.3597106933594,458.3597106933594,4242.70361328125,6.202043533325195,1.0,5.341649398360461e-07,0.2859530448913574,8.0,0.04985658079385757,0.01989787258207798,-69.65739440917969,0.0038313786499202247,0.18142537772655487,4.689904017141089e-06,-75.85944366455078,9.999999747378752e-06,0.14361514151096344,4217.87158203125,458.3597106933594,4242.70361328125,6.202043533325195
2.0,157792.96875,4108.63720703125,-315.17337036132807,315.17337036132807,4120.7080078125,4.386566162109375,1.0,4.873361376667162e-07,0.39333316683769226,8.0,0.0615198127925396,0.023846700787544247,-131.7008514404297,0.003965635783970356,0.152500182390213,5.787039754068246e-06,-136.08741760253906,9.999999747378752e-06,0.1356956660747528,4108.63720703125,315.17337036132807,4120.7080078125,4.386566162109375
3.0,125332.03125,4113.3525390625,-244.7040557861328,244.7040557861328,4120.625,3.4045233726501465,1.0,4.676533933434257e-07,0.46426391601562494,8.0,0.07557857781648637,0.0292956568300724,-146.2475433349609,0.004044718109071256,0.1318400502204895,7.109518264769576e-06,-149.65206909179688,9.075227467292281e-07,0.12363702058792114,4113.3525390625,244.7040557861328,4120.625,3.4045233726501465
4.0,99550.78125,4097.0224609375,-147.5677032470703,147.5677032470703,4099.67919921875,2.0628037452697754,1.0,3.216295283436921e-07,0.5209893584251404,8.0,0.09124596416950224,0.03518884629011154,-111.71873474121092,0.001923728967085481,0.04658576473593712,8.583316230215132e-06,-113.78153228759764,9.999999747378752e-06,0.04517560452222824,4097.0224609375,147.5677032470703,4099.67919921875,2.0628037452697754
5.0,79160.15625,4102.88623046875,-84.77137756347656,84.77137756347656,4103.76171875,1.1836426258087158,1.0,3.116537641290052e-07,0.5622530579566956,8.0,0.11506921797990798,0.044420432299375534,-150.15115356445312,0.002810036297887564,0.059596903622150414,1.0824320270330643e-05,-151.3347930908203,9.999999747378752e-06,0.058504339307546616,4102.88623046875,84.77137756347656,4103.76171875,1.1836426258087158
6.0,62871.09375,4108.92236328125,-28.697694778442383,28.697694778442383,4109.0224609375,0.4001609086990357,1.0,2.91170437094479e-07,0.5971517562866211,8.0,0.15625759959220886,0.05579824373126029,60.97088623046875,0.004017252009361982,0.07070989161729813,1.357944438495906e-05,60.57072448730469,9.726796861286857e-07,0.06976735591888428,4108.92236328125,28.697694778442383,4109.0224609375,0.4001609086990357
7.0,49980.46875,4116.5302734375,27.55915641784668,-27.55915641784668,4116.62255859375,-0.38357540965080256,1.0,2.180178455546411e-07,0.5991109013557434,8.0,0.2495378702878952,0.06574099510908127,-93.25196075439453,0.004081853199750185,0.06135738641023636,1.5969646483426914e-05,-92.8683853149414,1.066047843778506e-06,0.06589259952306747,4116.5302734375,-27.55915641784668,4116.62255859375,-0.38357540965080256
8.0,39667.96875,4126.583984375,76.81645965576173,-76.81645965576173,4127.298828125,-1.066439151763916,1.0,1.8308818994228204e-07,0.6019840240478516,8.0,0.42122554779052734,0.06966973096132278,-88.07758331298828,0.002406983869150281,0.03254284709692001,1.6880225302884355e-05,-87.01114654541014,9.999999747378752e-06,0.03367450088262557,4126.583984375,-76.81645965576173,4127.298828125,-1.066439151763916
9.0,31582.03125,4131.69580078125,132.88168334960935,-132.88168334960935,4133.83203125,-1.842085361480713,1.0,1.3364925166570174e-07,0.5898815393447876,8.0,0.5682837963104248,0.05577034875750542,34.340553283691406,0.0008070684853009879,0.004046122077852488,1.349119975202484e-05,36.182640075683594,9.999999747378752e-06,0.013366595841944216,4131.69580078125,-132.88168334960935,4133.83203125,-1.842085361480713
10.0,25019.53125,4153.21875,180.50077819824216,-180.50077819824216,4157.13916015625,-2.488534688949585,1.0,1.5684925358527835e-07,0.5945882797241211,8.0,0.6544804573059082,0.04787689819931984,158.5893096923828,0.0007929122075438499,0.016431232914328575,1.1516788617882412e-05,161.0778350830078,9.999999747378752e-06,0.0154091389849782,4153.21875,-180.50077819824216,4157.13916015625,-2.488534688949585
11.0,19863.28125,4174.46875,241.55160522460935,-241.55160522460935,4181.45166015625,-3.31167221069336,1.0,1.6584482409598422e-07,0.5941323637962341,8.0,0.7323374152183533,0.0467887669801712,-160.6876678466797,0.0009451742516830564,0.001595460926182568,1.1189599717909005e-05,-157.37600708007812,9.999999747378752e-06,0.003075999906286597,4174.46875,-241.55160522460935,4181.45166015625,-3.31167221069336
12.0,15682.8701171875,4198.59033203125,306.29693603515625,-306.29693603515625,4209.748046875,-4.172469139099121,1.0,1.951561330315599e-07,0.6013303995132446,8.0,0.8009147644042968,0.046039558947086334,112.20264434814452,0.0005142044392414391,0.002064678817987442,1.0936417311313562e-05,116.37511444091795,9.999999747378752e-06,0.00266868993639946,4198.59033203125,-306.29693603515625,4209.748046875,-4.172469139099121
13.0,12597.65625,4224.17919921875,368.65866088867193,-368.65866088867193,4240.23583984375,-4.987762451171875,1.0,1.7813673025557367e-07,0.6080137491226196,8.0,0.8506593704223632,0.0450359545648098,-4.4992661476135245,0.0007418019231408833,0.0017457393696531651,1.0621097317198291e-05,0.4884963631629944,9.999999747378752e-06,0.0021506440825760365,4224.17919921875,-368.65866088867193,4240.23583984375,-4.987762451171875
14.0,9895.8330078125,4260.15478515625,464.21792602539057,-464.21792602539057,4285.37255859375,-6.21883487701416,1.0,1.475863484756701e-07,0.6099208593368529,8.0,0.8915417194366454,0.04491325467824936,-3.53106427192688,0.0008306523668579757,0.01626789942383766,1.0480595847184304e-05,2.68777084350586,9.999999747378752e-06,0.0027556908316910263,4260.15478515625,-464.21792602539057,4285.37255859375,-6.21883487701416
15.0,7910.15625,4296.16259765625,560.2011108398438,-560.2011108398438,4332.53271484375,-7.429206371307373,1.0,1.0061305033559621e-07,0.6134979128837585,8.0,0.9204486608505248,0.04473008960485458,1.3953049182891843,0.0007040399359539151,0.0012932652607560156,1.0324235518055502e-05,8.824510574340819,9.999999747378752e-06,0.0027488241903483868,4296.16259765625,-560.2011108398438,4332.53271484375,-7.429206371307373
16.0,6307.87060546875,4336.63037109375,660.0949096679688,-660.0949096679688,4386.58056640625,-8.654774665832518,1.0,1.0492347257695657e-07,0.6193839311599731,8.0,0.941263437271118,0.04485778138041496,74.9977035522461,0.0008623384055681527,0.001545961364172399,1.0226137419522274e-05,83.65247344970702,9.999999747378752e-06,0.0030201901681721206,4336.63037109375,-660.0949096679688,4386.58056640625,-8.654774665832518
17.0,4973.3232421875,4394.0048828125,800.7573242187501,-800.7573242187501,4466.373046875,-10.32816219329834,1.0,1.1620298323578027e-07,0.6222736835479736,8.0,0.926874041557312,0.043980944901704795,-32.93016052246094,0.0006492488319054246,0.0006345706642605364,9.847126420936547e-06,-22.601993560791012,9.999999747378752e-06,0.000631480012089014,4394.0048828125,-800.7573242187501,4466.373046875,-10.32816219329834
18.0,3944.3598632812495,4456.15966796875,954.8432617187501,-954.8432617187501,4557.31103515625,-12.094165802001951,1.0,1.375264986336333e-07,0.6170454621315001,8.0,0.9539821147918701,0.04690597578883171,76.67896270751953,0.000525441428180784,0.0006893468671478331,1.0292467777617276e-05,88.77313232421875,9.999999747378752e-06,0.0005982135189697145,4456.15966796875,-954.8432617187501,4557.31103515625,-12.094165802001951
19.0,3144.054931640625,4530.4130859375,1133.853271484375,-1133.853271484375,4670.146484375,-14.051121711730955,1.0,1.5341797166001925e-07,0.6180686354637146,8.0,0.9686715006828307,0.04742057621479034,114.91659545898436,0.0005891837063245475,0.013640732504427431,1.0153979928873012e-05,128.96771240234375,9.999999747378752e-06,0.0008788405684754252,4530.4130859375,-1133.853271484375,4670.146484375,-14.051121711730955
20.0,2488.426025390625,4622.88720703125,1345.0723876953125,-1345.0723876953125,4814.59326171875,-16.222850799560547,1.0,1.5881073522905353e-07,0.6262354850769042,8.0,0.9761857986450195,0.04851941391825676,168.0241546630859,0.0007975592743605374,0.015081554651260376,1.007757327897707e-05,-175.75299072265625,9.999999747378752e-06,0.0008321959758177399,4622.88720703125,-1345.0723876953125,4814.59326171875,-16.222850799560547
21.0,1976.6566162109373,4729.3095703125,1579.974365234375,-1579.974365234375,4986.25,-18.4735164642334,1.0,1.5259628582953158e-07,0.6425204277038574,8.0,0.9813292026519777,0.05012521892786025,-121.97760772705078,0.0007602148689329624,0.001267340965569019,1.005268859444186e-05,-103.50409698486328,9.999999747378752e-06,0.0011617839336395264,4729.3095703125,-1579.974365234375,4986.25,-18.4735164642334
22.0,1582.03125,4855.5283203125,1836.8096923828125,-1836.8096923828125,5191.34130859375,-20.721252441406246,1.0,1.3789170338895929e-07,0.658334493637085,8.0,0.9862139821052552,0.052171822637319565,117.11428833007812,0.0010114613687619567,0.0018715851474553344,1.0049777301901484e-05,137.83554077148435,9.999999747378752e-06,0.0010832047555595636,4855.5283203125,-1836.8096923828125,5191.34130859375,-20.721252441406246
23.0,1253.6336669921875,5007.94873046875,2147.42431640625,-2147.42431640625,5448.94287109375,-23.20980834960937,1.0,1.1231330887540025e-07,0.6711964011192322,8.0,0.9882411956787107,0.05460143461823464,144.49481201171875,0.0004606436123140156,0.002104011364281177,1.002055523713352e-05,167.70462036132812,9.999999747378752e-06,0.0010342189343646169,5007.94873046875,-2147.42431640625,5448.94287109375,-23.20980834960937
24.0,996.09375,5189.04296875,2533.597412109375,-2533.597412109375,5774.53759765625,-26.024364471435543,1.0,8.96465692790116e-08,0.6712608933448792,8.0,0.9904267787933347,0.05787308141589165,-16.858905792236328,0.0007296496769413352,0.0028279928956180807,1.0022115930041764e-05,9.165456771850586,9.999999747378752e-06,0.001224661711603403,5189.04296875,-2533.597412109375,5774.53759765625,-26.024364471435543
25.0,790.028076171875,5406.92333984375,3009.863037109375,-3009.863037109375,6188.22216796875,-29.10330390930176,1.0,1.1365649754679909e-07,0.6670846939086914,8.0,0.9923197627067566,0.062000494450330734,-139.90338134765625,0.0006098630838096142,0.004261642228811979,1.0019112778536508e-05,-110.8000717163086,9.999999747378752e-06,0.0013723718002438543,5406.92333984375,-3009.863037109375,6188.22216796875,-29.10330390930176
26.0,628.8109741210938,5665.115234375,3552.4501953125,-3552.4501953125,6686.81005859375,-32.090782165527344,1.0,1.3141300314600812e-07,0.6658256649971008,8.0,0.9931048154830932,0.06692101061344147,71.18950653076172,0.0008462915429845452,0.00586740393191576,1.0007911441789474e-05,103.28028106689452,9.999999747378752e-06,0.0013647060841321943,5665.115234375,-3552.4501953125,6686.81005859375,-32.090782165527344
27.0,496.3235168457031,5669.376953125,4342.5947265625,-4342.5947265625,7141.42578125,-37.45117568969727,1.0,1.5653468210530266e-07,0.672313928604126,8.0,0.9664632081985473,0.0694984570145607,99.02127838134764,0.0009159666951745747,0.005806573666632176,9.731734280649107e-06,136.4724578857422,9.999999747378752e-06,0.0006487417849712074,5669.376953125,-4342.5947265625,7141.42578125,-37.45117568969727
28.0,395.3313293457031,6068.06982421875,4976.89453125,-4976.89453125,7847.990234375,-39.35783386230469,1.0,1.9363218939361107e-07,0.6847594380378723,8.0,0.9867631793022157,0.08012831956148148,62.173641204833984,0.0008992863004095852,0.009905378334224224,1.0210043910774402e-05,101.5314712524414,9.999999747378752e-06,0.0005633494583889842,6068.06982421875,-4976.89453125,7847.990234375,-39.35783386230469
29.0,315.5048217773437,6495.02734375,5699.2890625,-5699.2890625,8641.0234375,-41.266468048095696,1.0,1.9413441521010097e-07,0.6944918036460876,8.0,0.9948784112930298,0.08712087571620941,-174.5888519287109,0.0014522571582347155,0.015179459936916828,1.0082240805786569e-05,-133.3223876953125,9.999999747378752e-06,0.0008499522809870541,6495.02734375,-5699.2890625,8641.0234375,-41.266468048095696
30.0,249.33511352539065,6990.63134765625,6535.14453125,-6535.14453125,9569.5888671875,-43.071266174316406,1.0,1.288207727156987e-07,0.7059738039970398,8.0,0.9975017905235289,0.0959482192993164,49.49264526367188,0.002164468867704272,0.021462673321366314,1.0026368727267254e-05,92.56391143798828,9.999999747378752e-06,0.0013397124130278824,6990.63134765625,-6535.14453125,9569.5888671875,-43.071266174316406
31.0,198.6228790283203,7516.11181640625,7496.55712890625,-7496.55712890625,10615.5693359375,-44.92537307739258,1.0,1.3950813126939465e-07,0.7134339809417725,8.0,0.9979997277259826,0.1062086746096611,33.408626556396484,0.00307884463109076,0.02860204689204693,1.0004991963796783e-05,78.33399200439453,9.999999747378752e-06,0.0011852591997012496,7516.11181640625,-7496.55712890625,10615.5693359375,-44.92537307739258
32.0,158.005615234375,8263.3896484375,8990.5703125,-8990.5703125,12211.22265625,-47.4133415222168,1.0,1.7660264006735818e-07,0.6953878402709961,8.0,0.9944241642951965,0.12167473882436752,88.57546997070312,0.004360928200185298,0.03538152202963829,9.964172932086512e-06,135.9888153076172,9.999999747378752e-06,0.0013609009329229591,8263.3896484375,-8990.5703125,12211.22265625,-47.4133415222168
33.0,125.5580368041992,8940.873046875,10246.060546875,-10246.060546875,13598.564453125,-48.89154052734375,1.0,1.616859606201615e-07,0.7084667682647705,8.0,0.9834853410720824,0.1344897747039795,-147.888916015625,0.006226705852895975,0.04555229097604752,9.88999818218872e-06,-98.99736785888672,9.999999747378752e-06,0.001640198053792119,8940.873046875,-10246.060546875,13598.564453125,-48.89154052734375
34.0,99.73403930664062,9561.4658203125,11069.55859375,-11069.55859375,14627.2607421875,-49.18078613281249,1.0,1.5155274013523012e-07,0.7525925636291504,8.0,0.9904181361198424,0.1473037153482437,-146.07415771484375,0.009057670831680298,0.05990767478942871,1.0070491953229064e-05,-96.89336395263673,9.999999747378752e-06,0.001569160958752036,9561.4658203125,-11069.55859375,14627.2607421875,-49.18078613281249
35.0,78.78150939941406,10486.158203125,12842.6845703125,-12842.6845703125,16579.9296875,-50.7680778503418,1.0,1.5625357718818123e-07,0.757693111896515,8.0,0.9914561510086061,0.16597305238246915,-145.6215362548828,0.01228411216288805,0.07219702750444412,1.0010480764321981e-05,-94.85345458984376,9.999999747378752e-06,0.00153592717833817,10486.158203125,-12842.6845703125,16579.9296875,-50.7680778503418
36.0,62.919464111328125,11469.197265625,14754.9560546875,-14754.9560546875,18688.263671875,-52.14166641235352,1.0,1.4639419987361182e-07,0.7619835138320922,8.0,0.9922066330909728,0.18702407181262967,-145.48382568359375,0.01618713140487671,0.08445913344621657,1.0007569471781608e-05,-93.34215545654298,9.999999747378752e-06,0.001750588184222579,11469.197265625,-14754.9560546875,18688.263671875,-52.14166641235352
37.0,49.86701965332031,12790.1064453125,17157.51171875,-17157.51171875,21400.1640625,-53.29722595214844,1.0,1.4008583093527704e-07,0.7625278234481812,8.0,0.9929892420768736,0.2141704261302948,-146.82521057128906,0.02129135280847549,0.0982140451669693,1.0007887794927228e-05,-93.52799224853517,9.999999747378752e-06,0.002028550487011671,12790.1064453125,-17157.51171875,21400.1640625,-53.29722595214844
38.0,39.72457504272461,14149.556640625,19603.76171875,-19603.76171875,24176.794921875,-54.17909240722656,1.0,1.5848756618197513e-07,0.7682577967643738,8.0,0.9936242103576659,0.24192254245281217,-146.7373046875,0.027510128915309903,0.11234461516141891,1.0006394404626915e-05,-92.55821228027344,9.999999747378752e-06,0.0016301230061799288,14149.556640625,-19603.76171875,24176.794921875,-54.17909240722656
39.0,31.459732055664062,15842.1796875,22498.806640625,-22498.806640625,27516.740234375,-54.84931182861328,1.0,1.4209052778824116e-07,0.7698253989219666,8.0,0.9943044781684877,0.2753557860851288,-146.58819580078125,0.03526446968317032,0.1265489161014557,1.0006846423493698e-05,-91.73888397216797,9.999999747378752e-06,0.0018040474969893692,15842.1796875,-22498.806640625,27516.740234375,-54.84931182861328
40.0,24.93350982666016,17819.7109375,25639.748046875,-25639.748046875,31224.009765625,-55.2005729675293,1.0,1.3399407805536614e-07,0.772096574306488,8.0,0.9946482181549072,0.31234803795814514,-146.31060791015625,0.04497881606221199,0.1422634720802307,1.000345673674019e-05,-91.11003112792967,9.999999747378752e-06,0.0017541854176670313,17819.7109375,-25639.748046875,31224.009765625,-55.2005729675293
41.0,19.862287521362305,19976.015625,29013.296875,-29013.296875,35225.16796875,-55.45210647583008,1.0,1.4659281077911146e-07,0.7728975415229796,8.0,0.9951899647712708,0.35244354605674744,-146.07772827148435,0.05562472343444824,0.15594695508480072,1.0005446711147668e-05,-90.62561798095705,9.999999747378752e-06,0.0019363178871572016,19976.015625,-29013.296875,35225.16796875,-55.45210647583008
42.0,15.782828330993652,22589.7734375,32836.18359375,-32836.18359375,39856.15234375,-55.473831176757805,1.0,1.3124866882208153e-07,0.7690342068672179,8.0,0.9958503842353821,0.398826003074646,-145.70314025878906,0.068822480738163,0.17050303518772125,1.0006636330217589e-05,-90.22930145263673,9.999999747378752e-06,0.0019062614301219585,22589.7734375,-32836.18359375,39856.15234375,-55.473831176757805
43.0,12.466754913330078,25725.783203125,37241.484375,-37241.484375,45263.0546875,-55.36394500732422,1.0,1.4267469339301897e-07,0.7603680491447448,8.0,0.9962732195854189,0.4528227746486664,-145.2709808349609,0.08396589756011962,0.1832179129123688,1.0004246178141328e-05,-89.90704345703125,9.999999747378752e-06,0.0016270849155262113,25725.783203125,-37241.484375,45263.0546875,-55.36394500732422
44.0,9.973403930664062,29251.73828125,41906.15625,-41906.15625,51105.67578125,-55.08382034301758,1.0,1.449690785193525e-07,0.7455735802650452,8.0,0.9969531893730164,0.5114055275917053,-144.74668884277344,0.09960047900676729,0.19244635105133057,1.0006824595620856e-05,-89.6628646850586,9.999999747378752e-06,0.0017447539139539003,29251.73828125,-41906.15625,51105.67578125,-55.08382034301758
45.0,7.878151416778564,33752.5,47393.9921875,-47393.9921875,58184.37890625,-54.5427360534668,1.0,1.4176687557210246e-07,0.716697096824646,8.0,0.9970647692680359,0.5819088816642761,-144.00311279296875,0.11517009884119032,0.1955720782279968,1.0001119335356634e-05,-89.46038055419923,9.999999747378752e-06,0.0015335568459704518,33752.5,-47393.9921875,58184.37890625,-54.5427360534668
46.0,6.275100231170654,38617.25390625,52821.92578125,-52821.92578125,65432.7734375,-53.8300666809082,1.0,1.3800223541693413e-07,0.6796737313270569,8.0,0.9976959824562072,0.6547420024871825,-143.1298828125,0.12726561725139615,0.1920747309923172,1.0006330739997791e-05,-89.2998046875,9.999999747378752e-06,0.0013425631914287803,38617.25390625,-52821.92578125,65432.7734375,-53.8300666809082
47.0,5.013369083404541,43815.0234375,58246.94140625,-58246.94140625,72886.640625,-53.048465728759766,1.0,1.3370282658797805e-07,0.6327396631240845,8.0,0.9979391098022462,0.7290440797805786,-142.227294921875,0.13516217470169067,0.18320305645465848,1.0002437193179505e-05,-89.1788330078125,9.999999747378752e-06,0.0012503635371103883,43815.0234375,-58246.94140625,72886.640625,-53.048465728759766
