# point,freq,zreal,reflected_zimag,zimag,zmod,zphz,zsig,Idc,Vdc,ie_range,gain,vmod,vphz,vsig,vthd,imod,iphz,isig,ithd,zreal_drift,zimag_drift,zmod_drift,zphz_drift
0.0,100019.53125,3575.283203125,76.37286376953125,-76.37286376953125,3576.098876953125,-1.223728895187378,1.0,8.780613569570049e-08,-0.063929483294487,8.0,0.23457807302474973,0.008388743735849857,-37.598480224609375,0.00027226743986830115,0.028932256624102592,2.345780785617535e-06,-36.37474822998047,9.999999747378752e-06,0.05124814063310623,3575.283203125,-76.37286376953125,3576.098876953125,-1.223728895187378
1.0,79511.71875,3613.4790039062495,143.7790069580078,-143.7790069580078,3616.3383789062495,-2.278576135635376,1.0,1.2585158515321382e-07,-0.021811695769429207,8.0,0.23229701817035675,0.03581172600388527,128.3416290283203,0.0012075763661414385,0.03105100430548191,9.902759302349295e-06,130.62020874023435,9.999999747378752e-06,0.032613251358270645,3613.4790039062495,-143.7790069580078,3616.3383789062495,-2.278576135635376
2.0,63105.46875,3658.3759765625,206.08503723144528,-206.08503723144528,3664.176025390625,-3.2242002487182617,1.0,1.2483839384458406e-07,0.006468579638749361,8.0,0.285803735256195,0.0450817309319973,-128.7496337890625,0.0016579009825363755,0.03596920147538185,1.2303374205657747e-05,-125.52543640136717,9.999999747378752e-06,0.03885100409388542,3658.3759765625,-206.08503723144528,3664.176025390625,-3.2242002487182617
3.0,50214.84375,3698.244140625,262.5506896972656,-262.5506896972656,3707.5522460937505,-4.060805320739745,1.0,9.034545200847789e-08,0.015332532115280628,8.0,0.3888770043849945,0.05044656619429588,-52.30580139160156,0.0011701851617544887,0.020532403141260147,1.3606435459223576e-05,-48.24499511718751,9.999999747378752e-06,0.021397292613983154,3698.244140625,-262.5506896972656,3707.5522460937505,-4.060805320739745
4.0,39902.34375,3739.401123046875,296.2061462402344,-296.2061462402344,3751.1142578125,-4.529067516326904,1.0,9.142782175786125e-08,0.012741881422698496,8.0,0.49808683991432184,0.04804554581642151,-59.27766036987305,0.0005119048873893917,0.0023017015773802996,1.2808339306502601e-05,-54.74859619140625,9.999999747378752e-06,0.0026576295495033264,3739.401123046875,-296.2061462402344,3751.1142578125,-4.529067516326904
5.0,31699.21875,3799.5615234375,382.17407226562494,-382.17407226562494,3818.7333984375,-5.7437052726745605,1.0,8.324025202455232e-08,0.013735285960137844,8.0,0.5792145133018494,0.044407229870557785,153.9877166748047,0.00047899255878292013,0.002454708330333233,1.1628785614448132e-05,159.7314300537109,9.999999747378752e-06,0.0051700854673981675,3799.5615234375,-382.17407226562494,3818.7333984375,-5.7437052726745605
6.0,25136.71875,3849.5341796875,439.6077270507813,-439.6077270507813,3874.553955078125,-6.514820575714111,1.0,9.145463764070881e-08,0.02383357658982277,8.0,0.6577613949775696,0.0439997985959053,-99.66744995117188,0.000554727332200855,0.0012606913223862648,1.135609363700496e-05,-93.15263366699217,9.999999747378752e-06,0.003119096159934997,3849.5341796875,-439.6077270507813,3874.553955078125,-6.514820575714111
7.0,19980.46875,3905.987060546875,505.9247131347656,-505.9247131347656,3938.615966796875,-7.380172252655028,1.0,8.406966856000508e-08,0.02582022361457348,8.0,0.7284600734710692,0.0436195284128189,-30.159431457519528,0.0005291159031912684,0.01109081320464611,1.1074836947955193e-05,-22.77925491333008,9.999999747378752e-06,0.018129603937268257,3905.987060546875,-505.9247131347656,3938.615966796875,-7.380172252655028
8.0,15878.90625,3968.095703125,574.3770751953125,-574.3770751953125,4009.450439453125,-8.236289978027342,1.0,8.015722130494397e-08,0.03476305305957794,8.0,0.7895728349685669,0.043458160012960434,99.46067810058592,0.0005050533218309283,0.0010492794681340456,1.0838931302714627e-05,107.69696807861328,9.999999747378752e-06,0.002276977524161339,3968.095703125,-574.3770751953125,4009.450439453125,-8.236289978027342
9.0,12597.65625,4045.887939453125,627.27734375,-627.27734375,4094.225830078125,-8.813011169433594,1.0,8.580756372111864e-08,0.03972074389457703,8.0,0.8375355005264281,0.04342930018901825,13.245898246765137,0.0005400556256063281,0.0012551627587527037,1.0607450349198189e-05,22.058910369873047,9.999999747378752e-06,0.0016360704321414232,4045.887939453125,-627.27734375,4094.225830078125,-8.813011169433594
10.0,10019.53125,4111.29443359375,750.3394775390626,-750.3394775390626,4179.20458984375,-10.34303855895996,1.0,9.164693892671491e-08,0.04904046282172203,8.0,0.876870572566986,0.04375482350587845,-148.00341796875,0.000562998466193676,0.011446442455053328,1.0469652806932572e-05,-137.6603851318359,9.999999747378752e-06,0.019399264827370644,4111.29443359375,-750.3394775390626,4179.20458984375,-10.34303855895996
11.0,7928.24072265625,4195.15283203125,860.342041015625,-860.342041015625,4282.4638671875,-11.589526176452637,1.0,8.575207743888313e-08,0.05455251783132553,8.0,0.907402217388153,0.04431574419140816,163.63900756835935,0.0004743055324070156,0.003440889995545149,1.0348188880016096e-05,175.22853088378906,9.999999747378752e-06,0.012988461181521416,4195.15283203125,-860.342041015625,4282.4638671875,-11.589526176452637
12.0,6307.87060546875,4281.39501953125,982.4920654296877,-982.4920654296877,4392.6796875,-12.924433708190916,1.0,8.028095521694922e-08,0.05876869708299637,8.0,0.9279766082763674,0.04492279514670372,58.96252441406249,0.00048257934395223856,0.001065499964170158,1.0226739505014848e-05,71.88695526123047,9.999999747378752e-06,0.002091196598485112,4281.39501953125,-982.4920654296877,4392.6796875,-12.924433708190916
13.0,5034.72216796875,4390.134765625,1129.3470458984375,-1129.3470458984375,4533.068359375,-14.426346778869627,1.0,8.486015445896555e-08,0.06362685561180115,8.0,0.9144023060798643,0.04466759040951729,55.59235763549805,0.0004810232494492084,0.0003414437233004719,9.853721167019103e-06,70.0186996459961,9.999999747378752e-06,0.00042200225288979704,4390.134765625,-1129.3470458984375,4533.068359375,-14.426346778869627
14.0,3993.0556640625,4505.71240234375,1292.97021484375,-1292.97021484375,4687.5595703125,-16.011489868164062,1.0,8.58252846569485e-08,0.07100227475166321,8.0,0.9422131180763245,0.04830128327012062,64.01116180419922,0.000475377484690398,0.0004953968455083668,1.0304142051609231e-05,80.02265167236328,9.999999747378752e-06,0.000589242554269731,4505.71240234375,-1292.97021484375,4687.5595703125,-16.011489868164062
15.0,3144.054931640625,4640.9990234375,1491.0364990234375,-1491.0364990234375,4874.634765625,-17.810909271240234,1.0,7.424736025996026e-08,0.07719540596008301,8.0,0.9592868685722352,0.04962967336177826,99.75025939941406,0.0003908812068402767,0.007649094332009555,1.0181209290749392e-05,117.56118011474608,9.999999747378752e-06,0.000657988537568599,4640.9990234375,-1491.0364990234375,4874.634765625,-17.810909271240234
16.0,2519.53125,4782.48876953125,1708.7633056640625,-1708.7633056640625,5078.58935546875,-19.661598205566406,1.0,7.517337508033962e-08,0.07994439452886581,8.0,0.9686902761459351,0.05128372460603713,32.5558967590332,0.0005271861446090043,0.010075030848383904,1.0098025086335836e-05,52.21749496459961,9.999999747378752e-06,0.0007250185590237379,4782.48876953125,-1708.7633056640625,5078.58935546875,-19.661598205566406
17.0,2000.76220703125,4951.56494140625,1968.6943359375,-1968.6943359375,5328.5791015625,-21.68229103088379,1.0,7.916416677744563e-08,0.08745578676462173,8.0,0.974976897239685,0.05363160371780396,55.76741790771484,0.00041051331209018826,0.0008779487689025699,1.006489765131846e-05,77.44970703125,9.999999747378752e-06,0.0010672362986952066,4951.56494140625,-1968.6943359375,5328.5791015625,-21.68229103088379
18.0,1580.6685791015625,5147.1259765625,2283.791259765625,-2283.791259765625,5631.03955078125,-23.92696762084961,1.0,7.491255615832415e-08,0.09346579015254974,8.0,0.9802280068397522,0.05661367997527122,105.41973114013672,0.0001392363483319059,0.0010640063555911183,1.0053859114123043e-05,129.34669494628906,9.999999747378752e-06,0.001090356963686645,5147.1259765625,-2283.791259765625,5631.03955078125,-23.92696762084961
19.0,1253.6336669921875,5371.26318359375,2654.57666015625,-2654.57666015625,5991.4306640625,-26.299427032470703,1.0,8.076172974824658e-08,0.09270522743463516,8.0,0.9830570816993712,0.060087237507104874,141.03170776367188,0.0001551058958284557,0.0013952782610431311,1.0028861652244812e-05,167.3311309814453,9.999999747378752e-06,0.001150195486843586,5371.26318359375,-2654.57666015625,5991.4306640625,-26.299427032470703
20.0,1000.7022705078124,5623.89111328125,3080.31005859375,-3080.31005859375,6412.2119140625,-28.71034240722656,1.0,6.716886957747192e-08,0.08998408913612364,8.0,0.9864026308059692,0.06434033811092377,18.32416534423828,0.0006554994615726173,0.003161451779305935,1.0034032129624393e-05,47.03450775146484,9.999999747378752e-06,0.002749235136434436,5623.89111328125,-3080.31005859375,6412.2119140625,-28.71034240722656
21.0,790.028076171875,5922.580078125,3564.04541015625,-3564.04541015625,6912.2626953125,-31.03837013244629,1.0,7.13618106829017e-08,0.10595231503248213,8.0,0.9886125922203065,0.06927748769521713,-143.82725524902344,0.00044417343451641505,0.0027349733281880617,1.0022404239862224e-05,-112.78888702392578,9.999999747378752e-06,0.0013774029212072492,5922.580078125,-3564.04541015625,6912.2626953125,-31.03837013244629
22.0,628.8109741210938,6264.81640625,4123.97802734375,-4123.97802734375,7500.34130859375,-33.35594940185547,1.0,8.446886567980982e-08,0.1131010428071022,8.0,0.990571081638336,0.07515199482440947,68.64942169189453,0.0005667624645866454,0.0036830713506788015,1.0019810360972768e-05,102.00536346435545,9.999999747378752e-06,0.0013172283070161939,6264.81640625,-4123.97802734375,7500.34130859375,-33.35594940185547
23.0,502.2321472167969,6297.83544921875,4948.4423828125,-4948.4423828125,8009.35791015625,-38.15803146362305,1.0,7.968557724780112e-08,0.12040750682353972,8.0,0.9618875980377197,0.07777435332536697,142.26220703125,0.0004932268057018518,0.0035476277116686106,9.710434824228287e-06,-179.57977294921875,9.999999747378752e-06,0.0004858559987042099,6297.83544921875,-4948.4423828125,8009.35791015625,-38.15803146362305
24.0,400.1524353027344,6808.693359375,5689.1708984375,-5689.1708984375,8872.708984375,-39.88127517700195,1.0,7.729256168431675e-08,0.12675435841083527,8.0,0.9849506616592408,0.09085449576377869,95.37801361083984,0.0006580866174772382,0.0058549935929477215,1.0239768926112445e-05,135.25929260253906,9.999999747378752e-06,0.0005641461466439068,6808.693359375,-5689.1708984375,8872.708984375,-39.88127517700195
25.0,315.5048217773437,7412.45166015625,6583.76806640625,-6583.76806640625,9914.1533203125,-41.61160659790039,1.0,8.269847029396259e-08,0.1320592164993286,8.0,0.9930297732353209,0.0999547466635704,-175.75405883789062,0.0009214762249030173,0.008832952938973902,1.0082025255542248e-05,-134.1424560546875,9.999999747378752e-06,0.0006900715525262058,7412.45166015625,-6583.76806640625,9914.1533203125,-41.61160659790039
26.0,252.01612854003903,8066.85888671875,7620.63818359375,-7620.63818359375,11097.2216796875,-43.370697021484375,1.0,9.302751635686944e-08,0.12852637469768524,8.0,0.9956505298614501,0.11126510053873062,67.41459655761719,0.0013645906001329422,0.012051056139171124,1.0026391464634798e-05,110.78529357910156,9.999999747378752e-06,0.0009649103158153592,8066.85888671875,-7620.63818359375,11097.2216796875,-43.370697021484375
27.0,200.3205108642578,8856.8173828125,8905.0498046875,-8905.0498046875,12559.5830078125,-45.155586242675774,1.0,9.724651306441957e-08,0.11619187891483305,8.0,0.9961611032485962,0.125660240650177,44.25053024291992,0.00199500285089016,0.015628747642040253,1.0005128388002047e-05,89.40612030029295,9.999999747378752e-06,0.0010392291005700827,8856.8173828125,-8905.0498046875,12559.5830078125,-45.155586242675774
28.0,158.005615234375,9726.0205078125,10185.357421875,-10185.357421875,14083.2158203125,-46.32152557373047,1.0,1.0578207110256699e-07,0.13168764114379883,8.0,0.9940598011016845,0.14053508639335632,88.3241195678711,0.0029995287768542767,0.0210373867303133,9.97890583676053e-06,134.64564514160156,9.999999747378752e-06,0.0012882243609055877,9726.0205078125,-10185.357421875,14083.2158203125,-46.32152557373047
29.0,125.5580368041992,10831.013671875,12045.1279296875,-12045.1279296875,16198.640625,-48.03803253173828,1.0,1.1021030843494373e-07,0.10614540427923203,8.0,0.9850342273712158,0.1605156511068344,-147.99156188964844,0.003990810364484786,0.024469938129186634,9.90920489130076e-06,-99.9535446166992,9.999999747378752e-06,0.0014126424212008715,10831.013671875,-12045.1279296875,16198.640625,-48.03803253173828
30.0,99.73403930664062,12152.044921875,14156.6220703125,-14156.6220703125,18656.958984375,-49.357208251953125,1.0,1.2230621848630108e-07,0.08292193710803986,8.0,0.9636941552162169,0.18252770602703092,27.524799346923828,0.005270974710583687,0.02812007628381252,9.783357199921738e-06,76.8820114135742,9.999999747378752e-06,0.0014769757399335504,12152.044921875,-14156.6220703125,18656.958984375,-49.357208251953125
31.0,79.44915008544922,13377.2919921875,15375.685546875,-15375.685546875,20380.47265625,-48.97578811645508,1.0,1.2342673016974004e-07,0.1402517408132553,8.0,0.9896679520606994,0.20929773151874545,-144.02120971679688,0.009134657680988312,0.0425284318625927,1.0269523045280948e-05,-95.04542541503906,9.999999747378752e-06,0.0010948462877422571,13377.2919921875,-15375.685546875,20380.47265625,-48.97578811645508
32.0,62.919464111328125,15022.72265625,17777.240234375,-17777.240234375,23274.716796875,-49.800395965576165,1.0,1.2788844117039846e-07,0.137783944606781,8.0,0.9906665682792664,0.23298202455043793,-143.24737548828125,0.011666401289403439,0.04882090911269188,1.0010090591094922e-05,-93.44698333740233,9.999999747378752e-06,0.0011977391550317407,15022.72265625,-17777.240234375,23274.716796875,-49.800395965576165
33.0,49.86701965332031,16890.82421875,20560.537109375,-20560.537109375,26608.9375,-50.5963249206543,1.0,1.2195636145406752e-07,0.13304473459720612,8.0,0.9916099309921264,0.26634275913238525,-144.216064453125,0.01507882121950388,0.055868811905384064,1.0009522156906314e-05,-93.61974334716797,9.999999747378752e-06,0.0013956082984805107,16890.82421875,-20560.537109375,26608.9375,-50.5963249206543
34.0,39.72457504272461,19043.34765625,23722.951171875,-23722.951171875,30420.83984375,-51.24461364746094,1.0,1.1297534285859001e-07,0.1239861026406288,8.0,0.9921258687973022,0.30436667799949646,-143.86517333984375,0.019248979166150093,0.062444481998682015,1.0005202966567595e-05,-92.6205596923828,9.999999747378752e-06,0.0013229182222858071,19043.34765625,-23722.951171875,30420.83984375,-51.24461364746094
35.0,31.672296524047848,21577.427734375,27414.38671875,-27414.38671875,34887.4453125,-51.794281005859375,1.0,8.686850350159148e-08,0.1078466698527336,8.0,0.9927356839179992,0.3490889072418213,-143.647705078125,0.024220455437898636,0.06851797550916672,1.0006147022068033e-05,-91.85341644287107,9.999999747378752e-06,0.0013005008222535253,21577.427734375,-27414.38671875,34887.4453125,-51.794281005859375
36.0,25.201612472534176,24538.384765625,31330.244140625,-31330.244140625,39795.9375,-51.93134307861328,1.0,6.288043152835598e-08,0.10006766766309738,8.0,0.9934586882591248,0.39824914932250977,-143.1538543701172,0.030719948932528492,0.07616986334323883,1.0007282980950548e-05,-91.22251892089844,9.999999747378752e-06,0.0013728549238294363,24538.384765625,-31330.244140625,39795.9375,-51.93134307861328
37.0,20.03205108642578,27947.7734375,35817.71875,-35817.71875,45431.125,-52.03587341308594,1.0,6.894012472002942e-08,0.08350444585084915,8.0,0.9942418932914733,0.4546693861484528,-142.75592041015625,0.03748415783047676,0.08142310380935669,1.000788324745372e-05,-90.72004699707033,9.999999747378752e-06,0.001236640033312142,27947.7734375,-35817.71875,45431.125,-52.03587341308594
38.0,15.782828330993652,32047.28515625,40931.5390625,-40931.5390625,51984.80078125,-51.94088745117188,1.0,7.094360654491538e-08,0.054267361760139465,8.0,0.9948430061340333,0.5201622843742371,-142.24298095703125,0.04359746351838112,0.08278437703847885,1.0006046068156138e-05,-90.3021011352539,9.999999747378752e-06,0.001234590890817344,32047.28515625,-40931.5390625,51984.80078125,-51.94088745117188
39.0,12.600806236267088,36316.62109375,45673.46484375,-45673.46484375,58352.0546875,-51.51052474975586,1.0,8.29724200457349e-08,0.022689402103424072,8.0,0.9954575896263121,0.5838810801506041,-141.50132751464844,0.04730498418211937,0.08003779500722885,1.0006177944887897e-05,-89.99080657958984,9.999999747378752e-06,0.0011594119714573024,36316.62109375,-45673.46484375,58352.0546875,-51.51052474975586
40.0,9.973403930664062,40916.625,49939.73046875,-49939.73046875,64561.1875,-50.67154693603516,1.0,9.642410248034139e-08,-0.0015786816366016865,8.0,0.9960243701934814,0.6459794044494629,-140.40196228027344,0.05063874274492264,0.07745270431041716,1.000569318421185e-05,-89.73040771484375,9.999999747378752e-06,0.0011278890306130052,40916.625,-49939.73046875,64561.1875,-50.67154693603516
41.0,7.971938610076904,45351.61328125,53400.265625,-53400.265625,70059.671875,-49.65952301025391,1.0,9.197639627700482e-08,-0.01713604666292667,8.0,0.9967458844184877,0.7011041641235352,-139.17849731445312,0.05474529042840004,0.07715148478746414,1.0007243872678371e-05,-89.51896667480467,9.999999747378752e-06,0.0009593677823431789,45351.61328125,-53400.265625,70059.671875,-49.65952301025391
42.0,6.275100231170654,50087.80078125,56611.75390625,-56611.75390625,75588.875,-48.49889373779297,1.0,6.547044506532984e-08,-0.035992998629808426,8.0,0.997424840927124,0.7564036846160888,-137.8438262939453,0.060426969081163406,0.07893460243940353,1.000681186269503e-05,-89.34492492675781,9.999999747378752e-06,0.0009502872126176952,50087.80078125,-56611.75390625,75588.875,-48.49889373779297
43.0,5.013369083404541,54354.69921875,59444.3125,-59444.3125,80548.4921875,-47.56082534790039,1.0,6.943182739860276e-08,-0.05861353874206543,8.0,0.9977989196777344,0.8057870864868163,-136.761962890625,0.06785141676664352,0.08320675045251846,1.0003750503528863e-05,-89.20114135742188,9.999999747378752e-06,0.0009077302529476584,54354.69921875,-59444.3125,80548.4921875,-47.56082534790039
44.0,3.985969305038452,58441.5390625,62106.234375,-62106.234375,85279.5234375,-46.74127578735352,1.0,8.568920151219571e-08,-0.06634145975112915,8.0,0.9983304142951965,0.8532494902610778,-135.82754516601562,0.07908920198678969,0.09159619361162184,1.0005326657847036e-05,-89.08627319335938,9.999999747378752e-06,0.0008239101734943688,58441.5390625,-62106.234375,85279.5234375,-46.74127578735352
45.0,3.1758129596710205,62300.55078125,64894.16796875,-64894.16796875,89958.9453125,-46.16815185546875,1.0,7.812728597400563e-08,-0.07620161771774293,8.0,0.9987692832946776,0.8999848961830139,-135.16835021972656,0.09173312038183212,0.10072032362222672,1.000439624476712e-05,-89.00019073486328,9.999999747378752e-06,0.000804141629487276,62300.55078125,-64894.16796875,89958.9453125,-46.16815185546875
46.0,2.516103029251098,65074.5703125,68578.5234375,-68578.5234375,94539.484375,-46.501766204833984,1.0,9.581330573382728e-08,-0.09807980060577393,8.0,0.9676213264465331,0.9159114360809326,-179.37548828125,0.044035956263542175,0.047515515238046646,9.688136742624922e-06,-132.8737030029297,9.999999747378752e-06,0.0002254434366477653,65074.5703125,-68578.5234375,94539.484375,-46.501766204833984
47.0,1.9955300092697144,67557.3984375,70252.796875,-70252.796875,97465.1640625,-46.1204948425293,1.0,8.152963459906459e-08,-0.10660815984010696,8.0,0.9867457151412963,0.9939149022102357,-169.0765838623047,0.07399106770753859,0.07356290519237518,1.0197642950515728e-05,-122.95608520507812,9.999999747378752e-06,0.0004018115578219295,67557.3984375,-70252.796875,97465.1640625,-46.1204948425293
