# point,freq,zreal,reflected_zimag,zimag,zmod,zphz,zsig,Idc,Vdc,ie_range,gain,vmod,vphz,vsig,vthd,imod,iphz,isig,ithd,zreal_drift,zimag_drift,zmod_drift,zphz_drift
0.0,250019.53125,4474.92919921875,-673.2098388671875,673.2098388671875,4525.28515625,8.555438041687012,1.0,5.125961592966632e-07,0.7085882425308228,8.0,0.039454258978366845,0.016795050352811813,-31.727783203125,0.0030852120835334063,0.17932568490505219,3.7113795769982967e-06,-40.283218383789055,9.999999747378752e-06,0.1626008301973343,4474.92919921875,673.2098388671875,4525.28515625,8.555438041687012
1.0,198691.40625,4467.50732421875,-457.9718627929688,457.9718627929688,4490.919921875,5.853043556213378,1.0,5.24693803072296e-07,0.7769823670387267,8.0,0.0473659448325634,0.02000980824232101,158.32577514648435,0.003619787283241749,0.17465421557426453,4.455614998732926e-06,152.47271728515625,9.999999747378752e-06,0.14783623814582825,4467.50732421875,457.9718627929688,4490.919921875,5.853043556213378
2.0,157792.96875,4421.216796875,-362.5458679199218,362.5458679199218,4436.056640625,4.6878442764282235,1.0,4.5845396812183036e-07,0.8310580253601073,8.0,0.057772498577833176,0.0241079181432724,-53.135059356689446,0.0038499590009450912,0.15323196351528168,5.4345377975550954e-06,-57.82290649414063,9.999999747378752e-06,0.13652651011943817,4421.216796875,362.5458679199218,4436.056640625,4.6878442764282235
3.0,125332.03125,4431.13232421875,-276.7687072753906,276.7687072753906,4439.767578125,3.5740537643432617,1.0,4.829248041460232e-07,0.8688001036643982,8.0,0.07095960527658463,0.02963554300367832,165.47125244140625,0.00404634652659297,0.13280953466892242,6.6750212681654375e-06,161.8972015380859,9.999999747378752e-06,0.1254291981458664,4431.13232421875,276.7687072753906,4439.767578125,3.5740537643432617
4.0,99550.78125,4406.818359375,-181.50988769531247,181.50988769531247,4410.5546875,2.3585894107818604,1.0,2.8283281494623225e-07,0.8954890370368956,8.0,0.08593611419200897,0.03565417602658272,94.16048431396483,0.0017386515391990542,0.04713644459843636,8.083829925453756e-06,91.80189514160156,9.999999747378752e-06,0.04497688263654709,4406.818359375,181.50988769531247,4410.5546875,2.3585894107818604
5.0,79160.15625,4411.9794921875,-114.5744857788086,114.5744857788086,4413.46728515625,1.487576961517334,1.0,2.743074674071977e-07,0.888970673084259,8.0,0.10839305073022842,0.0450010672211647,-38.74658584594727,0.0028473956044763327,0.05982647463679314,1.0196306902798824e-05,-40.234161376953125,9.999999747378752e-06,0.05773778259754181,4411.9794921875,114.5744857788086,4413.46728515625,1.487576961517334
6.0,62871.09375,4415.05078125,-57.80718612670898,57.80718612670898,4415.42919921875,0.7501428127288817,1.0,2.764579960512492e-07,0.909301519393921,8.0,0.13879480957984924,0.05653855577111244,49.139686584472656,0.0040527344681322575,0.07060075551271439,1.2804770449292846e-05,48.389545440673835,9.287181796935329e-07,0.0702078714966774,4415.05078125,57.80718612670898,4415.42919921875,0.7501428127288817
7.0,49980.46875,4422.2041015625,-3.0436484813690186,3.0436484813690186,4422.20556640625,0.03943467512726784,1.0,2.570844230831426e-07,0.8954020738601683,8.0,0.21488501131534576,0.06846549361944199,-41.36516952514648,0.004786401521414518,0.06861148029565811,1.5482208254979923e-05,-41.40460205078125,1.1222228977203483e-06,0.0714464858174324,4422.2041015625,3.0436484813690186,4422.20556640625,0.03943467512726784
8.0,39667.96875,4435.390625,41.3719139099121,-41.3719139099121,4435.58349609375,-0.5344213247299193,1.0,2.2469900784471974e-07,0.8907000422477721,8.0,0.36671897768974304,0.07569689303636552,-35.36354446411133,0.0035483636893332005,0.04566195234656334,1.7065824067685753e-05,-34.82912063598633,9.999999747378752e-06,0.04682782664895058,4435.390625,-41.3719139099121,4435.58349609375,-0.5344213247299193
9.0,31582.03125,4452.18310546875,80.36054229736328,-80.36054229736328,4452.908203125,-1.034058928489685,1.0,1.863144518665649e-07,0.8810229301452637,8.0,0.5428210496902466,0.06591238081455231,66.0610580444336,0.0004356388235464692,0.0046595283783972255,1.4802098121435849e-05,67.09512329101562,9.999999747378752e-06,0.010891466401517391,4452.18310546875,-80.36054229736328,4452.908203125,-1.034058928489685
10.0,25019.53125,4465.87109375,125.64766693115234,-125.64766693115234,4467.63818359375,-1.6115965843200684,1.0,1.9093727132712962e-07,0.8816521167755128,8.0,0.6360508799552916,0.05234958231449127,89.56340789794922,0.0004475171444937586,0.009505181573331356,1.171750591311138e-05,91.17501068115233,9.999999747378752e-06,0.010954297147691248,4465.87109375,-125.64766693115234,4467.63818359375,-1.6115965843200684
11.0,19863.28125,4487.7470703125,164.74598693847656,-164.74598693847656,4490.77001953125,-2.1023941040039062,1.0,1.7719443690111802e-07,0.8839615583419799,8.0,0.717745304107666,0.0506756454706192,177.61354064941406,0.00027142465114593506,0.0010153173934668303,1.1284400898148304e-05,179.7159423828125,9.999999747378752e-06,0.002393070375546813,4487.7470703125,-164.74598693847656,4490.77001953125,-2.1023941040039062
12.0,15682.8701171875,4507.4873046875,212.2614288330078,-212.2614288330078,4512.482421875,-2.696115493774414,1.0,1.672436411581657e-07,0.8861621022224425,8.0,0.791337251663208,0.04975157231092453,75.32406616210938,0.0004887692630290985,0.000833938189316541,1.1025321327906568e-05,78.02017974853516,9.999999747378752e-06,0.0018805760191753504,4507.4873046875,-212.2614288330078,4512.482421875,-2.696115493774414
13.0,12597.65625,4530.255859375,264.51858520507807,-264.51858520507807,4537.9716796875,-3.341667652130127,1.0,1.5539517050910945e-07,0.8917378187179564,8.0,0.8462332487106323,0.048527754843235016,28.289533615112305,0.0006521799950860441,0.0012203502701595423,1.0693711374187842e-05,31.631204605102536,9.999999747378752e-06,0.0017098543467000127,4530.255859375,-264.51858520507807,4537.9716796875,-3.341667652130127
14.0,9895.8330078125,4557.0302734375,305.0253601074219,-305.0253601074219,4567.22705078125,-3.829387903213501,1.0,1.3916478280862066e-07,0.8915568590164183,8.0,0.8934957981109619,0.04822308570146561,19.72916793823242,0.000412301393225789,0.009169344790279864,1.0558504982327577e-05,23.55855369567871,9.999999747378752e-06,0.002589145675301552,4557.0302734375,-305.0253601074219,4567.22705078125,-3.829387903213501
15.0,7910.15625,4588.71630859375,357.0677795410156,-357.0677795410156,4602.587890625,-4.449465274810791,1.0,1.3013004718231969e-07,0.893787682056427,8.0,0.9243558049201965,0.04761554300785065,13.2426700592041,0.0003209311980754137,0.00119725929107517,1.034538490785053e-05,17.692134857177734,9.999999747378752e-06,0.001562603749334812,4588.71630859375,-357.0677795410156,4602.587890625,-4.449465274810791
16.0,6307.87060546875,4623.029296875,420.88873291015625,-420.88873291015625,4642.14892578125,-5.201968193054199,1.0,1.4749514321010793e-07,0.8940291404724121,8.0,0.9488610625267028,0.04765215143561363,71.1581802368164,0.0004328937502577901,0.0009420288261026144,1.0265106539009137e-05,76.36015319824217,9.999999747378752e-06,0.0037612887099385266,4623.029296875,-420.88873291015625,4642.14892578125,-5.201968193054199
17.0,4973.3232421875,4669.4228515625,511.7984313964844,-511.7984313964844,4697.38720703125,-6.255012989044189,1.0,1.606302078016597e-07,0.886604607105255,8.0,0.9353837966918944,0.04630667716264725,-35.83173751831055,9.999999747378752e-06,0.0005282735219225289,9.857963959802872e-06,-29.576725006103516,9.999999747378752e-06,0.0006578064640052617,4669.4228515625,-511.7984313964844,4697.38720703125,-6.255012989044189
18.0,3944.3598632812495,4714.79931640625,595.5531616210938,-595.5531616210938,4752.26416015625,-7.199228763580321,1.0,1.321108129559434e-07,0.886604368686676,8.0,0.9646021723747251,0.049007099121809006,70.9041976928711,0.00018006922618951648,0.00043371380888856953,1.0312367521692067e-05,78.10342407226561,9.999999747378752e-06,0.0006857672124169767,4714.79931640625,-595.5531616210938,4752.26416015625,-7.199228763580321
19.0,3144.054931640625,4763.9892578125,685.5241088867188,-685.5241088867188,4813.05908203125,-8.188486099243164,1.0,1.5886288906585833e-07,0.8918168544769286,8.0,0.9781317710876464,0.04880567640066146,112.96704864501952,9.642782242735849e-05,0.007780151907354593,1.014026111079147e-05,121.15553283691406,9.999999747378752e-06,0.0007849551038816571,4763.9892578125,-685.5241088867188,4813.05908203125,-8.188486099243164
20.0,2488.426025390625,4819.3935546875,801.614013671875,-801.614013671875,4885.60546875,-9.443602561950685,1.0,1.355571441763459e-07,0.8949869275093079,8.0,0.9866806268692015,0.04928305372595787,168.5708770751953,9.999999747378752e-06,0.008512386120855808,1.0087399459735025e-05,178.01446533203125,9.999999747378752e-06,0.0009379784460179508,4819.3935546875,-801.614013671875,4885.60546875,-9.443602561950685
21.0,1976.6566162109373,4885.92578125,937.8104248046877,-937.8104248046877,4975.11376953125,-10.865275382995604,1.0,1.070150545956494e-07,0.8943387866020202,8.0,0.992313802242279,0.05003517866134644,-113.04524993896484,0.0002809208817780018,0.0012082584435120225,1.0057092367787844e-05,-102.17996978759764,9.999999747378752e-06,0.0011742216302081943,4885.92578125,-937.8104248046877,4975.11376953125,-10.865275382995604
22.0,1582.03125,4963.0234375,1098.4842529296875,-1098.4842529296875,5083.1357421875,-12.480284690856932,1.0,1.1115576370457349e-07,0.8915479779243469,8.0,0.9948537945747375,0.050961464643478394,126.19266510009764,0.0005031903274357319,0.0014692568220198154,1.0025596566265447e-05,138.67294311523435,9.999999747378752e-06,0.0010304356692358851,4963.0234375,-1098.4842529296875,5083.1357421875,-12.480284690856932
23.0,1253.6336669921875,5050.51953125,1290.4647216796875,-1290.4647216796875,5212.77734375,-14.333054542541504,1.0,1.1880166539413041e-07,0.8926585316658019,8.0,0.9977718591690063,0.05228067189455032,153.74578857421875,0.00033080828143283725,0.0019708205945789814,1.002933186100563e-05,168.0788421630859,9.999999747378752e-06,0.0011582368751987815,5050.51953125,-1290.4647216796875,5212.77734375,-14.333054542541504
24.0,996.09375,5155.55517578125,1527.76708984375,-1527.76708984375,5377.1572265625,-16.50635528564453,1.0,1.2654842862502846e-07,0.8895015120506287,8.0,1.0002063512802124,0.053902767598629,-9.75261974334717,0.00020830790163017807,0.0025527027901262045,1.0024398761743212e-05,6.753735065460205,9.999999747378752e-06,0.001454884302802384,5155.55517578125,-1527.76708984375,5377.1572265625,-16.50635528564453
25.0,790.028076171875,5282.11572265625,1815.0184326171875,-1815.0184326171875,5585.251953125,-18.963531494140625,1.0,1.3601676585039968e-07,0.8848072290420531,8.0,1.0014599561691284,0.05592252314090729,-131.0252227783203,9.999999747378752e-06,0.0034321295097470284,1.0012533493863884e-05,-112.0616989135742,9.999999747378752e-06,0.0012526303762570024,5282.11572265625,-1815.0184326171875,5585.251953125,-18.963531494140625
26.0,628.8109741210938,5427.54296875,2160.7509765625,-2160.7509765625,5841.837890625,-21.707921981811523,1.0,1.5516873475007742e-07,0.87949800491333,8.0,1.00158953666687,0.058425940573215485,80.55498504638672,0.0006856832187622786,0.004605448804795742,1.0001294867834076e-05,102.26290893554688,9.999999747378752e-06,0.0014324282528832555,5427.54296875,-2160.7509765625,5841.837890625,-21.707921981811523
27.0,496.3235168457031,5367.18505859375,2751.9150390625,-2751.9150390625,6031.5595703125,-27.14556121826172,1.0,1.5670433128889274e-07,0.8812927603721618,8.0,0.9732081294059752,0.05860647186636925,109.1798629760742,0.0003318875969853252,0.004029786679893732,9.716635759104975e-06,136.3254241943359,9.999999747378752e-06,0.0003523449704516679,5367.18505859375,-2751.9150390625,6031.5595703125,-27.14556121826172
28.0,395.3313293457031,5608.00927734375,3211.317626953125,-3211.317626953125,6462.3779296875,-29.796772003173828,1.0,1.7419986875211182e-07,0.8779362440109253,8.0,0.9937391877174376,0.06598710268735886,70.4993896484375,0.0007921601645648478,0.006543098948895931,1.0210962500423191e-05,100.29615783691406,9.999999747378752e-06,0.0004152240289840847,5608.00927734375,-3211.317626953125,6462.3779296875,-29.796772003173828
29.0,315.5048217773437,5849.19775390625,3719.71484375,-3719.71484375,6931.76708984375,-32.4537467956543,1.0,1.8120320532943881e-07,0.8829370737075805,8.0,1.0010467767715454,0.06982740014791489,-165.8290557861328,0.0008269126410596072,0.009801679290831087,1.00735360319959e-05,-133.37530517578125,9.999999747378752e-06,0.0006775092915631831,5849.19775390625,-3719.71484375,6931.76708984375,-32.4537467956543
30.0,249.33511352539065,6126.2021484375,4337.10693359375,-4337.10693359375,7506.05419921875,-35.296974182128906,1.0,1.7613655245440898e-07,0.8893695473670958,8.0,1.0023179054260252,0.07515585422515869,57.08266830444336,0.0009797312086448071,0.013211449608206747,1.0012698112404904e-05,92.37963867187501,9.999999747378752e-06,0.0009295291965827344,6126.2021484375,-4337.10693359375,7506.05419921875,-35.296974182128906
31.0,198.6228790283203,6483.84033203125,5170.2744140625,-5170.2744140625,8292.8837890625,-38.569183349609375,1.0,1.8930865053334853e-07,0.8800836205482483,8.0,1.0022529363632202,0.08292346447706223,39.49495697021484,0.001559292315505445,0.017696570605039597,9.999352187151088e-06,78.06414031982422,9.999999747378752e-06,0.0009016595431603491,6483.84033203125,-5170.2744140625,8292.8837890625,-38.569183349609375
32.0,158.005615234375,6905.10107421875,6186.6171875,-6186.6171875,9271.173828125,-41.858711242675774,1.0,1.918322567462383e-07,0.8719416260719299,8.0,0.9980926513671875,0.09232689440250397,94.21166992187501,0.0022249771282076836,0.022393416613340374,9.958490409189837e-06,136.07037353515625,9.999999747378752e-06,0.0011598787968978284,6905.10107421875,-6186.6171875,9271.173828125,-41.858711242675774
33.0,125.5580368041992,7265.637695312499,7092.15283203125,-7092.15283203125,10153.232421875,-44.30773162841797,1.0,1.793446529063658e-07,0.8908300995826721,8.0,0.988286554813385,0.10053478926420212,-143.00498962402344,0.0030013215728104115,0.028738338500261303,9.901751582219731e-06,-98.6972427368164,9.999999747378752e-06,0.0012268784921616316,7265.637695312499,-7092.15283203125,10153.232421875,-44.30773162841797
34.0,99.73403930664062,7632.485351562499,7735.78564453125,-7735.78564453125,10867.25390625,-45.385120391845696,1.0,1.5910380568584515e-07,0.9389891028404237,8.0,0.9936072826385498,0.10925761610269547,-142.18362426757812,0.004138484131544828,0.036617796868085854,1.00538381957449e-05,-96.79850769042967,9.999999747378752e-06,0.0011855771299451587,7632.485351562499,-7735.78564453125,10867.25390625,-45.385120391845696
35.0,78.78150939941406,8204.5693359375,9081.634765625,-9081.634765625,12238.9150390625,-47.904579162597656,1.0,1.3550366873005262e-07,0.9461930990219117,8.0,0.9938443899154664,0.12241835892200469,-142.70127868652344,0.00571672385558486,0.04524642601609231,1.0002386261476204e-05,-94.79669952392578,9.999999747378752e-06,0.0007706122123636305,8204.5693359375,-9081.634765625,12238.9150390625,-47.904579162597656
36.0,62.919464111328125,8861.701171875,10615.17578125,-10615.17578125,13827.9326171875,-50.14438629150391,1.0,1.1944442235289898e-07,0.949003517627716,8.0,0.9944821596145629,0.13836805522441864,-143.3896331787109,0.007823561318218708,0.05509237200021744,1.000641714199446e-05,-93.2452392578125,9.999999747378752e-06,0.0007562134996987878,8861.701171875,-10615.17578125,13827.9326171875,-50.14438629150391
37.0,49.86701965332031,9653.3603515625,12482.060546875,-12482.060546875,15779.392578125,-52.28239822387695,1.0,1.3352223504625726e-07,0.9540881514549256,8.0,0.9951336979866029,0.15789729356765747,-145.7124481201172,0.010618585161864756,0.06648923456668854,1.0006551747210324e-05,-93.43004608154298,9.999999747378752e-06,0.0011237777071073651,9653.3603515625,-12482.060546875,15779.392578125,-52.28239822387695
38.0,39.72457504272461,10675.64453125,14820.001953125,-14820.001953125,18264.771484375,-54.23276519775391,1.0,1.253193033790012e-07,0.9485236406326293,8.0,0.9951461553573608,0.18264999985694885,-146.71737670898435,0.014957625418901443,0.08082475513219833,1.0000125257647596e-05,-92.48461151123047,9.999999747378752e-06,0.000730638625100255,10675.64453125,-14820.001953125,18264.771484375,-54.23276519775391
39.0,31.459732055664062,11956.513671875,17747.955078125,-17747.955078125,21399.72265625,-56.0324821472168,1.0,1.3732984882608434e-07,0.9386534094810484,8.0,0.995376408100128,0.21404673159122467,-147.70651245117188,0.02098199725151062,0.09683390706777571,1.000231350190006e-05,-91.67403411865233,9.999999747378752e-06,0.0011326625244691968,11956.513671875,-17747.955078125,21399.72265625,-56.0324821472168
40.0,24.93350982666016,13393.3623046875,20810.630859375,-20810.630859375,24748.01953125,-57.235366821289055,1.0,1.7807768415423197e-07,0.9396082758903505,8.0,0.9955635070800781,0.247526690363884,-148.29751586914062,0.02921721711754799,0.11659105867147444,1.0001879672927316e-05,-91.06214904785155,9.999999747378752e-06,0.0013182518305256963,13393.3623046875,-20810.630859375,24748.01953125,-57.235366821289055
41.0,19.862287521362305,15093.830078125,24357.466796875,-24357.466796875,28655.015625,-58.2143440246582,1.0,1.8272999113833066e-07,0.9380751848220824,8.0,0.9959951043128968,0.2866743803024292,-148.79501342773435,0.04026945680379868,0.13875293731689453,1.0004335308622103e-05,-90.58068084716797,9.999999747378752e-06,0.001256377319805324,15093.830078125,-24357.466796875,28655.015625,-58.2143440246582
42.0,15.782828330993652,17435.328125,29070.388671875,-29070.388671875,33898.0546875,-59.04625701904297,1.0,1.4115060764652299e-07,0.923385977745056,8.0,0.9964751601219176,0.33914396166801447,-149.22311401367188,0.0572185143828392,0.16666676104068756,1.0004820069298148e-05,-90.17687225341795,9.999999747378752e-06,0.0014335057931020856,17435.328125,-29070.388671875,33898.0546875,-59.04625701904297
43.0,12.466754913330078,20746.431640625,35249.83203125,-35249.83203125,40901.89453125,-59.520893096923835,1.0,1.3720269009809274e-07,0.8957107663154602,8.0,0.9965946078300477,0.4090679585933685,-149.3987579345703,0.08229095488786697,0.19874669611454007,1.0001198461395688e-05,-89.87787628173827,9.999999747378752e-06,0.0016162084648385644,20746.431640625,-35249.83203125,40901.89453125,-59.520893096923835
44.0,9.973403930664062,25040.376953125,42431.41796875,-42431.41796875,49269.1171875,-59.45354461669922,1.0,1.4711407914091978e-07,0.8552392721176147,8.0,0.9964412450790403,0.49261525273323054,-149.09646606445312,0.11211779713630676,0.22487893700599673,9.998460882343354e-06,-89.6429214477539,9.999999747378752e-06,0.0019448680104687808,25040.376953125,-42431.41796875,49269.1171875,-59.45354461669922
45.0,7.878151416778564,30578.568359375,50034.02734375,-50034.02734375,58638.3203125,-58.56858444213867,1.0,1.7487649017766674e-07,0.8062546849250793,8.0,0.9966635704040528,0.5865141153335571,-148.02403259277344,0.13899436593055725,0.234175905585289,1.0002231647376902e-05,-89.45543670654298,9.999999747378752e-06,0.001931775826960802,30578.568359375,-50034.02734375,58638.3203125,-58.56858444213867
46.0,6.275100231170654,36599.12890625,56665.31640625,-56665.31640625,67457.0546875,-57.14229583740234,1.0,1.5876669579029112e-07,0.7504199743270874,8.0,0.9974028468132019,0.6750708818435669,-146.4415740966797,0.15304674208164215,0.22402629256248477,1.0007417586166412e-05,-89.29927825927734,9.999999747378752e-06,0.0017361663049086928,36599.12890625,-56665.31640625,67457.0546875,-57.14229583740234
47.0,5.013369083404541,42692.125,62726.2578125,-62726.2578125,75876.21875,-55.76040267944336,1.0,1.5024433253074676e-07,0.6825787425041199,8.0,0.9987693428993224,0.7598017454147338,-144.93994140625,0.1569186300039291,0.20407754182815552,1.001370037556626e-05,-89.17955017089844,9.999999747378752e-06,0.0014014646876603365,42692.125,-62726.2578125,75876.21875,-55.76040267944336
