# point,freq,zreal,reflected_zimag,zimag,zmod,zphz,zsig,Idc,Vdc,ie_range,gain,vmod,vphz,vsig,vthd,imod,iphz,isig,ithd,zreal_drift,zimag_drift,zmod_drift,zphz_drift
0.0,250019.53125,3894.099853515625,-521.0254516601562,521.0254516601562,3928.801513671875,7.620839118957519,1.0,2.41870850459236e-07,0.08242075145244598,8.0,0.10702990740537643,0.004204992204904556,-96.09213256835936,0.0006213951273821294,0.11342937499284744,1.070299049388268e-06,-103.71297454833984,9.999999747378752e-06,0.1846401393413544,3894.099853515625,521.0254516601562,3928.801513671875,7.620839118957519
1.0,198691.40625,3877.107666015625,-428.26879882812494,428.26879882812494,3900.689453125,6.303389072418213,1.0,5.125582447362832e-07,0.25301459431648254,8.0,0.05357000231742858,0.019523510709404945,108.32398986816406,0.0037935634609311815,0.18067418038845065,5.005143520975253e-06,102.02059173583984,9.999999747378752e-06,0.1460246443748474,3877.107666015625,428.26879882812494,3900.689453125,6.303389072418213
2.0,157792.96875,3902.970947265625,-285.47723388671875,285.47723388671875,3913.3974609375,4.18336820602417,1.0,4.181309236628295e-07,0.3592113256454468,8.0,0.06458558887243271,0.023775577545166012,112.8728256225586,0.003980098757892847,0.1509668231010437,6.075430974306073e-06,108.68946075439452,9.054487577486724e-07,0.13870131969451904,3902.970947265625,285.47723388671875,3913.3974609375,4.18336820602417
3.0,125332.03125,3866.199462890625,-202.0556182861328,202.0556182861328,3871.4755859375,2.9916746616363525,1.0,4.350160622834665e-07,0.43923139572143555,8.0,0.07932677865028381,0.028889354318380356,-167.66983032226562,0.0041968547739088535,0.1346190869808197,7.462103894795291e-06,-170.66151428222656,1.0033129456132883e-06,0.1278505176305771,3866.199462890625,202.0556182861328,3871.4755859375,2.9916746616363525
4.0,99550.78125,3838.7202148437505,-114.99141693115234,114.99141693115234,3840.442138671875,1.715820074081421,1.0,3.1341585327027133e-07,0.5003997683525084,8.0,0.095997117459774,0.034680142998695374,-129.3524627685547,0.0019473792053759096,0.047001205384731286,9.03024738363456e-06,-131.0682830810547,9.999999747378752e-06,0.04563911259174346,3838.7202148437505,114.99141693115234,3840.442138671875,1.715820074081421
5.0,79160.15625,3847.76171875,-52.091133117675774,52.091133117675774,3848.1142578125,0.775624930858612,1.0,2.9938951229269156e-07,0.5392350554466248,8.0,0.12089747935533524,0.04376295581459999,-7.115792751312256,0.002740732626989484,0.05981260538101196,1.1372572771506384e-05,-7.8914170265197745,9.999999747378752e-06,0.0589275024831295,3847.76171875,52.091133117675774,3848.1142578125,0.775624930858612
6.0,62871.09375,3858.6611328125,6.574864387512207,-6.574864387512207,3858.666748046875,-0.09762754291296004,1.0,2.7451488904262083e-07,0.5499378442764281,8.0,0.1710728406906128,0.054601062089204795,-31.59754753112793,0.003937391098588705,0.06900864094495773,1.4150240531307643e-05,-31.499923706054688,1.0066833056043831e-06,0.06913405656814575,3858.6611328125,-6.574864387512207,3858.666748046875,-0.09762754291296004
7.0,49980.46875,3871.442138671875,60.93311309814453,-60.93311309814453,3871.921630859375,-0.9017110466957091,1.0,2.1781559667033437e-07,0.5577881932258606,8.0,0.27943897247314453,0.06324590742588043,164.29193115234375,0.0035586627200245857,0.05613013356924057,1.6334501196979545e-05,165.1936492919922,1.014983354252763e-06,0.06124935671687126,3871.442138671875,-60.93311309814453,3871.921630859375,-0.9017110466957091
8.0,39667.96875,3886.8139648437505,116.33981323242188,-116.33981323242188,3888.5546875,-1.7144609689712524,1.0,1.83787065566321e-07,0.551367998123169,8.0,0.46114885807037354,0.06417153030633926,-84.01335144042967,0.0015452385414391756,0.02188911475241184,1.6502668586326763e-05,-82.29888153076173,9.999999747378752e-06,0.024337204173207283,3886.8139648437505,-116.33981323242188,3888.5546875,-1.7144609689712524
9.0,31582.03125,3903.560302734375,174.76307678222656,-174.76307678222656,3907.470458984375,-2.5634303092956543,1.0,1.6945935499279585e-07,0.5367968082427979,8.0,0.5836834907531737,0.04945747926831245,50.93335723876953,0.0009029903449118136,0.004655997734516859,1.26571603686898e-05,53.49678421020508,9.999999747378752e-06,0.012884538620710371,3903.560302734375,-174.76307678222656,3907.470458984375,-2.5634303092956543
10.0,25019.53125,3927.499755859375,230.5891265869141,-230.5891265869141,3934.262939453125,-3.360059976577759,1.0,1.6073251174475445e-07,0.5356378555297852,8.0,0.6673052906990051,0.04497907683253288,-146.61514282226562,0.0008389348513446749,0.01926877535879612,1.1432656719989607e-05,-143.2550811767578,9.999999747378752e-06,0.015338940545916556,3927.499755859375,-230.5891265869141,3934.262939453125,-3.360059976577759
11.0,19863.28125,3954.607421875,292.0083923339844,-292.0083923339844,3965.373779296875,-4.223059177398682,1.0,1.810711864891346e-07,0.5421491265296936,8.0,0.741947829723358,0.04408927261829376,-133.58489990234375,0.0010248672915622592,0.0018938101129606368,1.1118566362711135e-05,-129.36184692382812,9.999999747378752e-06,0.0034362252335995436,3954.607421875,-292.0083923339844,3965.373779296875,-4.223059177398682
12.0,15682.8701171875,3982.511962890625,358.38299560546875,-358.38299560546875,3998.604736328125,-5.142149925231934,1.0,1.838978818113901e-07,0.5493787527084352,8.0,0.8064769506454467,0.04346373677253723,86.44922637939453,0.0008505769656039774,0.001489040907472372,1.0869725883821957e-05,91.59137725830078,9.999999747378752e-06,0.00380811863578856,3982.511962890625,-358.38299560546875,3998.604736328125,-5.142149925231934
13.0,12597.65625,3996.9887695312495,432.04495239257807,-432.04495239257807,4020.271484375,-6.169297695159912,1.0,1.7342867408842721e-07,0.5641804933547974,8.0,0.8570237755775452,0.042722463607788086,5.162388324737549,0.0009786355076357722,0.0020047251600772142,1.0626760740706231e-05,11.33168601989746,9.999999747378752e-06,0.00316096399910748,3996.9887695312495,-432.04495239257807,4020.271484375,-6.169297695159912
14.0,9895.8330078125,4047.3989257812495,519.931640625,-519.931640625,4080.6577148437505,-7.320164680480957,1.0,1.736992913947688e-07,0.5742762088775635,8.0,0.895046591758728,0.04261700436472893,11.516035079956055,0.0005456966464407742,0.01436283066868782,1.0443661267345304e-05,18.836200714111328,9.999999747378752e-06,0.003681200323626399,4047.3989257812495,-519.931640625,4080.6577148437505,-7.320164680480957
15.0,7910.15625,4098.52587890625,618.7864379882812,-618.7864379882812,4144.97412109375,-8.585548400878906,1.0,1.7356884995933797e-07,0.588632345199585,8.0,0.921084225177765,0.04265554994344711,4.162829875946045,0.0008343753870576621,0.0017387428088113663,1.0290907994203737e-05,12.748379707336424,9.999999747378752e-06,0.004060082603245974,4098.52587890625,-618.7864379882812,4144.97412109375,-8.585548400878906
16.0,6307.87060546875,4144.69921875,733.4562377929686,-733.4562377929686,4209.09619140625,-10.03530979156494,1.0,1.7967562371268286e-07,0.6038838624954224,8.0,0.9414748549461364,0.0430227518081665,82.61260223388672,0.0006161830970086157,0.002052943687886,1.0221376214758491e-05,92.64791107177734,9.999999747378752e-06,0.002614533295854926,4144.69921875,-733.4562377929686,4209.09619140625,-10.03530979156494
17.0,4973.3232421875,4212.1484375,865.7440185546875,-865.7440185546875,4300.1982421875,-11.614541053771973,1.0,1.7190146195389389e-07,0.6203612685203552,8.0,0.9260472059249877,0.042297326028347015,-36.89803314208984,0.0005076716188341379,0.0007858183234930038,9.836133358476218e-06,-25.283493041992188,9.999999747378752e-06,0.0005476251826621592,4212.1484375,-865.7440185546875,4300.1982421875,-11.614541053771973
18.0,3944.3598632812495,4284.56494140625,1012.9379272460936,-1012.9379272460936,4402.67431640625,-13.301389694213867,1.0,1.728666205735863e-07,0.6340321898460388,8.0,0.953890025615692,0.04535046964883804,68.47523498535156,0.00044430911657400424,0.0009692617459222673,1.0300663234374952e-05,81.77661895751953,9.999999747378752e-06,0.0006966890650801361,4284.56494140625,-1012.9379272460936,4402.67431640625,-13.301389694213867
19.0,3144.054931640625,4369.36962890625,1181.376708984375,-1181.376708984375,4526.26123046875,-15.1297025680542,1.0,1.7644008210027098e-07,0.6461718082427979,8.0,0.9680248498916626,0.0459333211183548,106.25365447998045,0.0007132918108254671,0.013155958615243433,1.0148180990654508e-05,121.38334655761717,9.999999747378752e-06,0.0008124475134536624,4369.36962890625,-1181.376708984375,4526.26123046875,-15.1297025680542
20.0,2488.426025390625,4472.166015625,1385.8604736328125,-1385.8604736328125,4681.9736328125,-17.217464447021484,1.0,1.6217228449022514e-07,0.657290518283844,8.0,0.9750753641128541,0.047160744667053216,173.29869079589844,0.0005795962060801685,0.010687144473195076,1.0072833902086131e-05,-169.48385620117188,9.999999747378752e-06,0.00087446830002591,4472.166015625,-1385.8604736328125,4681.9736328125,-17.217464447021484
21.0,1976.6566162109373,4589.05712890625,1615.455322265625,-1615.455322265625,4865.09423828125,-19.393260955810543,1.0,1.4600689723920368e-07,0.6692638993263245,8.0,0.981819748878479,0.04898744821548462,-117.68225860595705,0.0007862692582421005,0.0015610732370987535,1.0069167728943285e-05,-98.28900146484376,9.999999747378752e-06,0.0010823411867022514,4589.05712890625,-1615.455322265625,4865.09423828125,-19.393260955810543
22.0,1582.03125,4724.60546875,1862.6741943359373,-1862.6741943359373,5078.5283203125,-21.516822814941406,1.0,1.4376043111496986e-07,0.682891309261322,8.0,0.9865143895149232,0.051028113812208176,119.14807891845705,0.0006882860907353461,0.0019410767126828432,1.004781552182976e-05,140.66488647460935,9.999999747378752e-06,0.001151261036284268,4724.60546875,-1862.6741943359373,5078.5283203125,-21.516822814941406
23.0,1253.6336669921875,4889.4609375,2171.21044921875,-2171.21044921875,5349.8583984375,-23.94405746459961,1.0,1.4560922068085347e-07,0.6905080676078796,8.0,0.9882484078407288,0.05359262228012085,143.81411743164062,0.0006176323513500392,0.002379907760769129,1.0017577551479915e-05,167.7581787109375,9.999999747378752e-06,0.0011445592390373347,4889.4609375,-2171.21044921875,5349.8583984375,-23.94405746459961
24.0,996.09375,5079.1513671875,2531.537109375,-2531.537109375,5675.0732421875,-26.492462158203125,1.0,1.3537137988350878e-07,0.6949552893638611,8.0,0.990432858467102,0.056876175105571754,-17.877702713012695,0.0006053505931049584,0.0032843740191310644,1.002210410661064e-05,8.614761352539062,9.999999747378752e-06,0.0015056983102113008,5079.1513671875,-2531.537109375,5675.0732421875,-26.492462158203125
25.0,790.028076171875,5301.99169921875,2960.19873046875,-2960.19873046875,6072.3876953125,-29.175418853759766,1.0,1.188082308090088e-07,0.6982382535934448,8.0,0.9926354289054871,0.06085892766714096,-138.46835327148435,0.0003315282228868454,0.0049552409909665585,1.0022238711826503e-05,-109.29293823242188,9.999999747378752e-06,0.0011938238749280572,5301.99169921875,-2960.19873046875,6072.3876953125,-29.175418853759766
26.0,628.8109741210938,5562.61181640625,3457.20263671875,-3457.20263671875,6549.419921875,-31.86124420166016,1.0,1.0823764995393505e-07,0.6997153162956238,8.0,0.9942496418952941,0.06560070067644119,71.04126739501953,0.0008544224547222256,0.006747129373252392,1.0016261512646452e-05,102.90251159667967,9.999999747378752e-06,0.001495121861808002,5562.61181640625,-3457.20263671875,6549.419921875,-31.86124420166016
27.0,496.3235168457031,5573.63525390625,4194.74169921875,-4194.74169921875,6975.7626953125,-36.965274810791016,1.0,9.912459120187121e-08,0.7061649560928345,8.0,0.9682239890098573,0.0679316371679306,98.50535583496092,0.000616666569840163,0.006415531039237976,9.738238077261485e-06,135.4706268310547,9.999999747378752e-06,0.0005140791181474924,5573.63525390625,-4194.74169921875,6975.7626953125,-36.965274810791016
28.0,395.3313293457031,5981.13623046875,4906.08642578125,-4906.08642578125,7735.86962890625,-39.36065673828125,1.0,1.097799398053212e-07,0.7004683017730713,8.0,0.986874222755432,0.07884879410266876,60.84016418457031,0.0010185083374381063,0.010533887892961502,1.0192623449256644e-05,100.20082092285156,9.999999747378752e-06,0.0006640939391218126,5981.13623046875,-4906.08642578125,7735.86962890625,-39.36065673828125
29.0,315.5048217773437,6401.6337890625,5592.8779296875,-5592.8779296875,8500.6591796875,-41.14254760742188,1.0,1.1047100656469411e-07,0.7101824879646301,8.0,0.9955419301986694,0.08575320243835449,-173.78102111816406,0.0013859792379662395,0.01589041016995907,1.0087829650728963e-05,-132.6384735107422,9.999999747378752e-06,0.0009106600191444159,6401.6337890625,-5592.8779296875,8500.6591796875,-41.14254760742188
30.0,249.33511352539065,6885.42138671875,6425.8388671875,-6425.8388671875,9418.0908203125,-43.02260208129882,1.0,1.0533256755707045e-07,0.7187192440032959,8.0,0.9982314705848692,0.09443534910678864,49.3349609375,0.0021544217597693205,0.02231752313673496,1.0027016287494916e-05,92.35755920410156,9.999999747378752e-06,0.0011321178171783684,6885.42138671875,-6425.8388671875,9418.0908203125,-43.02260208129882
31.0,198.6228790283203,7522.47998046875,7685.618164062499,-7685.618164062499,10754.3681640625,-45.614593505859375,1.0,1.0788222937208049e-07,0.6999260783195496,8.0,0.9982827305793761,0.10754920542240141,32.14588928222656,0.003126144176349044,0.02861170656979084,1.0000513611885252e-05,77.76048278808594,9.999999747378752e-06,0.0013277630787342787,7522.47998046875,-7685.618164062499,10754.3681640625,-45.614593505859375
32.0,158.005615234375,8240.0498046875,9099.0703125,-9099.0703125,12275.646484375,-47.83624649047852,1.0,1.1426931223468273e-07,0.6886983513832092,8.0,0.994470238685608,0.12228765338659286,87.95060729980467,0.004411695990711451,0.03589092940092087,9.961809155356605e-06,135.7868499755859,9.999999747378752e-06,0.001636617467738688,8240.0498046875,-9099.0703125,12275.646484375,-47.83624649047852
33.0,125.5580368041992,8976.95703125,10481.845703125,-10481.845703125,13800.5380859375,-49.42229080200195,1.0,1.1181420234152029e-07,0.6941123008728027,8.0,0.9836955666542051,0.13651014864444733,-148.57972717285156,0.006245287135243416,0.04523672163486481,9.891654372040648e-06,-99.15743255615233,9.999999747378752e-06,0.0016388773219659925,8976.95703125,-10481.845703125,13800.5380859375,-49.42229080200195
34.0,99.73403930664062,9600.951171875,11282.55859375,-11282.55859375,14814.66796875,-49.603710174560554,1.0,1.314945023977998e-07,0.740474760532379,8.0,0.9900500774383546,0.14910368621349335,-146.50363159179688,0.00911801587790251,0.05962078273296356,1.0064598427561576e-05,-96.89991760253906,9.999999747378752e-06,0.0017149198101833463,9600.951171875,-11282.55859375,14814.66796875,-49.603710174560554
35.0,78.78150939941406,10553.7978515625,13125.673828125,-13125.673828125,16842.384765625,-51.19871139526367,1.0,1.5569966649309208e-07,0.7428839802742003,8.0,0.9911665320396424,0.16861379146575928,-146.0789337158203,0.012342497706413267,0.07139795273542404,1.0011276572186034e-05,-94.88021850585936,9.999999747378752e-06,0.0016234724316745996,10553.7978515625,-13125.673828125,16842.384765625,-51.19871139526367
36.0,62.919464111328125,11526.943359375,15069.671875,-15069.671875,18972.755859375,-52.587261199951165,1.0,1.5144246390264018e-07,0.7482647895812988,8.0,0.9920402765274048,0.18989482522010803,-145.93133544921875,0.016291527077555656,0.08373519778251648,1.0008815479523037e-05,-93.34407806396483,9.999999747378752e-06,0.001681801164522767,11526.943359375,-15069.671875,18972.755859375,-52.587261199951165
37.0,49.86701965332031,12815.5302734375,17350.4921875,-17350.4921875,21570.2890625,-53.5494499206543,1.0,1.6444981554286642e-07,0.7523382306098939,8.0,0.992875337600708,0.21588444709777832,-147.077392578125,0.021315721794962883,0.09753531962633134,1.000841712084366e-05,-93.52794647216797,9.999999747378752e-06,0.0016931938007473943,12815.5302734375,-17350.4921875,21570.2890625,-53.5494499206543
38.0,39.72457504272461,14143.1328125,19827.98828125,-19827.98828125,24355.232421875,-54.50006484985352,1.0,1.886201914658159e-07,0.7578753232955933,8.0,0.9935228228569031,0.24371114373207087,-147.0467987060547,0.0274551585316658,0.11127487570047379,1.0006521733885164e-05,-92.54674530029295,9.999999747378752e-06,0.0015386106679216027,14143.1328125,-19827.98828125,24355.232421875,-54.50006484985352
39.0,31.459732055664062,15656.248046875,22525.78125,-22525.78125,27432.259765625,-55.19927597045898,1.0,2.0175647819087322e-07,0.7668783664703369,8.0,0.994002878665924,0.27445515990257263,-146.93228149414062,0.034819770604372025,0.12535278499126434,1.0004831892729271e-05,-91.73299407958984,9.999999747378752e-06,0.0019163365941494703,15656.248046875,-22525.78125,27432.259765625,-55.19927597045898
40.0,24.93350982666016,17366.439453125,25352.83984375,-25352.83984375,30730.435546875,-55.589252471923835,1.0,2.058545902627884e-07,0.7792410850524902,8.0,0.9948880076408385,0.3075779974460602,-146.71229553222656,0.04409390687942505,0.1416444629430771,1.000890461000381e-05,-91.123046875,9.999999747378752e-06,0.001883880468085408,17366.439453125,-25352.83984375,30730.435546875,-55.589252471923835
41.0,19.862287521362305,19284.81640625,28499.599609375,-28499.599609375,34411.2109375,-55.91497802734375,1.0,1.9618978797097952e-07,0.7874808311462401,8.0,0.9953038692474365,0.3442559242248535,-146.526611328125,0.054726939648389816,0.157074436545372,1.00041797850281e-05,-90.61163330078125,9.999999747378752e-06,0.0018639827612787483,19284.81640625,-28499.599609375,34411.2109375,-55.91497802734375
42.0,15.782828330993652,21629.8046875,32231.580078125,-32231.580078125,38816.53125,-56.13542938232422,1.0,1.7380823180701555e-07,0.7890315055847168,8.0,0.9959560632705688,0.3884196579456329,-146.3573760986328,0.06762247532606125,0.17202019691467285,1.0006552656705024e-05,-90.22194671630861,9.999999747378752e-06,0.0018414931837469335,21629.8046875,-32231.580078125,38816.53125,-56.13542938232422
43.0,12.466754913330078,24708.306640625,36854.01953125,-36854.01953125,44370.25,-56.16062927246094,1.0,1.433593581623427e-07,0.7792764902114867,8.0,0.9965161085128784,0.44395199418067927,-146.06430053710935,0.08409561216831206,0.1871716529130936,1.0005623153119812e-05,-89.9036865234375,9.999999747378752e-06,0.0017089247703552246,24708.306640625,-36854.01953125,44370.25,-56.16062927246094
44.0,9.973403930664062,28367.087890625,41984.0703125,-41984.0703125,50669.0625,-55.95455551147461,1.0,1.3491019501543633e-07,0.7587474584579467,8.0,0.9968748688697816,0.5068730115890503,-145.61512756347656,0.1017526164650917,0.1983582973480225,1.000360043690307e-05,-89.66056823730467,9.999999747378752e-06,0.0017367270775139332,28367.087890625,-41984.0703125,50669.0625,-55.95455551147461
45.0,7.878151416778564,33071.234375,47993.7890625,-47993.7890625,58284.734375,-55.43031692504882,1.0,1.3984066526973038e-07,0.7217154502868652,8.0,0.9971078038215635,0.5829835534095764,-144.8939208984375,0.11892380565404892,0.2015734165906906,1.0002336239267606e-05,-89.46360778808594,9.999999747378752e-06,0.0016774223186075687,33071.234375,-47993.7890625,58284.734375,-55.43031692504882
46.0,6.275100231170654,38083.046875,53817.4296875,-53817.4296875,65929.0078125,-54.71547317504882,1.0,1.589853297900845e-07,0.6774256825447083,8.0,0.9974992275238035,0.6595488786697388,-144.02403259277344,0.1310817152261734,0.19639070332050323,1.0003926036006304e-05,-89.3085708618164,9.999999747378752e-06,0.001490249065682292,38083.046875,-53817.4296875,65929.0078125,-54.71547317504882
47.0,5.013369083404541,43099.78125,59069.8828125,-59069.8828125,73122.1015625,-53.88399505615234,1.0,1.5542669018486777e-07,0.6364879608154297,8.0,0.998864471912384,0.7322219014167786,-143.12374877929688,0.14032645523548126,0.1893729269504547,1.0013686733145732e-05,-89.23975372314453,9.999999747378752e-06,0.0012886407785117626,43099.78125,-59069.8828125,73122.1015625,-53.88399505615234
