# point,freq,zreal,reflected_zimag,zimag,zmod,zphz,zsig,Idc,Vdc,ie_range,gain,vmod,vphz,vsig,vthd,imod,iphz,isig,ithd,zreal_drift,zimag_drift,zmod_drift,zphz_drift
0.0,250019.53125,2780.55810546875,-283.0574951171875,283.0574951171875,2794.928466796875,5.812618732452393,1.0,3.4051609532070875e-07,0.01645010896027088,8.0,0.10946962237358092,0.0030595976859331127,-104.28798675537108,0.0012082806788384914,0.3684447705745697,1.0946962447633268e-06,-110.10060119628906,9.999999747378752e-06,0.18374469876289368,2780.55810546875,283.0574951171875,2794.928466796875,5.812618732452393
1.0,198691.40625,3850.476806640625,-454.0553588867188,454.0553588867188,3877.156005859375,6.725366115570068,1.0,6.211739673744888e-07,0.38600921630859375,8.0,0.05501924827694893,0.01948652230203152,138.326416015625,0.0035995387006551027,0.17746424674987793,5.0259832278243275e-06,131.6010589599609,9.999999747378752e-06,0.14754341542720795,3850.476806640625,454.0553588867188,3877.156005859375,6.725366115570068
2.0,157792.96875,3857.330810546875,-283.7073974609375,283.7073974609375,3867.75,4.206541061401367,1.0,5.089976866656798e-07,0.47324383258819586,8.0,0.06487644463777542,0.023604072630405423,160.07797241210935,0.003975595813244581,0.15429675579071045,6.102790848672157e-06,155.87142944335935,9.024554969983001e-07,0.14013563096523285,3857.330810546875,283.7073974609375,3867.75,4.206541061401367
3.0,125332.03125,3834.593505859375,-217.76634216308597,217.76634216308597,3840.7719726562495,3.250332832336426,1.0,4.642213298211573e-07,0.5351744890213013,8.0,0.07970885932445526,0.028798284009099007,128.47560119628906,0.004028808791190386,0.13241074979305267,7.498045306419954e-06,125.22528076171876,9.867276276054326e-07,0.1260538548231125,3834.593505859375,217.76634216308597,3840.7719726562495,3.250332832336426
4.0,99550.78125,3826.749267578125,-120.16688537597656,120.16688537597656,3828.635498046875,1.7986005544662476,1.0,3.260858534304134e-07,0.5639526844024657,8.0,0.0961625725030899,0.03463311865925789,97.70719146728516,0.0020747643429785967,0.04717510193586349,9.045811566466002e-06,95.9085922241211,9.999999747378752e-06,0.04558131098747253,3826.749267578125,120.16688537597656,3828.635498046875,1.7986005544662476
5.0,79160.15625,3830.7885742187505,-53.6479377746582,53.6479377746582,3831.1640625,0.8023412227630614,1.0,3.3856147751976096e-07,0.6179034113883972,8.0,0.12118922919034956,0.04367533326148986,138.9710235595703,0.0028538776095956564,0.062341000884771354,1.1400016774132382e-05,138.16867065429688,9.999999747378752e-06,0.05889562517404556,3830.7885742187505,53.6479377746582,3831.1640625,0.8023412227630614
6.0,62871.09375,3843.497314453125,2.5668020248413086,-2.5668020248413086,3843.498291015625,-0.038263823837041855,1.0,3.0531936090483214e-07,0.6540029048919678,8.0,0.17175646126270294,0.05447230115532875,129.73101806640625,0.003891604719683528,0.06886422634124756,1.41725840876461e-05,129.7692718505859,1.0162034413951915e-06,0.06971275806427002,3843.497314453125,-2.5668020248413086,3843.498291015625,-0.038263823837041855
7.0,49980.46875,3853.558349609375,58.73299789428711,-58.73299789428711,3854.005859375,-0.873190999031067,1.0,2.49718311806646e-07,0.6294070482254028,8.0,0.28099188208580017,0.06305115669965744,-63.657737731933594,0.003502954263240099,0.05457582697272301,1.635990156501066e-05,-62.78455352783203,1.0102093028763193e-06,0.060885168612003326,3853.558349609375,-58.73299789428711,3854.005859375,-0.873190999031067
8.0,39667.96875,3870.737060546875,111.41249084472656,-111.41249084472656,3872.340087890625,-1.648705005645752,1.0,2.0117174415190678e-07,0.6452887058258057,8.0,0.4629403352737426,0.06379766017198563,-82.06344604492188,0.001690680393949151,0.021611293777823448,1.647522185521666e-05,-80.41474151611328,9.999999747378752e-06,0.02374672144651413,3870.737060546875,-111.41249084472656,3872.340087890625,-1.648705005645752
9.0,31582.03125,3889.1420898437505,163.56739807128906,-163.56739807128906,3892.580078125,-2.4082951545715328,1.0,1.7340849467473163e-07,0.6504303216934204,8.0,0.5849037170410156,0.049180950969457626,25.94970321655273,0.0005288335960358381,0.004529930185526609,1.26345375974779e-05,28.357999801635746,9.999999747378752e-06,0.013502352871000767,3889.1420898437505,-163.56739807128906,3892.580078125,-2.4082951545715328
10.0,25019.53125,3908.185791015625,219.69390869140625,-219.69390869140625,3914.355712890625,-3.217426300048828,1.0,1.6980959571810675e-07,0.6553004384040833,8.0,0.6685503721237184,0.044741448014974594,145.9721221923828,0.0008038124069571494,0.016600044444203377,1.1430092854425313e-05,149.18954467773435,9.999999747378752e-06,0.015256077982485294,3908.185791015625,-219.69390869140625,3914.355712890625,-3.217426300048828
11.0,19863.28125,3934.308349609375,277.61492919921875,-277.61492919921875,3944.0908203125,-4.036247730255127,1.0,1.6651003420520283e-07,0.6592882871627808,8.0,0.7444331049919128,0.04391758143901825,-175.73080444335935,0.000879041850566864,0.0011707432568073273,1.1135033673781436e-05,-171.6945648193359,9.999999747378752e-06,0.0029098219238221645,3934.308349609375,-277.61492919921875,3944.0908203125,-4.036247730255127
12.0,15682.8701171875,3963.4140625,344.03094482421875,-344.03094482421875,3978.317138671875,-4.960934638977051,1.0,1.7363410620419018e-07,0.6639972925186157,8.0,0.8086143136024475,0.04321307688951492,97.9403839111328,0.0007500324281863869,0.0009794039651751518,1.0862148883461487e-05,102.90131378173828,9.999999747378752e-06,0.0028548575937747955,3963.4140625,-344.03094482421875,3978.317138671875,-4.960934638977051
13.0,12597.65625,3982.056884765625,408.73385620117193,-408.73385620117193,4002.9790039062495,-5.860538005828857,1.0,1.8100263332598843e-07,0.672446608543396,8.0,0.858041763305664,0.042476654052734375,4.650056838989258,0.0007536000921390951,0.0013573723845183847,1.0611261131998616e-05,10.510595321655272,9.999999747378752e-06,0.00241717416793108,3982.056884765625,-408.73385620117193,4002.9790039062495,-5.860538005828857
14.0,9895.8330078125,4032.445556640625,490.40667724609375,-490.40667724609375,4062.156494140625,-6.933986186981201,1.0,1.7455997181059502e-07,0.6765449643135071,8.0,0.8962844610214233,0.042432062327861786,-1.774725079536438,0.00038323079934343696,0.014918554574251173,1.0445697625982577e-05,5.159261226654053,9.999999747378752e-06,0.002350151306018233,4032.445556640625,-490.40667724609375,4062.156494140625,-6.933986186981201
15.0,7910.15625,4079.826416015625,589.8329467773438,-589.8329467773438,4122.24267578125,-8.22642707824707,1.0,1.8175906291162394e-07,0.6838148832321167,8.0,0.9235523939132689,0.04247654974460602,22.368331909179688,0.0010129923466593027,0.001791086047887802,1.030423300107941e-05,30.594757080078125,9.999999747378752e-06,0.0033293499145656824,4079.826416015625,-589.8329467773438,4122.24267578125,-8.22642707824707
16.0,6307.87060546875,4129.09326171875,689.24169921875,-689.24169921875,4186.22314453125,-9.4766263961792,1.0,1.829914992867998e-07,0.6901766061782837,8.0,0.942775785923004,0.042733579874038696,83.30233001708984,0.0010299725690856576,0.0015199589543044567,1.0208145795331802e-05,92.77896118164062,9.999999747378752e-06,0.00398597726598382,4129.09326171875,-689.24169921875,4186.22314453125,-9.4766263961792
17.0,4973.3232421875,4197.5546875,820.1831665039062,-820.1831665039062,4276.93408203125,-11.056035995483398,1.0,1.6927035062508367e-07,0.7020122408866881,8.0,0.9293251633644104,0.04215915128588677,-33.79029083251953,0.0007224252913147211,0.000793743587564677,9.857330041995736e-06,-22.73425483703613,9.999999747378752e-06,0.0008644927875138819,4197.5546875,-820.1831665039062,4276.93408203125,-11.056035995483398
18.0,3944.3598632812495,4270.61865234375,949.9155273437501,-949.9155273437501,4374.98828125,-12.540175437927246,1.0,1.669129119363788e-07,0.7165845036506653,8.0,0.9556382894515992,0.044988621026277535,67.68328094482422,0.0007234146469272673,0.0007611999753862619,1.0283141818945296e-05,80.2234649658203,9.999999747378752e-06,0.0007955330656841397,4270.61865234375,-949.9155273437501,4374.98828125,-12.540175437927246
19.0,3144.054931640625,4354.6806640625,1099.537109375,-1099.537109375,4491.35009765625,-14.17073345184326,1.0,1.7079628378269263e-07,0.729893386363983,8.0,0.9699141979217528,0.04558444768190384,107.31770324707033,5.777421756647527e-05,0.011336469091475008,1.0149386071134359e-05,121.48844146728516,9.999999747378752e-06,0.0009911170927807689,4354.6806640625,-1099.537109375,4491.35009765625,-14.17073345184326
20.0,2488.426025390625,4455.73388671875,1274.7890625,-1274.7890625,4634.5068359375,-15.96586799621582,1.0,1.6402424307671026e-07,0.7404291033744813,8.0,0.9792611002922058,0.0467916876077652,169.3197479248047,0.00037154322490096087,0.01271083578467369,1.0096368896483908e-05,-174.71438598632812,9.999999747378752e-06,0.0011830667499452827,4455.73388671875,-1274.7890625,4634.5068359375,-15.96586799621582
21.0,1976.6566162109373,4569.421875,1473.8492431640625,-1473.8492431640625,4801.23388671875,-17.876903533935547,1.0,1.7493373150045954e-07,0.7511780858039856,8.0,0.9842201471328736,0.048255473375320435,-121.69709014892578,9.999999747378752e-06,0.001460268278606236,1.0050640412373468e-05,-103.82018280029295,9.999999747378752e-06,0.0011735543375834823,4569.421875,-1473.8492431640625,4801.23388671875,-17.876903533935547
22.0,1582.03125,4697.20947265625,1705.5078125,-1705.5078125,4997.25244140625,-19.955432891845703,1.0,1.552470649812676e-07,0.753716230392456,8.0,0.986987888813019,0.050113055855035775,118.5914840698242,0.00038725353078916663,0.001936530345119536,1.002812132355757e-05,138.5469207763672,9.999999747378752e-06,0.0011077193776145575,4697.20947265625,-1705.5078125,4997.25244140625,-19.955432891845703
23.0,1253.6336669921875,4850.095703125,1974.0089111328125,-1974.0089111328125,5236.42431640625,-22.14652442932129,1.0,1.48497889540522e-07,0.7607588768005371,8.0,0.9908668398857117,0.05257003754377365,146.0206756591797,9.999999747378752e-06,0.0027646501548588276,1.0039300832431763e-05,168.16720581054688,9.999999747378752e-06,0.0011029158486053348,4850.095703125,-1974.0089111328125,5236.42431640625,-22.14652442932129
24.0,996.09375,5025.36083984375,2287.06640625,-2287.06640625,5521.3154296875,-24.470516204833984,1.0,1.3787526143005382e-07,0.7660955190658569,8.0,0.9926726818084717,0.05531377717852592,-14.845163345336914,0.0008440347737632691,0.003481680527329445,1.001822511170758e-05,9.625350952148436,9.999999747378752e-06,0.0016846290091052651,5025.36083984375,-2287.06640625,5521.3154296875,-24.470516204833984
25.0,790.028076171875,5223.828125,2652.080322265625,-2652.080322265625,5858.49072265625,-26.916406631469727,1.0,1.560948987844313e-07,0.7703044414520263,8.0,0.9948835372924804,0.05871538072824478,-138.8206024169922,9.999999747378752e-06,0.005380762275308371,1.0022271453635769e-05,-111.90420532226562,9.999999747378752e-06,0.0015490277437493205,5223.828125,-2652.080322265625,5858.49072265625,-26.916406631469727
26.0,628.8109741210938,5448.63330078125,3042.5859375,-3042.5859375,6240.58740234375,-29.179544448852536,1.0,1.7827899512212753e-07,0.7793247699737549,8.0,0.9962977170944212,0.06249457597732544,73.7843246459961,0.0009056268027052284,0.0074600926600396624,1.001421424007276e-05,102.96387481689452,9.999999747378752e-06,0.00129987602122128,5448.63330078125,-3042.5859375,6240.58740234375,-29.179544448852536
27.0,496.3235168457031,5426.23193359375,3663.5576171875,-3663.5576171875,6547.18603515625,-34.0255241394043,1.0,1.7565400867169958e-07,0.7918410897254944,8.0,0.9701207280158995,0.06375163793563843,102.08548736572264,0.0003088161756750196,0.0067184153012931356,9.737257641972974e-06,136.1110076904297,9.999999747378752e-06,0.0007203903514891863,5426.23193359375,-3663.5576171875,6547.18603515625,-34.0255241394043
28.0,395.3313293457031,5774.20703125,4253.2294921875,-4253.2294921875,7171.57080078125,-36.375030517578125,1.0,1.516634995368804e-07,0.7885505557060242,8.0,0.9886634349822998,0.0730864629149437,64.2230224609375,0.0011046385625377295,0.01123706717044115,1.0191138244408648e-05,100.59804534912108,9.999999747378752e-06,0.000586994516197592,5774.20703125,-4253.2294921875,7171.57080078125,-36.375030517578125
29.0,315.5048217773437,6158.22509765625,4969.5810546875,-4969.5810546875,7913.309570312499,-38.902931213378906,1.0,1.5416765108966501e-07,0.7829022407531737,8.0,0.9968746900558472,0.07979033887386322,-171.5088653564453,0.0014384005917236209,0.01642204262316227,1.0083053894049952e-05,-132.6059417724609,9.999999747378752e-06,0.0009666095720604062,6158.22509765625,-4969.5810546875,7913.309570312499,-38.902931213378906
30.0,249.33511352539065,6622.52783203125,5827.82373046875,-5827.82373046875,8821.64453125,-41.347774505615234,1.0,1.453121711847416e-07,0.7788612246513367,8.0,0.9990219473838806,0.08840645849704742,50.94172668457031,0.002051129937171936,0.02218712121248245,1.002154021989554e-05,92.2895050048828,9.999999747378752e-06,0.0009874239331111314,6622.52783203125,-5827.82373046875,8821.64453125,-41.347774505615234
31.0,198.6228790283203,7125.90234375,6816.48291015625,-6816.48291015625,9861.1826171875,-43.72866058349609,1.0,1.6222078613736812e-07,0.7751613855361937,8.0,0.9984638094902039,0.09855672717094419,33.90005111694336,0.002952951239421964,0.028987137600779533,9.99441272142576e-06,77.6287155151367,9.999999747378752e-06,0.001099920948036015,7125.90234375,-6816.48291015625,9861.1826171875,-43.72866058349609
32.0,158.005615234375,7526.91748046875,7592.89697265625,-7592.89697265625,10691.42578125,-45.250022888183594,1.0,1.7161431742351854e-07,0.7999884486198425,8.0,0.9946689009666442,0.10650789737701416,90.88835144042967,0.003980256151407957,0.03632839769124985,9.961992873286361e-06,136.1383819580078,9.999999747378752e-06,0.001270522130653262,7526.91748046875,-7592.89697265625,10691.42578125,-45.250022888183594
33.0,125.5580368041992,8099.686523437501,8773.3935546875,-8773.3935546875,11940.5751953125,-47.286487579345696,1.0,1.4316029250949214e-07,0.805845558643341,8.0,0.9857345223426819,0.11833322793245316,-146.5130615234375,0.005346044432371855,0.04432440921664237,9.910177141136957e-06,-99.22657012939453,9.999999747378752e-06,0.0014218563446775079,8099.686523437501,-8773.3935546875,11940.5751953125,-47.286487579345696
34.0,99.73403930664062,8530.318359375,9438.7705078125,-9438.7705078125,12722.2919921875,-47.89420318603516,1.0,1.1191878712679681e-07,0.8509255051612854,8.0,0.9921749234199525,0.128054141998291,-144.7411651611328,0.007139449939131737,0.0543421097099781,1.0065336027764715e-05,-96.84696197509763,9.999999747378752e-06,0.0010735513642430303,8530.318359375,-9438.7705078125,12722.2919921875,-47.89420318603516
35.0,78.78150939941406,9307.419921875,11054.01171875,-11054.01171875,14450.5791015625,-49.90279769897461,1.0,1.3158448552985647e-07,0.8535943627357483,8.0,0.9927847385406494,0.14459459483623505,-144.73687744140625,0.009696767665445805,0.06542166322469711,1.0006146112573331e-05,-94.83406829833984,9.999999747378752e-06,0.0011823057429865003,9307.419921875,-11054.01171875,14450.5791015625,-49.90279769897461
36.0,62.919464111328125,10147.6591796875,12845.2421875,-12845.2421875,16369.94921875,-51.69149017333984,1.0,1.4788123792186525e-07,0.8567267656326294,8.0,0.9931590557098388,0.1637612134218216,-144.978759765625,0.012958958745002747,0.0771820619702339,1.0003770512412302e-05,-93.28726196289062,9.999999747378752e-06,0.001214371877722442,10147.6591796875,-12845.2421875,16369.94921875,-51.69149017333984
37.0,49.86701965332031,11183.2236328125,14872.2705078125,-14872.2705078125,18607.765625,-53.058616638183594,1.0,1.6907821986933413e-07,0.8601069450378419,8.0,0.993613362312317,0.1861627548933029,-146.54383850097656,0.016915207728743553,0.08976184576749802,1.0004574505728668e-05,-93.48521423339844,9.999999747378752e-06,0.0015661496436223388,11183.2236328125,-14872.2705078125,18607.765625,-53.058616638183594
38.0,39.72457504272461,12277.0234375,17048.673828125,-17048.673828125,21009.107421875,-54.241737365722656,1.0,1.7751946757016412e-07,0.8676139712333678,8.0,0.9946652054786682,0.21031346917152405,-146.73712158203125,0.022109847515821457,0.10383833944797516,1.0010586265707389e-05,-92.49538421630861,9.999999747378752e-06,0.0014471074100583792,12277.0234375,-17048.673828125,21009.107421875,-54.241737365722656
39.0,31.459732055664062,13646.880859375,19690.009765625,-19690.009765625,23956.916015625,-55.27469253540039,1.0,1.8612409746765482e-07,0.8710315823554992,8.0,0.9947742819786072,0.2395954430103302,-146.9853057861328,0.028707778081297874,0.1183924600481987,1.0001096597989088e-05,-91.71061706542967,9.999999747378752e-06,0.0014861111994832754,13646.880859375,-19690.009765625,23956.916015625,-55.27469253540039
40.0,24.93350982666016,15229.7236328125,22543.02734375,-22543.02734375,27205.37890625,-55.957645416259766,1.0,2.0928719379753602e-07,0.8769840002059937,8.0,0.9956795573234558,0.2723013460636139,-147.05422973632812,0.0375252328813076,0.13615372776985168,1.0009100151364692e-05,-91.09658050537107,9.999999747378752e-06,0.0013909871922805903,15229.7236328125,-22543.02734375,27205.37890625,-55.957645416259766
41.0,19.862287521362305,17073.27734375,25830.5390625,-25830.5390625,30963.1015625,-56.53639221191406,1.0,2.1402843231044247e-07,0.878032147884369,8.0,0.9958157539367677,0.30967333912849426,-147.12705993652344,0.04835269972681999,0.15426407754421234,1.0001367627410218e-05,-90.59066772460936,9.999999747378752e-06,0.0016969039570540188,17073.27734375,-25830.5390625,30963.1015625,-56.53639221191406
42.0,15.782828330993652,19423.640625,29779.5234375,-29779.5234375,35554.15234375,-56.88567352294922,1.0,2.0250396914889282e-07,0.8722761869430542,8.0,0.996159255504608,0.3556642234325409,-147.09060668945312,0.06237094849348068,0.1732635796070099,1.0003449460782576e-05,-90.2049331665039,9.999999747378752e-06,0.001781377475708723,19423.640625,-29779.5234375,35554.15234375,-56.88567352294922
43.0,12.466754913330078,22514.3125,34714.50390625,-34714.50390625,41376.21484375,-57.03431701660156,1.0,1.6055933826919502e-07,0.8554294705390929,8.0,0.9966412186622621,0.41396230459213257,-146.92239379882812,0.0809667408466339,0.193256750702858,1.0004838259192184e-05,-89.88807678222656,9.999999747378752e-06,0.00185136788059026,22514.3125,-34714.50390625,41376.21484375,-57.03431701660156
44.0,9.973403930664062,26281.033203125,40275.1640625,-40275.1640625,48091.38671875,-56.87406539916992,1.0,1.158973859105572e-07,0.8268768191337585,8.0,0.9968151450157164,0.4809978306293488,-146.5265960693359,0.10137850046157836,0.20826321840286252,1.0001745067711452e-05,-89.65253448486328,9.999999747378752e-06,0.0016906664241105318,26281.033203125,-40275.1640625,48091.38671875,-56.87406539916992
45.0,7.878151416778564,31163.205078125,46682.765625,-46682.765625,56128.65625,-56.27480316162109,1.0,1.461755516629637e-07,0.7827712893486024,8.0,0.9970256090164183,0.5614051222801208,-145.72824096679688,0.1212938204407692,0.2134873420000076,1.0002111594076268e-05,-89.45343780517578,9.999999747378752e-06,0.0016072803409770131,31163.205078125,-46682.765625,56128.65625,-56.27480316162109
46.0,6.275100231170654,36402.62890625,52848.49609375,-52848.49609375,64172.5390625,-55.44049835205078,1.0,1.7862005563529237e-07,0.7299374341964722,8.0,0.9973784089088441,0.6419525146484375,-144.73855590820312,0.13441745936870575,0.2069111317396164,1.000353859126335e-05,-89.29804992675781,9.999999747378752e-06,0.00144915038254112,36402.62890625,-52848.49609375,64172.5390625,-55.44049835205078
47.0,5.013369083404541,41163.95703125,58103.01171875,-58103.01171875,71206.9609375,-54.683757781982415,1.0,1.6490665188939602e-07,0.6922963857650757,8.0,0.9980117678642274,0.7125217914581299,-143.84402465820312,0.14427655935287476,0.20009022951126096,1.000634983938653e-05,-89.16027069091795,9.999999747378752e-06,0.001286509446799755,41163.95703125,-58103.01171875,71206.9609375,-54.683757781982415
