# point,freq,zreal,reflected_zimag,zimag,zmod,zphz,zsig,Idc,Vdc,ie_range,gain,vmod,vphz,vsig,vthd,imod,iphz,isig,ithd,zreal_drift,zimag_drift,zmod_drift,zphz_drift
0.0,250019.53125,3740.098388671875,-500.0686950683594,500.0686950683594,3773.381103515625,7.615548133850098,1.0,3.3026694268301076e-07,0.28005310893058777,8.0,0.11111142486333848,0.004192657303065062,159.52749633789062,0.0006625970127061009,0.14162661135196683,1.1111142157460563e-06,151.9119415283203,9.999999747378752e-06,0.13524380326271057,3740.098388671875,500.0686950683594,3773.381103515625,7.615548133850098
1.0,198691.40625,3711.665283203125,-411.75051879882807,411.75051879882807,3734.433837890625,6.330177783966064,1.0,4.847452146350407e-07,0.45395210385322565,8.0,0.057465508580207825,0.019314048811793327,72.77004241943358,0.0040102205239236355,0.1824216991662979,5.171881184651284e-06,66.43986511230469,9.999999747378752e-06,0.14695051312446594,3711.665283203125,411.75051879882807,3734.433837890625,6.330177783966064
2.0,157792.96875,3764.417236328125,-258.77493286132807,258.77493286132807,3773.301025390625,3.932461023330688,1.0,4.897790404356783e-07,0.5283945202827454,8.0,0.0664854496717453,0.02359878085553646,129.3516845703125,0.0040410696528851995,0.15145188570022583,6.254147137951804e-06,125.41922760009764,9.030001706378244e-07,0.14008377492427823,3764.417236328125,258.77493286132807,3773.301025390625,3.932461023330688
3.0,125332.03125,3665.1977539062495,-206.4388732910156,206.4388732910156,3671.0068359375,3.2237257957458496,1.0,5.159098463991542e-07,0.6138036251068115,8.0,0.08257006853818893,0.02851341851055622,126.82281494140624,0.004061233717948198,0.13328813016414642,7.767192983010318e-06,123.59909057617188,9.379617722515833e-07,0.11763054132461548,3665.1977539062495,206.4388732910156,3671.0068359375,3.2237257957458496
4.0,99550.78125,3676.811279296875,-117.94057464599608,117.94057464599608,3678.702392578125,1.8372389078140257,1.0,3.2073751299321884e-07,0.6670350432395935,8.0,0.09921229630708694,0.03433220088481903,-66.34310913085938,0.0017770016565918922,0.04726457223296165,9.332692570751535e-06,-68.18035125732422,9.999999747378752e-06,0.04515101388096809,3676.811279296875,117.94057464599608,3678.702392578125,1.8372389078140257
5.0,79160.15625,3685.513671875,-55.61405944824219,55.61405944824219,3685.933349609375,0.864522397518158,1.0,3.253412046433368e-07,0.7099329233169556,8.0,0.12499178946018218,0.04333815723657608,-16.291135787963867,0.002645993372425437,0.05945258587598801,1.1757715583371464e-05,-17.155658721923828,9.999999747378752e-06,0.05848787724971771,3685.513671875,55.61405944824219,3685.933349609375,0.864522397518158
6.0,62871.09375,3696.761962890625,0.07733324915170668,-0.07733324915170668,3696.761962890625,-0.001198581070639193,1.0,2.791236681787268e-07,0.7303680777549743,8.0,0.18171487748622892,0.05374406278133392,-62.91186141967773,0.003734697354957461,0.0682140663266182,1.4538145478582008e-05,-62.910667419433594,1.0050083574242308e-06,0.0678941085934639,3696.761962890625,-0.07733324915170668,3696.761962890625,-0.001198581070639193
7.0,49980.46875,3710.0771484375,52.84616470336913,-52.84616470336913,3710.453369140625,-0.8160632252693176,1.0,2.309280233703248e-07,0.7342230081558228,8.0,0.30145913362503046,0.061555229127407074,-123.09100341796876,0.003858565120026469,0.0622270181775093,1.6589678125455976e-05,-122.27494812011717,9.544748991174856e-07,0.05679282173514366,3710.0771484375,-52.84616470336913,3710.453369140625,-0.8160632252693176
8.0,39667.96875,3727.0234375,102.31409454345705,-102.31409454345705,3728.427490234375,-1.5724865198135376,1.0,1.7804607921334537e-07,0.7308427095413208,8.0,0.48669126629829407,0.06019366532564163,-85.26972198486328,0.0012433447409421203,0.01526988297700882,1.61445186677156e-05,-83.69723510742188,9.999999747378752e-06,0.018116114661097527,3727.0234375,-102.31409454345705,3728.427490234375,-1.5724865198135376
9.0,31582.03125,3747.8530273437505,148.1129913330078,-148.1129913330078,3750.778564453125,-2.263118505477905,1.0,1.727640892568161e-07,0.7217072248458862,8.0,0.5961942672729492,0.04594684019684792,-29.62432289123535,0.0003033637476619333,0.004516171291470528,1.22499477583915e-05,-27.361204147338867,9.999999747378752e-06,0.013195879757404327,3747.8530273437505,-148.1129913330078,3750.778564453125,-2.263118505477905
10.0,25019.53125,3769.224853515625,201.76445007324216,-201.76445007324216,3774.62109375,-3.0640859603881836,1.0,1.561777196457115e-07,0.7248613238334655,8.0,0.6797427535057068,0.0430358313024044,-155.35858154296875,0.0009205752867273985,0.019002577289938927,1.1401363735785708e-05,-152.29449462890625,9.999999747378752e-06,0.015337473712861536,3769.224853515625,-201.76445007324216,3774.62109375,-3.0640859603881836
11.0,19863.28125,3793.349853515625,258.3492126464844,-258.3492126464844,3802.1372070312495,-3.8961598873138423,1.0,1.928674606688219e-07,0.7258596420288086,8.0,0.7545278072357178,0.042204469442367554,155.9575958251953,0.0008144935127347707,0.001738526625558734,1.1100196388724724e-05,159.8537445068359,9.999999747378752e-06,0.003290219698101282,3793.349853515625,-258.3492126464844,3802.1372070312495,-3.8961598873138423
12.0,15682.8701171875,3826.5805664062495,314.6227111816406,-314.6227111816406,3839.492919921875,-4.700305461883545,1.0,2.0297795799706367e-07,0.728485882282257,8.0,0.8177272081375122,0.04161089658737183,83.31633758544922,9.999999747378752e-06,0.0016664181603118775,1.0837601621460635e-05,88.01663970947266,9.999999747378752e-06,0.004759250208735466,3826.5805664062495,-314.6227111816406,3839.492919921875,-4.700305461883545
13.0,12597.65625,3835.03125,349.6366271972656,-349.6366271972656,3850.936279296875,-5.209208011627196,1.0,2.236265004285088e-07,0.7301830649375916,8.0,0.8685476183891296,0.04090265929698944,-1.1484647989273071,0.00020658393623307347,0.002440585056319833,1.0621483852446543e-05,4.060742855072021,9.999999747378752e-06,0.0025074444711208344,3835.03125,-349.6366271972656,3850.936279296875,-5.209208011627196
14.0,9895.8330078125,3893.1240234375,440.70159912109375,-440.70159912109375,3917.98828125,-6.458388805389404,1.0,2.1978242159548245e-07,0.7346932291984558,8.0,0.9042472243309022,0.04079028218984604,2.3295605182647705,0.00043782248394563794,0.011309904977679253,1.0411026778456288e-05,8.78795051574707,9.999999747378752e-06,0.002551684156060219,3893.1240234375,-440.70159912109375,3917.98828125,-6.458388805389404
15.0,7910.15625,3936.247314453125,508.1489868164063,-508.1489868164063,3968.911376953125,-7.355903148651123,1.0,2.2367210306128982e-07,0.7428049445152282,8.0,0.9299868941307069,0.040818873792886734,8.234308242797852,0.0004374138952698559,0.0012096610153093934,1.028465248964494e-05,15.590210914611816,9.999999747378752e-06,0.003743423847481608,3936.247314453125,-508.1489868164063,3968.911376953125,-7.355903148651123
16.0,6307.87060546875,3992.5229492187505,596.5292358398438,-596.5292358398438,4036.8413085937505,-8.497792243957518,1.0,2.087295882802209e-07,0.749452233314514,8.0,0.9493274092674256,0.0412079356610775,91.1400680541992,0.0006240647053346038,0.001388604985550046,1.0207965715380851e-05,99.63786315917967,9.999999747378752e-06,0.003022539196535945,3992.5229492187505,-596.5292358398438,4036.8413085937505,-8.497792243957518
17.0,4973.3232421875,4056.720703125,700.04150390625,-700.04150390625,4116.6787109375,-9.790731430053713,1.0,1.8354462838487962e-07,0.7484577894210814,8.0,0.9338225722312928,0.04049442708492279,-22.143167495727536,0.0001220703125,0.0006452962406910956,9.836675417318473e-06,-12.352436065673828,9.999999747378752e-06,0.0006253350875340402,4056.720703125,-700.04150390625,4116.6787109375,-9.790731430053713
18.0,3944.3598632812495,4123.74267578125,808.0568237304686,-808.0568237304686,4202.16748046875,-11.086763381958008,1.0,1.4758501265532686e-07,0.7516846060752868,8.0,0.9597166776657104,0.04318689927458763,73.0265426635742,0.0003311684704385698,0.0006926762289367616,1.0277291949023493e-05,84.11330413818358,9.999999747378752e-06,0.0008551825303584337,4123.74267578125,-808.0568237304686,4202.16748046875,-11.086763381958008
19.0,3144.054931640625,4199.265625,929.8706665039062,-929.8706665039062,4300.9873046875,-12.485899925231932,1.0,1.2376730751384457e-07,0.7540945410728455,8.0,0.9749904870986937,0.04369436949491501,117.20098114013672,0.0005523192812688649,0.009787897579371927,1.0159148587263188e-05,129.68687438964844,9.999999747378752e-06,0.0008380376966670156,4199.265625,-929.8706665039062,4300.9873046875,-12.485899925231932
20.0,2488.426025390625,4284.607421875,1070.965576171875,-1070.965576171875,4416.42724609375,-14.033899307250977,1.0,1.2516929359662754e-07,0.7596132159233093,8.0,0.9832795858383178,0.04453974589705467,178.51136779785156,0.0003657223423942924,0.009882139042019844,1.008501749311108e-05,-167.45474243164062,9.999999747378752e-06,0.0008339808555319905,4284.607421875,-1070.965576171875,4416.42724609375,-14.033899307250977
21.0,1976.6566162109373,4385.2724609375,1248.395263671875,-1248.395263671875,4559.5068359375,-15.89054489135742,1.0,1.304903207710595e-07,0.756829023361206,8.0,0.9884607791900634,0.04583532735705376,-119.1847915649414,0.0004234274092596024,0.0017509644385427237,1.0052693141915368e-05,-103.29425048828124,9.999999747378752e-06,0.0013686170568689704,4385.2724609375,-1248.395263671875,4559.5068359375,-15.89054489135742
22.0,1582.03125,4494.140625,1450.48779296875,-1450.48779296875,4722.416015625,-17.887529373168945,1.0,1.5218870430544484e-07,0.7542612552642822,8.0,0.990964949131012,0.047343794256448746,120.65739440917967,0.000686725543346256,0.002032382180914283,1.0025333722296637e-05,138.54493713378906,9.999999747378752e-06,0.0014495209325104952,4494.140625,-1450.48779296875,4722.416015625,-17.887529373168945
23.0,1253.6336669921875,4623.34814453125,1684.09521484375,-1684.09521484375,4920.5205078125,-20.014596939086918,1.0,1.6439263106349244e-07,0.7559592127799987,8.0,0.9942019581794738,0.04936593770980834,148.18350219726562,0.000585123139899224,0.002617425285279751,1.0032665159087628e-05,168.19808959960935,9.999999747378752e-06,0.0011503989808261395,4623.34814453125,-1684.09521484375,4920.5205078125,-20.014596939086918
24.0,996.09375,4777.58203125,1973.2080078125,-1973.2080078125,5169.02685546875,-22.441307067871094,1.0,1.7652493511377543e-07,0.7528526186943054,8.0,0.996726155281067,0.0518215112388134,-13.480277061462402,0.0004405368526931852,0.004175483249127865,1.0025389201473445e-05,8.961029052734375,9.999999747378752e-06,0.0015500516165047884,4777.58203125,-1973.2080078125,5169.02685546875,-22.441307067871094
25.0,790.028076171875,4938.7568359375,2283.154296875,-2283.154296875,5440.96630859375,-24.8107852935791,1.0,1.826609405952695e-07,0.7604547142982483,8.0,0.9969324469566344,0.05442091822624207,-136.61074829101562,0.0007917085313238204,0.0051424698904156685,1.0002069757319987e-05,-111.79996490478516,9.999999747378752e-06,0.0012486749328672884,4938.7568359375,-2283.154296875,5440.96630859375,-24.8107852935791
26.0,628.8109741210938,5123.29541015625,2650.73974609375,-2650.73974609375,5768.412109375,-27.356576919555664,1.0,1.884059628309842e-07,0.764177143573761,8.0,0.9988203644752502,0.05779336392879486,75.91043090820312,0.00069620757130906,0.0064967540092766285,1.0018937246059068e-05,103.26701354980467,9.999999747378752e-06,0.0012770023895427585,5123.29541015625,-2650.73974609375,5768.412109375,-27.356576919555664
27.0,496.3235168457031,5092.15576171875,3241.64306640625,-3241.64306640625,6036.41455078125,-32.48064422607422,1.0,1.8558529291112793e-07,0.7740092277526854,8.0,0.9703108072280883,0.05864115804433823,102.91539001464844,0.0007540744845755398,0.005593706388026476,9.714567568153145e-06,135.3960418701172,9.999999747378752e-06,0.0005560523713938892,5092.15576171875,-3241.64306640625,6036.41455078125,-32.48064422607422
28.0,395.3313293457031,5354.6025390625,3664.5673828125,-3664.5673828125,6488.5146484375,-34.386844635009766,1.0,2.0207670559102553e-07,0.7896952629089355,8.0,0.9908503890037536,0.06625863909721375,66.0003890991211,0.00040027152863331134,0.008782590739428997,1.0211681001237592e-05,100.3872299194336,9.999999747378752e-06,0.0005621601594612001,5354.6025390625,-3664.5673828125,6488.5146484375,-34.386844635009766
29.0,315.5048217773437,5662.01123046875,4232.599609375,-4232.599609375,7069.177734375,-36.77971267700195,1.0,1.8627659414960362e-07,0.792188286781311,8.0,0.998761773109436,0.07125620543956757,-170.02639770507812,0.0009533371194265783,0.012776065617799757,1.0079844287247395e-05,-133.24667358398435,9.999999747378752e-06,0.0007418874301947653,5662.01123046875,-4232.599609375,7069.177734375,-36.77971267700195
30.0,249.33511352539065,5988.734375,4837.62158203125,-4837.62158203125,7698.540039062499,-38.93082427978516,1.0,1.6724229112696778e-07,0.806204915046692,8.0,1.000867486000061,0.07714771479368211,53.56967926025391,0.0013361431192606688,0.016661357134580612,1.0021083653555252e-05,92.5005111694336,9.999999747378752e-06,0.001014438457787037,5988.734375,-4837.62158203125,7698.540039062499,-38.93082427978516
31.0,198.6228790283203,6406.671875,5672.501953125,-5672.501953125,8557.02734375,-41.52185058593751,1.0,1.5407627529384627e-07,0.8029203414916992,8.0,1.000120997428894,0.08550644665956497,36.843364715576165,0.0018535403069108725,0.021640438586473465,9.992540981329514e-06,78.36521911621092,9.999999747378752e-06,0.001020178315229714,6406.671875,-5672.501953125,8557.02734375,-41.52185058593751
32.0,158.005615234375,6907.466796875,6689.42041015625,-6689.42041015625,9615.6875,-44.08125686645508,1.0,1.6618540144008878e-07,0.7987681627273558,8.0,0.9974286556243896,0.09589800983667372,91.89628601074217,0.002666793530806899,0.02720833569765091,9.973079613700975e-06,135.9775390625,9.999999747378752e-06,0.001236181240528822,6907.466796875,-6689.42041015625,9615.6875,-44.08125686645508
33.0,125.5580368041992,7362.154296875,7614.118164062499,-7614.118164062499,10591.322265625,-45.963863372802734,1.0,1.4828553673851275e-07,0.8155600428581237,8.0,0.9875648021697998,0.10486583411693572,-145.1959991455078,0.003571202512830496,0.03326457366347313,9.901107659970878e-06,-99.23213195800781,9.999999747378752e-06,0.0012595216976478696,7362.154296875,-7614.118164062499,10591.322265625,-45.963863372802734
34.0,99.73403930664062,7887.29541015625,8407.548828125,-8407.548828125,11528.06640625,-46.82868957519531,1.0,1.230820316777681e-07,0.8501460552215576,8.0,0.9930575489997864,0.11592184007167816,-143.61776733398435,0.004985541570931673,0.04192990064620972,1.0055618986370972e-05,-96.78907012939453,9.999999747378752e-06,0.0008798078633844851,7887.29541015625,-8407.548828125,11528.06640625,-46.82868957519531
35.0,78.78150939941406,8650.7958984375,9929.1728515625,-9929.1728515625,13169.0830078125,-48.93598175048828,1.0,1.3539435883558326e-07,0.8481367230415344,8.0,0.9937471747398376,0.13178229331970215,-143.74746704101562,0.0069388654083013535,0.05124283209443092,1.0006944648921488e-05,-94.81149291992189,9.999999747378752e-06,0.0008433795883320272,8650.7958984375,-9929.1728515625,13169.0830078125,-48.93598175048828
36.0,62.919464111328125,9593.154296875,11696.6884765625,-11696.6884765625,15127.49609375,-50.642772674560554,1.0,1.3622792494061287e-07,0.8401433825492858,8.0,0.9936850070953368,0.151265487074852,-143.93170166015625,0.009555494412779808,0.061587762087583535,9.999374015023934e-06,-93.2889404296875,9.999999747378752e-06,0.0009955358691513538,9593.154296875,-11696.6884765625,15127.49609375,-50.642772674560554
37.0,49.86701965332031,10579.8583984375,13635.7041015625,-13635.7041015625,17258.7890625,-52.19233322143555,1.0,1.9414008534113242e-07,0.8437092304229736,8.0,0.9941516518592833,0.1726689636707306,-145.64035034179688,0.012724903412163256,0.07276691496372224,1.0004696378018709e-05,-93.4480209350586,9.999999747378752e-06,0.0011749732075259087,10579.8583984375,-13635.7041015625,17258.7890625,-52.19233322143555
38.0,39.72457504272461,11715.2158203125,15729.560546875,-15729.560546875,19612.88671875,-53.321636199951165,1.0,2.0360970154342797e-07,0.8480517268180846,8.0,0.994846761226654,0.19626601040363312,-145.8269500732422,0.016907742246985435,0.08508452028036116,1.000699194264598e-05,-92.50531005859376,9.999999747378752e-06,0.0011505793081596492,11715.2158203125,-15729.560546875,19612.88671875,-53.321636199951165
39.0,31.459732055664062,13103.876953125,18246.53515625,-18246.53515625,22464.36328125,-54.31571578979492,1.0,1.8646227317731245e-07,0.8496777415275573,8.0,0.9952988624572754,0.2247457504272461,-146.00509643554688,0.022694556042551994,0.09973341226577759,1.000454449240351e-05,-91.68936920166016,9.999999747378752e-06,0.0012496684212237597,13103.876953125,-18246.53515625,22464.36328125,-54.31571578979492
40.0,24.93350982666016,14629.99609375,20825.810546875,-20825.810546875,25450.95703125,-54.912208557128906,1.0,1.6686918513642013e-07,0.8602163195610046,8.0,0.9954702854156494,0.2545534074306488,-145.98681640625,0.029653074219822884,0.11505819112062454,1.0001722330343908e-05,-91.07460021972656,9.999999747378752e-06,0.0011495479848235843,14629.99609375,-20825.810546875,25450.95703125,-54.912208557128906
41.0,19.862287521362305,16676.046875,24240.98828125,-24240.98828125,29423.0546875,-55.4748420715332,1.0,1.2482891520448902e-07,0.8523574471473693,8.0,0.9961653351783752,0.29443594813346863,-146.0647735595703,0.03991993516683578,0.13393418490886688,1.0006981938204262e-05,-90.58992767333984,9.999999747378752e-06,0.0013927699765190482,16676.046875,-24240.98828125,29423.0546875,-55.4748420715332
42.0,15.782828330993652,19361.96875,28612.970703125,-28612.970703125,34548.34375,-55.91437911987305,1.0,1.3559278499997163e-07,0.8319205641746522,8.0,0.9962221384048462,0.3455031216144562,-146.12625122070312,0.053871050477027886,0.1540348082780838,1.0000570000556763e-05,-90.21188354492189,9.999999747378752e-06,0.0015026390319690108,19361.96875,-28612.970703125,34548.34375,-55.91437911987305
43.0,12.466754913330078,22609.09375,33630.09375,-33630.09375,40523.50390625,-56.08755111694336,1.0,1.622071863494057e-07,0.8114106059074403,8.0,0.9965110421180723,0.4053525626659393,-145.97756958007812,0.07189588248729706,0.17524395883083344,1.0002900125982704e-05,-89.8900146484375,9.999999747378752e-06,0.0015146346995607018,22609.09375,-33630.09375,40523.50390625,-56.08755111694336
44.0,9.973403930664062,26259.47265625,38966.52734375,-38966.52734375,46988.83203125,-56.02404022216797,1.0,1.5725025548363194e-07,0.7900644540786742,8.0,0.9969778656959533,0.4701084494590759,-145.67494201660156,0.09236059337854384,0.19412612915039065,1.0004684554587584e-05,-89.65090179443358,9.999999747378752e-06,0.0015427705366164444,26259.47265625,-38966.52734375,46988.83203125,-56.02404022216797
45.0,7.878151416778564,31445.041015625,45873.50390625,-45873.50390625,55616.265625,-55.5704231262207,1.0,1.5975022904513025e-07,0.7402834892272949,8.0,0.9975884556770324,0.5565032362937927,-145.03488159179688,0.1156383529305458,0.2053194493055344,1.000612428470049e-05,-89.46445465087889,9.999999747378752e-06,0.0015378595562651751,31445.041015625,-45873.50390625,55616.265625,-55.5704231262207
46.0,6.275100231170654,36460.20703125,52170.66015625,-52170.66015625,63648.44140625,-55.05168151855469,1.0,2.1817442075189322e-07,0.6989985704421997,8.0,0.9973136782646179,0.6363091468811035,-144.35214233398435,0.13236801326274872,0.20556293427944183,9.997245797421783e-06,-89.30046081542967,9.999999747378752e-06,0.0014736539451405406,36460.20703125,-52170.66015625,63648.44140625,-55.05168151855469
47.0,5.013369083404541,41754.26953125,57964.4765625,-57964.4765625,71437.3828125,-54.23319625854492,1.0,2.1833965035966685e-07,0.6522648930549622,8.0,0.9980194568634032,0.7148793339729309,-143.4098663330078,0.14340460300445557,0.19822008907794952,1.0007076525653247e-05,-89.17666625976561,9.999999747378752e-06,0.0012344933347776532,41754.26953125,-57964.4765625,71437.3828125,-54.23319625854492
