# point,freq,zreal,reflected_zimag,zimag,zmod,zphz,zsig,Idc,Vdc,ie_range,gain,vmod,vphz,vsig,vthd,imod,iphz,isig,ithd,zreal_drift,zimag_drift,zmod_drift,zphz_drift
0.0,100019.53125,3133.22705078125,97.55470275878906,-97.55470275878906,3134.745361328125,-1.7833586931228635,1.0,1.1403580657542989e-07,-0.1655498892068863,8.0,0.25702330470085144,0.00805702619254589,-114.39876556396484,0.0003146242524962872,0.03633113577961922,2.5702331640786724e-06,-112.61540222167967,9.999999747378752e-06,0.05934138223528863,3133.22705078125,-97.55470275878906,3134.745361328125,-1.7833586931228635
1.0,79511.71875,3170.7890625,157.21324157714844,-157.21324157714844,3174.68408203125,-2.8385000228881836,1.0,1.5599972869040357e-07,-0.13135407865047455,8.0,0.26897662878036493,0.033223286271095276,-128.0382080078125,0.0010197529336437583,0.02621939592063427,1.0465067134646231e-05,-125.19970703125,9.999999747378752e-06,0.02607889287173748,3170.7890625,-157.21324157714844,3174.68408203125,-2.8385000228881836
2.0,63105.46875,3206.47509765625,214.40806579589844,-214.40806579589844,3213.6357421875,-3.825514793395996,1.0,1.4510510482068642e-07,-0.10436667501926422,8.0,0.33939993381500244,0.040550276637077325,-178.75489807128906,0.0011540891136974096,0.02548346482217312,1.2618193977687042e-05,-174.92938232421875,9.999999747378752e-06,0.02972903475165367,3206.47509765625,-214.40806579589844,3213.6357421875,-3.825514793395996
3.0,50214.84375,3253.8720703125,264.9939880371094,-264.9939880371094,3264.644775390625,-4.655869483947754,1.0,1.3370402029977413e-07,-0.0951932817697525,8.0,0.443953663110733,0.042703337967395776,-153.6918182373047,0.0005465382128022611,0.007240107748657466,1.3080546523269732e-05,-149.0359649658203,9.999999747378752e-06,0.007771640550345182,3253.8720703125,-264.9939880371094,3264.644775390625,-4.655869483947754
4.0,39902.34375,3311.237548828125,303.3089294433594,-303.3089294433594,3325.10009765625,-5.233680725097656,1.0,1.1344247496936077e-07,-0.0991090014576912,8.0,0.5325156450271606,0.039884071797132485,-160.14022827148435,0.0004194818320684135,0.0016560236690565944,1.199484813696472e-05,-154.90655517578125,9.999999747378752e-06,0.001411188975907862,3311.237548828125,-303.3089294433594,3325.10009765625,-5.233680725097656
5.0,31699.21875,3343.828125,361.7919006347656,-361.7919006347656,3363.343505859375,-6.175204753875732,1.0,1.0753694823506521e-07,-0.08280053734779358,8.0,0.6135636568069458,0.03875238448381424,-157.29635620117188,0.00044609769247472286,0.0024162963964045048,1.1521983651618937e-05,-151.12115478515625,9.999999747378752e-06,0.006358972750604153,3343.828125,-361.7919006347656,3363.343505859375,-6.175204753875732
6.0,25136.71875,3394.255615234375,426.8048095703125,-426.8048095703125,3420.984130859375,-7.166944026947021,1.0,8.881362845158945e-08,-0.07687512040138243,8.0,0.6891697049140929,0.038425330072641366,-90.09427642822264,0.0005618467694148421,0.0015936997951939702,1.1232244105485732e-05,-82.92733001708984,9.999999747378752e-06,0.0034668969456106424,3394.255615234375,-426.8048095703125,3420.984130859375,-7.166944026947021
7.0,19980.46875,3444.80517578125,487.2477111816406,-487.2477111816406,3479.09375,-8.050749778747559,1.0,8.245575600085431e-08,-0.07895873486995697,8.0,0.7565484046936035,0.03819237276911736,9.198966026306152,0.0004951960290782154,0.011286750435829163,1.0977679266943596e-05,17.24971580505371,9.999999747378752e-06,0.01792602799832821,3444.80517578125,-487.2477111816406,3479.09375,-8.050749778747559
8.0,15878.90625,3505.688720703125,556.6517944335938,-556.6517944335938,3549.607666015625,-9.022403717041016,1.0,7.571971138986555e-08,-0.06543184816837311,8.0,0.8125786781311035,0.038124926388263695,103.23173522949217,0.0004860590270254761,0.0013270918279886244,1.0740604011516552e-05,112.25413513183592,9.999999747378752e-06,0.0018340839305892585,3505.688720703125,-556.6517944335938,3549.607666015625,-9.022403717041016
9.0,12597.65625,3536.410888671875,637.4649047851562,-637.4649047851562,3593.405517578125,-10.218268394470215,1.0,6.916287986769021e-08,-0.05708569660782815,8.0,0.8619040250778198,0.03811533376574516,-4.727840423583984,0.0005662556504830718,0.0014879130758345127,1.0607022886688355e-05,5.490428924560546,9.999999747378752e-06,0.001746645662933588,3536.410888671875,-637.4649047851562,3593.405517578125,-10.218268394470215
10.0,10019.53125,3632.376708984375,727.5730590820312,-727.5730590820312,3704.527587890625,-11.326581001281738,1.0,6.806743613196886e-08,-0.04989439621567726,8.0,0.8911101818084717,0.038300573825836175,-169.02503967285156,0.0005025584250688553,0.01153636910021305,1.0338855645386502e-05,-157.6984710693359,9.999999747378752e-06,0.01945529505610466,3632.376708984375,-727.5730590820312,3704.527587890625,-11.326581001281738
11.0,7928.24072265625,3708.137939453125,832.5718994140626,-832.5718994140626,3800.4555664062495,-12.654509544372559,1.0,5.4468145549435576e-08,-0.03857129439711571,8.0,0.916728436946869,0.0390971377491951,146.3161163330078,0.0005915915826335548,0.004360032733529806,1.0287487384630367e-05,158.9706268310547,9.999999747378752e-06,0.009995536878705025,3708.137939453125,-832.5718994140626,3800.4555664062495,-12.654509544372559
12.0,6307.87060546875,3786.7368164062495,954.5867919921875,-954.5867919921875,3905.203125,-14.148725509643555,1.0,6.330711954660728e-08,-0.02422058768570423,8.0,0.9358723759651184,0.03986755013465881,62.768802642822266,0.0005867906729690731,0.001195769989863038,1.0208828825852832e-05,76.91752624511719,9.999999747378752e-06,0.00156743754632771,3786.7368164062495,-954.5867919921875,3905.203125,-14.148725509643555
13.0,5034.72216796875,3883.1030273437505,1104.430908203125,-1104.430908203125,4037.1098632812495,-15.876795768737791,1.0,6.244769679142337e-08,-0.013065731152892113,8.0,0.918081283569336,0.03960363939404488,58.058002471923835,0.0005209630471654236,0.0003694355546031147,9.809898074308878e-06,73.93479919433594,9.999999747378752e-06,0.0004074254247825593,3883.1030273437505,-1104.430908203125,4037.1098632812495,-15.876795768737791
14.0,3993.0556640625,3989.541748046875,1274.7548828125,-1274.7548828125,4188.25048828125,-17.71993637084961,1.0,5.4071644939313046e-08,-0.00664275698363781,8.0,0.9457303285598755,0.043143846094608314,64.13263702392578,0.00044464087113738065,0.0004667273024097085,1.0301161637471525e-05,81.85256958007811,9.999999747378752e-06,0.0005628996295854449,3989.541748046875,-1274.7548828125,4188.25048828125,-17.71993637084961
15.0,3144.054931640625,4114.0205078125,1484.8590087890625,-1484.8590087890625,4373.7822265625,-19.845855712890625,1.0,5.966667515622248e-08,-0.002635003300383687,8.0,0.9611203074455261,0.044449571520090096,106.64868927001952,0.00044583267299458385,0.00985224451869726,1.0162731086893473e-05,126.49454498291016,9.999999747378752e-06,0.0007378293084912002,4114.0205078125,-1484.8590087890625,4373.7822265625,-19.845855712890625
16.0,2519.53125,4248.40673828125,1714.255859375,-1714.255859375,4581.22607421875,-21.974351882934567,1.0,6.592335921595804e-08,0.0070280665531754485,8.0,0.9696885347366333,0.04622066766023636,34.129642486572266,0.0005268798558972776,0.01124456524848938,1.0089148418046534e-05,56.1039924621582,9.999999747378752e-06,0.0009307957370765507,4248.40673828125,-1714.255859375,4581.22607421875,-21.974351882934567
17.0,2000.76220703125,4410.7919921875,1996.3112792968752,-1996.3112792968752,4841.52294921875,-24.35136604309082,1.0,5.857430096511962e-08,0.012085789814591408,8.0,0.9762608408927916,0.04874337464570999,52.1607551574707,0.00036065856693312526,0.0009388628532178702,1.0067777111544272e-05,76.51212310791014,9.999999747378752e-06,0.0009507273207418621,4410.7919921875,-1996.3112792968752,4841.52294921875,-24.35136604309082
18.0,1580.6685791015625,4605.40625,2335.07666015625,-2335.07666015625,5163.5595703125,-26.8863525390625,1.0,6.313903355703587e-08,0.015352489426732063,8.0,0.9793400764465331,0.05179845914244652,103.19757843017578,0.00010982095409417524,0.0008247193181887269,1.0031541023636237e-05,130.0839385986328,9.999999747378752e-06,0.0010774318361654875,4605.40625,-2335.07666015625,5163.5595703125,-26.8863525390625
19.0,1253.6336669921875,4832.35595703125,2729.73583984375,-2729.73583984375,5550.05615234375,-29.461545944213867,1.0,7.131952628469662e-08,0.01732007972896099,8.0,0.9836486577987671,0.05574473738670349,138.1109619140625,0.00013700666022486985,0.0009801601991057396,1.0043994734587612e-05,167.572509765625,9.999999747378752e-06,0.001268413965590298,4832.35595703125,-2729.73583984375,5550.05615234375,-29.461545944213867
20.0,1000.7022705078124,5092.392578125,3168.89794921875,-3168.89794921875,5997.8642578125,-31.89320945739746,1.0,7.347459529682963e-08,0.024130031466484066,8.0,0.9866064190864563,0.06015899777412415,14.285849571228027,0.00025686455774120986,0.0013818443985655904,1.0030069461208768e-05,46.179058074951165,9.999999747378752e-06,0.0027477247640490528,5092.392578125,-3168.89794921875,5997.8642578125,-31.89320945739746
21.0,790.028076171875,5408.47119140625,3710.699462890625,-3710.699462890625,6559.0283203125,-34.45363998413086,1.0,7.385939682080787e-08,0.028071457520127296,8.0,0.9881447553634644,0.06569255143404007,-144.8251953125,0.00034640051308088005,0.001285840873606503,1.0015592124545947e-05,-110.3715591430664,9.999999747378752e-06,0.0012582134222611785,5408.47119140625,-3710.699462890625,6559.0283203125,-34.45363998413086
22.0,628.8109741210938,5775.07080078125,4316.265625,-4316.265625,7209.826171875,-36.774295806884766,1.0,7.690476877542096e-08,0.03084391541779041,8.0,0.9895794987678528,0.07220295071601868,65.02859497070312,0.0005646066274493933,0.0014762565260753036,1.0014519830292556e-05,101.80288696289062,9.999999747378752e-06,0.0014955003280192611,5775.07080078125,-4316.265625,7209.826171875,-36.774295806884766
23.0,502.2321472167969,5848.49853515625,5161.02685546875,-5161.02685546875,7800.07275390625,-41.42689895629882,1.0,8.200066758945469e-08,0.03944612294435501,8.0,0.9618024230003358,0.07581128180027008,138.18019104003906,0.00034936281736008823,0.0012275619665160775,9.719304216559976e-06,179.60708618164062,9.999999747378752e-06,0.0004459442279767245,5848.49853515625,-5161.02685546875,7800.07275390625,-41.42689895629882
24.0,400.1524353027344,6393.7890625,5943.21875,-5943.21875,8729.3974609375,-42.90838241577149,1.0,9.08886406136844e-08,0.05002166703343392,8.0,0.9839546084403992,0.08930453658103943,92.19335174560547,0.0004993755137547851,0.002266356023028493,1.0230319276161026e-05,135.1017303466797,9.999999747378752e-06,0.0005124612362124026,6393.7890625,-5943.21875,8729.3974609375,-42.90838241577149
25.0,315.5048217773437,7044.3701171875,6910.86328125,-6910.86328125,9868.2919921875,-44.45187759399414,1.0,8.691752384493155e-08,0.044283688068389886,8.0,0.9932621121406556,0.09961638599634169,-178.1765594482422,0.0005601590382866561,0.0034331234637647867,1.0094592653331347e-05,-133.7246856689453,9.999999747378752e-06,0.0006504781194962561,7044.3701171875,-6910.86328125,9868.2919921875,-44.45187759399414
26.0,252.01612854003903,7739.67431640625,7894.19091796875,-7894.19091796875,11055.3525390625,-45.56626129150391,1.0,8.339605273022244e-08,0.05799691379070281,8.0,0.9954672455787658,0.11079896241426468,65.52159881591797,0.0005801573861390352,0.004739744123071432,1.002220142254373e-05,111.08786010742188,9.999999747378752e-06,0.0008339734631590545,7739.67431640625,-7894.19091796875,11055.3525390625,-45.56626129150391
27.0,200.3205108642578,8555.0537109375,9105.2001953125,-9105.2001953125,12493.7431640625,-46.784282684326165,1.0,8.923876038124944e-08,0.05286603793501854,8.0,0.9955964684486387,0.12495363503694534,42.64380645751953,0.0009126103250309826,0.006151086650788784,1.000129759631818e-05,89.42808532714844,9.999999747378752e-06,0.0011885169660672543,8555.0537109375,-9105.2001953125,12493.7431640625,-46.784282684326165
28.0,158.005615234375,9463.2333984375,10390.662109375,-10390.662109375,14054.1328125,-47.67449569702149,1.0,9.330136663265876e-08,0.08155916631221771,8.0,0.9930458068847656,0.1401812732219696,87.22352600097656,0.0013337685959413648,0.009098443202674387,9.974381100619213e-06,134.89801025390625,9.999999747378752e-06,0.0011751807760447264,9463.2333984375,-10390.662109375,14054.1328125,-47.67449569702149
29.0,125.5580368041992,10482.7001953125,11891.1943359375,-11891.1943359375,15852.0498046875,-48.60216522216797,1.0,9.207515461184813e-08,0.09183350205421448,8.0,0.9842157959938048,0.15711095929145813,-148.81076049804688,0.0018839736003428695,0.011838902719318867,9.911081178870514e-06,-100.20858764648436,9.999999747378752e-06,0.0013405929785221815,10482.7001953125,-11891.1943359375,15852.0498046875,-48.60216522216797
30.0,99.73403930664062,11709.943359375,13859.0556640625,-13859.0556640625,18143.763671875,-49.80450439453125,1.0,8.536525797353534e-08,0.06452906131744385,8.0,0.9630109667778016,0.17752860486507416,27.301401138305664,0.002380068879574537,0.012455417774617672,9.784551366465166e-06,77.10590362548828,9.999999747378752e-06,0.0013136155903339384,11709.943359375,-13859.0556640625,18143.763671875,-49.80450439453125
31.0,79.44915008544922,13084.390625,15159.53125,-15159.53125,20025.30078125,-49.202091217041016,1.0,8.782283344999087e-08,0.14089322090148923,8.0,0.9900389909744263,0.20587332546710968,-144.2575531005859,0.005541488062590361,0.026005413383245468,1.028066162689356e-05,-95.05546569824217,9.999999747378752e-06,0.0008293151040561497,13084.390625,-15159.53125,20025.30078125,-49.202091217041016
32.0,62.919464111328125,14603.2421875,17384.8984375,-17384.8984375,22704.390625,-49.96987915039063,1.0,8.700163078856349e-08,0.1454794704914093,8.0,0.990594446659088,0.22717131674289703,-143.41433715820312,0.007058998569846152,0.03009692393243313,1.0005610420193989e-05,-93.4444580078125,9.999999747378752e-06,0.0011491472832858562,14603.2421875,-17384.8984375,22704.390625,-49.96987915039063
33.0,49.86701965332031,16247.2626953125,20142.58984375,-20142.58984375,25878.513671875,-51.10992431640625,1.0,8.183123156868531e-08,0.1368742436170578,8.0,0.9916714429855346,0.25906649231910706,-144.7107696533203,0.008512833155691622,0.03238837420940399,1.0010871847043744e-05,-93.60084533691406,9.999999747378752e-06,0.0008540857816115021,16247.2626953125,-20142.58984375,25878.513671875,-51.10992431640625
34.0,39.72457504272461,18160.369140625,23057.09375,-23057.09375,29350.103515625,-51.77510833740234,1.0,7.44173860312003e-08,0.13434378802776337,8.0,0.9924702048301696,0.2937374711036682,-144.38267517089844,0.011220544576644896,0.03767814487218857,1.0008055141952354e-05,-92.60757446289062,9.999999747378752e-06,0.0007606319850310683,18160.369140625,-23057.09375,29350.103515625,-51.77510833740234
35.0,31.672296524047848,20366.05078125,26295.958984375,-26295.958984375,33260.38671875,-52.24245071411133,1.0,7.276945979128867e-08,0.1292298138141632,8.0,0.993120551109314,0.3328218460083008,-144.06930541992188,0.0145854027941823,0.04324950277805328,1.0006552656705024e-05,-91.82684326171875,9.999999747378752e-06,0.0007061019423417747,20366.05078125,-26295.958984375,33260.38671875,-52.24245071411133
36.0,25.201612472534176,22951.734375,29765.861328125,-29765.861328125,37587.08203125,-52.36505508422852,1.0,6.052648870991105e-08,0.12654811143875122,8.0,0.9939907193183899,0.3762001395225525,-143.57675170898435,0.019220445305109024,0.05042648315429688,1.0008761819335632e-05,-91.21170043945312,9.999999747378752e-06,0.0008147476473823189,22951.734375,-29765.861328125,37587.08203125,-52.36505508422852
37.0,20.03205108642578,25881.396484375,33588.25,-33588.25,42403.03125,-52.383983612060554,1.0,5.7957656451890216e-08,0.11610759049654006,8.0,0.994681477546692,0.4243250191211701,-143.0861663818359,0.024320781230926517,0.0565938837826252,1.0006949196394999e-05,-90.70217895507811,9.999999747378752e-06,0.0009096244466491044,25881.396484375,-33588.25,42403.03125,-52.383983612060554
38.0,15.782828330993652,29352.91015625,37746.83203125,-37746.83203125,47816.48828125,-52.13044357299805,1.0,5.1550721025250816e-08,0.09789028763771056,8.0,0.9951468110084531,0.47838857769966125,-142.41726684570312,0.02946716919541359,0.06083318218588829,1.0004678188124672e-05,-90.28683471679688,9.999999747378752e-06,0.0008012039470486344,29352.91015625,-37746.83203125,47816.48828125,-52.13044357299805
39.0,12.600806236267088,32968.5703125,41617.33984375,-41617.33984375,53093.59375,-51.61431503295898,1.0,5.778249345667064e-08,0.07837183773517609,8.0,0.9959208965301511,0.5313489437103271,-141.58631896972656,0.034001268446445465,0.06321382522583008,1.0007778655563015e-05,-89.97199249267578,9.999999747378752e-06,0.0007690346683375537,32968.5703125,-41617.33984375,53093.59375,-51.61431503295898
40.0,9.973403930664062,36991.234375,45365.1328125,-45365.1328125,58535.00390625,-50.80581665039063,1.0,7.680895208750371e-08,0.06135990470647812,8.0,0.9964770078659057,0.585676908493042,-140.5120086669922,0.03879533708095551,0.06543983519077301,1.0005584044847636e-05,-89.70619201660156,9.999999747378752e-06,0.0008785253739915789,36991.234375,-45365.1328125,58535.00390625,-50.80581665039063
41.0,7.971938610076904,40975.64453125,48708.58984375,-48708.58984375,63651.6328125,-49.928089141845696,1.0,9.996399796818876e-08,0.047081425786018365,8.0,0.9969397187232972,0.6368118524551392,-139.43052673339844,0.043336603790521615,0.06723908334970474,1.0004643627326004e-05,-89.50244140625,9.999999747378752e-06,0.0006891001248732209,40975.64453125,-48708.58984375,63651.6328125,-49.928089141845696
42.0,6.275100231170654,45331.125,51980.10546875,-51980.10546875,68969.859375,-48.90877151489258,1.0,9.005168521980522e-08,0.03490695729851723,8.0,0.9976930022239683,0.6902198195457457,-138.2367401123047,0.048891156911849976,0.069989413022995,1.000755582936108e-05,-89.3279800415039,9.999999747378752e-06,0.0007052398286759852,45331.125,-51980.10546875,68969.859375,-48.90877151489258
43.0,5.013369083404541,49553.47265625,55098.359375,-55098.359375,74103.8203125,-48.03292846679688,1.0,8.161227071923349e-08,0.013080274686217308,8.0,0.9976236820220947,0.7409866452217102,-137.21136474609375,0.0537472702562809,0.07166657596826553,9.999304893426595e-06,-89.17845153808594,9.999999747378752e-06,0.0007092751329764724,49553.47265625,-55098.359375,74103.8203125,-48.03292846679688
44.0,3.985969305038452,53628.0859375,58140.27734375,-58140.27734375,79096.546875,-47.31182861328125,1.0,9.428595859617418e-08,-0.00025241076946258545,8.0,0.9986238479614256,0.7917584776878357,-136.39132690429688,0.061545480042696,0.07680892944335938,1.0010026016971096e-05,-89.07950592041014,9.999999747378752e-06,0.000654212781228125,53628.0859375,-58140.27734375,79096.546875,-47.31182861328125
45.0,3.1758129596710205,57679.92578125,61408.43359375,-61408.43359375,84249.4453125,-46.79327392578125,1.0,8.650172134139211e-08,-0.01759791187942028,8.0,0.998717486858368,0.8425734639167786,-135.79147338867188,0.07067283242940903,0.08288361877202988,1.000093743641628e-05,-88.9981918334961,9.999999747378752e-06,0.0006394016090780497,57679.92578125,-61408.43359375,84249.4453125,-46.79327392578125
46.0,2.516103029251098,60801.98046875,65263.16015625,-65263.16015625,89197.3125,-47.02672958374024,1.0,7.110367050700006e-08,-0.03100454807281494,8.0,0.9678006768226624,0.8643608093261719,-179.88893127441406,0.032259535044431686,0.036870136857032776,9.6904350357363e-06,-132.86221313476562,9.999999747378752e-06,0.00021069121430628,60801.98046875,-65263.16015625,89197.3125,-47.02672958374024
47.0,1.9955300092697144,63694.9140625,67659.109375,-67659.109375,92923.609375,-46.728633880615234,1.0,8.250930960684855e-08,-0.042817112058401115,8.0,0.9866772890090942,0.9473604559898376,-169.683837890625,0.056303039193153374,0.05872917547821999,1.0195046343142167e-05,-122.95520782470705,9.999999747378752e-06,0.0003076654102187604,63694.9140625,-67659.109375,92923.609375,-46.728633880615234
