# point,freq,zreal,reflected_zimag,zimag,zmod,zphz,zsig,Idc,Vdc,ie_range,gain,vmod,vphz,vsig,vthd,imod,iphz,isig,ithd,zreal_drift,zimag_drift,zmod_drift,zphz_drift
0.0,100019.53125,3592.84765625,115.1926498413086,-115.1926498413086,3594.69384765625,-1.836368560791016,1.0,7.695020798337282e-08,-0.13906587660312653,8.0,0.23362234234809875,0.00839800853282213,151.23695373535156,0.0004974271869286895,0.05649956315755844,2.336223360543954e-06,153.0733184814453,9.999999747378752e-06,0.06384263187646866,3592.84765625,-115.1926498413086,3594.69384765625,-1.836368560791016
1.0,79511.71875,3635.8793945312495,180.37326049804688,-180.37326049804688,3640.350830078125,-2.840072631835937,1.0,1.2254936621047818e-07,-0.08966977149248123,8.0,0.23016604781150815,0.035864945501089096,109.01834869384764,0.0013883650535717607,0.03493161126971245,9.852056791714858e-06,111.85842895507812,9.999999747378752e-06,0.0325399674475193,3635.8793945312495,-180.37326049804688,3640.350830078125,-2.840072631835937
2.0,63105.46875,3685.515625,246.06155395507807,-246.06155395507807,3693.720458984375,-3.8196549415588374,1.0,1.2221832434988758e-07,-0.04526212066411972,8.0,0.28201022744178766,0.04525718837976456,-138.6014862060547,0.001731875236146152,0.03684370592236519,1.2252467968210112e-05,-134.78182983398435,9.999999747378752e-06,0.040677715092897415,3685.515625,-246.06155395507807,3693.720458984375,-3.8196549415588374
3.0,50214.84375,3733.530029296875,300.5037841796875,-300.5037841796875,3745.6040039062495,-4.601694107055664,1.0,1.0079450163402724e-07,-0.0436389185488224,8.0,0.38306674361228943,0.05087816715240479,147.54457092285156,0.0012406858149915931,0.02170318737626076,1.358343524771044e-05,152.14627075195312,9.999999747378752e-06,0.023032886907458305,3733.530029296875,-300.5037841796875,3745.6040039062495,-4.601694107055664
4.0,39902.34375,3801.91796875,343.8185119628906,-343.8185119628906,3817.4326171875,-5.167368412017822,1.0,7.252253908518469e-08,-0.05593916401267052,8.0,0.49054211378097534,0.04888472706079483,-169.9271697998047,0.0006746420403942466,0.0030251163989305496,1.2805656297132371e-05,-164.7598114013672,9.999999747378752e-06,0.002692837733775377,3801.91796875,-343.8185119628906,3817.4326171875,-5.167368412017822
5.0,31699.21875,3850.394775390625,405.3455505371094,-405.3455505371094,3871.672119140625,-6.009606838226318,1.0,7.814873015377088e-08,-0.038757823407649994,8.0,0.5736395716667175,0.04527530819177628,152.16180419921875,0.0007198989624157548,0.001974183833226561,1.1693992746586444e-05,158.17141723632812,9.999999747378752e-06,0.005832058843225241,3850.394775390625,-405.3455505371094,3871.672119140625,-6.009606838226318
6.0,25136.71875,3899.3500976562495,461.9423828125,-461.9423828125,3926.6171875,-6.7561421394348145,1.0,7.510010391342803e-08,-0.023557228967547417,8.0,0.6528205871582031,0.04468618333339691,-51.05406951904297,0.0005679395399056375,0.00149642548058182,1.1380326213838998e-05,-44.29792785644531,9.999999747378752e-06,0.0027738201897591352,3899.3500976562495,-461.9423828125,3926.6171875,-6.7561421394348145
7.0,19980.46875,3955.650146484375,527.1527099609375,-527.1527099609375,3990.621337890625,-7.590839385986328,1.0,6.572324195985857e-08,-0.019930817186832428,8.0,0.7249594330787658,0.04431597888469696,-44.62002944946289,0.0005169544601812959,0.010358423925936222,1.1105033081548754e-05,-37.02919006347656,9.999999747378752e-06,0.01983612030744553,3955.650146484375,-527.1527099609375,3990.621337890625,-7.590839385986328
8.0,15878.90625,4019.3217773437505,590.4389038085938,-590.4389038085938,4062.4580078125,-8.356986045837402,1.0,6.271702801541323e-08,-0.013088418170809744,8.0,0.7857578396797181,0.0440315380692482,86.28621673583984,0.0005183216417208314,0.0010134188923984766,1.083864572137827e-05,94.64320373535155,9.999999747378752e-06,0.0018000020645558834,4019.3217773437505,-590.4389038085938,4062.4580078125,-8.356986045837402
9.0,12597.65625,4065.300048828125,638.9177856445312,-638.9177856445312,4115.201171875,-8.931757926940918,1.0,6.515917050364806e-08,-0.010588269680738447,8.0,0.8393512964248657,0.04395882785320281,1.9639327526092527,0.00047056764014996583,0.001736458856612444,1.068206074705813e-05,10.89569091796875,9.999999747378752e-06,0.002801344031468034,4065.300048828125,-638.9177856445312,4115.201171875,-8.931757926940918
10.0,10019.53125,4159.09619140625,760.1231079101561,-760.1231079101561,4227.986328125,-10.357162475585936,1.0,8.107981130933695e-08,-0.006292517296969891,8.0,0.8755934238433837,0.04410545900464058,-174.62939453125,0.0005206967471167445,0.010474837385118008,1.043178781401366e-05,-164.27223205566406,9.999999747378752e-06,0.02018232829868793,4159.09619140625,-760.1231079101561,4227.986328125,-10.357162475585936
11.0,7928.24072265625,4240.2900390625,863.0440063476561,-863.0440063476561,4327.22802734375,-11.504505157470703,1.0,7.271675883657734e-08,-0.0005567315965890884,8.0,0.9048686623573304,0.04471908137202263,138.6780242919922,0.0005030950997024776,0.0032496387138962746,1.0334347280149812e-05,150.18252563476562,9.999999747378752e-06,0.01050382200628519,4240.2900390625,-863.0440063476561,4327.22802734375,-11.504505157470703
12.0,6307.87060546875,4326.595703125,990.6707153320312,-990.6707153320312,4438.56494140625,-12.896828651428223,1.0,7.92540149063825e-08,0.00015650576096959412,8.0,0.927147626876831,0.04547847807407379,63.70228576660156,0.0004963416140526533,0.001174495555460453,1.0246211786579806e-05,76.59912109375,9.999999747378752e-06,0.0022328947670757766,4326.595703125,-990.6707153320312,4438.56494140625,-12.896828651428223
13.0,5034.72216796875,4423.60302734375,1139.7022705078125,-1139.7022705078125,4568.0615234375,-14.447550773620604,1.0,8.347450375367771e-08,-0.001316617475822568,8.0,0.9131998419761655,0.04499341174960136,61.83845520019531,0.0004657405079342425,0.0005796999321319163,9.849562957242595e-06,76.2860107421875,9.999999747378752e-06,0.0005205963971093297,4423.60302734375,-1139.7022705078125,4568.0615234375,-14.447550773620604
14.0,3993.0556640625,4534.5078125,1308.448974609375,-1308.448974609375,4719.5126953125,-16.095691680908203,1.0,9.363081687752128e-08,0.0009849646594375374,8.0,0.9422284960746765,0.04869535192847252,62.426639556884766,0.000459252594737336,0.000601527513936162,1.0317878150090108e-05,78.52233123779295,9.999999747378752e-06,0.0007358386646956204,4534.5078125,-1308.448974609375,4719.5126953125,-16.095691680908203
15.0,3144.054931640625,4665.39892578125,1516.8126220703125,-1516.8126220703125,4905.77880859375,-18.010358810424805,1.0,9.235919407046822e-08,0.004943790379911661,8.0,0.9587371945381165,0.04991732910275459,102.11144256591795,0.0003782741841860116,0.0073242876678705215,1.0175209354201796e-05,120.12181091308592,9.999999747378752e-06,0.0009963525226339696,4665.39892578125,-1516.8126220703125,4905.77880859375,-18.010358810424805
16.0,2519.53125,4806.14501953125,1745.649658203125,-1745.649658203125,5113.34765625,-19.961631774902344,1.0,9.791833122108072e-08,0.007427496835589408,8.0,0.9671905636787415,0.05158432945609093,29.20285987854004,0.0004757879360113293,0.009072036482393742,1.0088171620736828e-05,49.16448974609375,9.999999747378752e-06,0.0008217841386795045,4806.14501953125,-1745.649658203125,5113.34765625,-19.961631774902344
17.0,2000.76220703125,4975.00244140625,2026.8819580078125,-2026.8819580078125,5372.0478515625,-22.16663360595703,1.0,1.0613802459147337e-07,0.009772559627890585,8.0,0.974405825138092,0.0541212409734726,56.37881851196289,0.00046806628233753134,0.00092270877212286,1.0074600140796974e-05,78.54544830322266,9.999999747378752e-06,0.0009594536386430264,4975.00244140625,-2026.8819580078125,5372.0478515625,-22.16663360595703
18.0,1580.6685791015625,5175.16162109375,2362.035400390625,-2362.035400390625,5688.7177734375,-24.532796859741207,1.0,1.0591297439077608e-07,0.015030866488814352,8.0,0.9785227775573729,0.057127535343170166,105.2092056274414,0.00011533876386238262,0.000837023078929633,1.0042251233244315e-05,129.74200439453125,9.999999747378752e-06,0.0009673105087131261,5175.16162109375,-2362.035400390625,5688.7177734375,-24.532796859741207
19.0,1253.6336669921875,5409.37060546875,2753.50390625,-2753.50390625,6069.849609375,-26.977224349975582,1.0,1.0770292391271141e-07,0.01321122795343399,8.0,0.9822059869766236,0.06092697009444237,139.71710205078125,0.00015871942741796374,0.001136209233663976,1.0037640095106326e-05,166.69430541992188,9.999999747378752e-06,0.0012366604059934616,5409.37060546875,-2753.50390625,6069.849609375,-26.977224349975582
20.0,1000.7022705078124,5675.74755859375,3199.664794921875,-3199.664794921875,6515.51708984375,-29.411840438842773,1.0,1.1097645824520441e-07,0.011322135105729105,8.0,0.9845339059829714,0.06530959904193878,19.133253097534176,0.0003762413398362696,0.0018187343375757337,1.0023701179306954e-05,48.54509353637695,9.999999747378752e-06,0.0019246493466198444,5675.74755859375,-3199.664794921875,6515.51708984375,-29.411840438842773
21.0,790.028076171875,6004.32275390625,3733.93359375,-3733.93359375,7070.654296875,-31.876415252685543,1.0,1.1153071000080673e-07,0.014397922903299332,8.0,0.9871080517768861,0.07089141011238098,-144.33016967773435,0.0003867511113639921,0.001813067588955164,1.002614590106532e-05,-112.45375823974608,9.999999747378752e-06,0.001260406570509076,6004.32275390625,-3733.93359375,7070.654296875,-31.876415252685543
22.0,628.8109741210938,6374.41650390625,4326.49853515625,-4326.49853515625,7704.01025390625,-34.16585922241211,1.0,1.1557366974557227e-07,0.0188108179718256,8.0,0.9903163909912108,0.07729049772024153,67.07255554199219,0.0005394580657593906,0.0019055063603445888,1.003250235953601e-05,101.23841094970705,9.999999747378752e-06,0.001127856783568859,6374.41650390625,-4326.49853515625,7704.01025390625,-34.16585922241211
23.0,502.2321472167969,6439.61865234375,5178.2958984375,-5178.2958984375,8263.3798828125,-38.803836822509766,1.0,1.218368765876221e-07,0.02768994309008121,8.0,0.9607003927230835,0.08016257733106613,141.5702362060547,0.0004541568923741579,0.0017602379666641355,9.700944247015286e-06,-179.6259307861328,9.999999747378752e-06,0.0003898852737620473,6439.61865234375,-5178.2958984375,8263.3798828125,-38.803836822509766
24.0,400.1524353027344,6995.82080078125,5927.0390625,-5927.0390625,9169.0400390625,-40.27212905883789,1.0,1.215695135670103e-07,0.038203392177820206,8.0,0.9828730821609496,0.09380657970905305,95.07641601562499,0.00048129670904017985,0.003213772783055901,1.0230796760879455e-05,135.34854125976562,9.999999747378752e-06,0.0005506680463440716,6995.82080078125,-5927.0390625,9169.0400390625,-40.27212905883789
25.0,315.5048217773437,7659.62744140625,6889.29296875,-6889.29296875,10302.05078125,-41.96913909912109,1.0,1.1911141939435765e-07,0.028880005702376366,8.0,0.9921755790710448,0.10399555414915083,-176.0555419921875,0.0005580832366831601,0.004700960591435432,1.0094646313518751e-05,-134.0864105224609,9.999999747378752e-06,0.0007446784293279051,7659.62744140625,-6889.29296875,10302.05078125,-41.96913909912109
26.0,252.01612854003903,8363.54296875,7891.45751953125,-7891.45751953125,11498.8671875,-43.336456298828125,1.0,1.0887324464192717e-07,0.028704257681965828,8.0,0.9963191151618956,0.11546890437602995,67.78128051757812,0.0007473278674297034,0.0061669121496379375,1.004176192509476e-05,111.11773681640624,9.999999747378752e-06,0.0009279137593694032,8363.54296875,-7891.45751953125,11498.8671875,-43.336456298828125
27.0,200.3205108642578,9184.48046875,9100.8017578125,-9100.8017578125,12929.7822265625,-44.73780059814453,1.0,1.100535698128624e-07,0.02082912251353264,8.0,0.996396005153656,0.1293078064918518,44.90359115600586,0.0010511407162994146,0.007910124957561493,1.0000771908380555e-05,89.64138793945312,9.999999747378752e-06,0.0008032387704588474,9184.48046875,-9100.8017578125,12929.7822265625,-44.73780059814453
28.0,158.005615234375,10167.0302734375,10605.0283203125,-10605.0283203125,14691.328125,-46.20795440673828,1.0,1.0190861132741703e-07,0.0032863435335457325,8.0,0.991362690925598,0.14617115259170532,88.50702667236328,0.0013784455368295312,0.00908682867884636,9.94948459265288e-06,134.71498107910156,9.999999747378752e-06,0.0010368002112954855,10167.0302734375,-10605.0283203125,14691.328125,-46.20795440673828
29.0,125.5580368041992,11163.060546875,12045.5283203125,-12045.5283203125,16422.80859375,-47.177528381347656,1.0,1.0525420179874345e-07,0.020720215514302254,8.0,0.9844102263450623,0.16307635605335236,-147.04660034179688,0.002159047406166792,0.01304282434284687,9.929869520419745e-06,-99.86907196044922,9.999999747378752e-06,0.001146523980423808,11163.060546875,-12045.5283203125,16422.80859375,-47.177528381347656
30.0,99.73403930664062,12414.2900390625,14040.5546875,-14040.5546875,18741.712890625,-48.51773071289063,1.0,1.0381343429344268e-07,-0.005532737821340561,8.0,0.9633472561836242,0.18340705335140228,28.33446884155273,0.00275664497166872,0.01401920523494482,9.786034752323756e-06,76.8521957397461,9.999999747378752e-06,0.0012308056466281414,12414.2900390625,-14040.5546875,18741.712890625,-48.51773071289063
31.0,79.44915008544922,13775.677734375,15251.9365234375,-15251.9365234375,20552.150390625,-47.9113883972168,1.0,8.223094027925981e-08,0.06878965348005295,8.0,0.9896884560585022,0.21114115417003632,-142.97486877441406,0.006138112396001816,0.028122611343860623,1.0273433872498572e-05,-95.06349182128906,9.999999747378752e-06,0.0006067471113055944,13775.677734375,-15251.9365234375,20552.150390625,-47.9113883972168
32.0,62.919464111328125,15301.8876953125,17632.224609375,-17632.224609375,23346.158203125,-49.04736328125,1.0,6.930451235120927e-08,0.06206467002630234,8.0,0.9905782938003539,0.2336714863777161,-142.5056610107422,0.007565656211227178,0.03143863007426262,1.0008991012000479e-05,-93.45828247070312,9.999999747378752e-06,0.0009976344881579282,15301.8876953125,-17632.224609375,23346.158203125,-49.04736328125
33.0,49.86701965332031,17052.546875,20462.5234375,-20462.5234375,26636.521484375,-50.193695068359375,1.0,7.80591520310736e-08,0.0520276315510273,8.0,0.9917044043540953,0.26666802167892456,-143.81063842773435,0.009368852712213991,0.03463941439986229,1.0011368431150912e-05,-93.61693572998048,9.999999747378752e-06,0.0009213870507664977,17052.546875,-20462.5234375,26636.521484375,-50.193695068359375
34.0,39.72457504272461,19070.791015625,23496.181640625,-23496.181640625,30261.619140625,-50.93532180786133,1.0,6.991351142460189e-08,0.04713026434183121,8.0,0.9921690821647645,0.30275797843933105,-143.5667266845703,0.0123802637681365,0.0403401143848896,1.0004685464082284e-05,-92.63140106201172,9.999999747378752e-06,0.0008706795633770524,19070.791015625,-23496.181640625,30261.619140625,-50.93532180786133
35.0,31.672296524047848,21409.515625,26969.15234375,-26969.15234375,34434.03125,-51.555625915527344,1.0,5.7684996335183314e-08,0.03659968823194504,8.0,0.9929375648498536,0.34460705518722534,-143.4011993408203,0.016003912314772602,0.04584195464849472,1.0007745913753752e-05,-91.8455810546875,9.999999747378752e-06,0.0009298444492742419,21409.515625,-26969.15234375,34434.03125,-51.555625915527344
36.0,25.201612472534176,24200.90234375,30716.259765625,-30716.259765625,39104.6328125,-51.76593017578125,1.0,6.455017143025543e-08,0.030631348490715023,8.0,0.9936763048171997,0.39133721590042114,-142.99038696289062,0.02094458974897861,0.05282310768961906,1.0007439414039254e-05,-91.22444152832033,9.999999747378752e-06,0.0009405175223946572,24200.90234375,-30716.259765625,39104.6328125,-51.76593017578125
37.0,20.03205108642578,27390.365234375,34913.91796875,-34913.91796875,44375.82421875,-51.88541412353516,1.0,6.406862951280345e-08,0.01669766753911972,8.0,0.9943143129348755,0.4440431594848633,-142.60134887695312,0.026074472814798355,0.05797794833779335,1.0006420779973269e-05,-90.71592712402344,9.999999747378752e-06,0.000845307484269142,27390.365234375,-34913.91796875,44375.82421875,-51.88541412353516
38.0,15.782828330993652,31188.875,39544.6171875,-39544.6171875,50363.90234375,-51.73712158203125,1.0,6.2005469203541e-08,-0.007181787863373756,8.0,0.9949742555618286,0.5039733052253723,-142.0443115234375,0.030623069033026692,0.06000664085149765,1.000663723971229e-05,-90.30718231201172,9.999999747378752e-06,0.0009244721150025724,31188.875,-39544.6171875,50363.90234375,-51.73712158203125
39.0,12.600806236267088,35132.796875,43819.28125,-43819.28125,56164.42578125,-51.27855682373047,1.0,6.470248337109297e-08,-0.032179463654756546,8.0,0.9956138134002684,0.5620053410530089,-141.2622833251953,0.03376578539609909,0.05934463068842888,1.0006428055930883e-05,-89.98372650146483,9.999999747378752e-06,0.0009539781021885572,35132.796875,-43819.28125,56164.42578125,-51.27855682373047
40.0,9.973403930664062,39476.25390625,47844.03515625,-47844.03515625,62027.625,-50.47385787963867,1.0,7.359444964549766e-08,-0.05749991536140442,8.0,0.9962426424026488,0.6206679940223694,-140.1978302001953,0.03678484261035919,0.0585498996078968,1.0006316188082565e-05,-89.7239761352539,9.999999747378752e-06,0.0008267823141068221,39476.25390625,-47844.03515625,62027.625,-50.47385787963867
41.0,7.971938610076904,43665.9453125,51276.71875,-51276.71875,67349.953125,-49.583133697509766,1.0,7.94550842897479e-08,-0.07634638249874115,8.0,0.9968084692955016,0.6738820672035217,-139.09750366210935,0.04143992066383362,0.06075827032327652,1.0005679541791324e-05,-89.51437377929686,9.999999747378752e-06,0.0007669442566111683,43665.9453125,-51276.71875,67349.953125,-49.583133697509766
42.0,6.275100231170654,48094.09765625,54489.4609375,-54489.4609375,72678.3515625,-48.5673713684082,1.0,8.908559578912899e-08,-0.08637650310993193,8.0,0.9974384307861328,0.7272429466247559,-137.90316772460935,0.04957788437604904,0.06736105680465698,1.0006319826061372e-05,-89.3357925415039,9.999999747378752e-06,0.0008804977987892925,48094.09765625,-54489.4609375,72678.3515625,-48.5673713684082
43.0,5.013369083404541,52162.46484375,57225.078125,-57225.078125,77431.46875,-47.64984130859375,1.0,9.27831038666227e-08,-0.0908268764615059,8.0,0.9979341030120848,0.7746995091438292,-136.8457489013672,0.0591399148106575,0.0754326805472374,1.0004969226429237e-05,-89.19590759277342,9.999999747378752e-06,0.0007747060153633357,52162.46484375,-57225.078125,77431.46875,-47.64984130859375
44.0,3.985969305038452,56213.96484375,59893.8671875,-59893.8671875,82141.859375,-46.81531524658203,1.0,7.945450875013194e-08,-0.09640968590974808,8.0,0.9984838366508483,0.8218710422515869,-135.89883422851562,0.07043187320232391,0.0846821442246437,1.000550855678739e-05,-89.08351135253906,9.999999747378752e-06,0.0007067238911986351,56213.96484375,-59893.8671875,82141.859375,-46.81531524658203
45.0,3.1758129596710205,59993.546875,62709.33984375,-62709.33984375,86785.2890625,-46.26792907714844,1.0,5.661725666072925e-08,-0.10784319043159483,8.0,0.9988266229629517,0.8681508302688599,-135.2647705078125,0.08347982168197632,0.09502169489860535,1.0003433089877944e-05,-88.99684143066406,9.999999747378752e-06,0.0007290944922715425,59993.546875,-62709.33984375,86785.2890625,-46.26792907714844
46.0,2.516103029251098,62754.015625,66232.8671875,-66232.8671875,91240.6640625,-46.54492568969727,1.0,8.378290061727967e-08,-0.1199321299791336,8.0,0.9676911234855651,0.883965015411377,-179.413330078125,0.04217831045389176,0.04714613035321236,9.688279533293098e-06,-132.868408203125,9.999999747378752e-06,0.00022817276476416737,62754.015625,-66232.8671875,91240.6640625,-46.54492568969727
47.0,1.9955300092697144,65337.73046875,67863.4921875,-67863.4921875,94204.421875,-46.08631134033203,1.0,7.654929135014754e-08,-0.12368880957365036,8.0,0.9867396950721741,0.9605878591537476,-169.04566955566406,0.0706498771905899,0.07268346101045609,1.0196845323662272e-05,-122.95935821533205,9.999999747378752e-06,0.0003885772603098303,65337.73046875,-67863.4921875,94204.421875,-46.08631134033203
